#  HZ   S   RI   R     50.0 
! Rohde & Schwarz ZVL13 2Ports - Version 3.31 - 1303.6509k13 SN: 101088
! Date: 2023-03-02 16:54:03
! Data & Calibration Information:
! Trc2:S21(Trans Norm)
! 
! 
! 
 1.000000000000000E9     5.669331550598145E-1  -8.219957892014359E-1  
 1.002250562640660E9     5.668545365333557E-1  -8.242705435292274E-1  
 1.004501125281320E9     5.650054216384888E-1  -8.251642451786464E-1  
 1.006751687921981E9     5.607215762138367E-1  -8.241580817984220E-1  
 1.009002250562641E9     5.602282881736755E-1  -8.267832303204181E-1  
 1.011252813203301E9     5.577680468559265E-1  -8.280253901287795E-1  
 1.013503375843961E9     5.552432537078857E-1  -8.282983435722563E-1  
 1.015753938484621E9     5.537404417991638E-1  -8.320190825877176E-1  
 1.018004501125281E9     5.528118610382080E-1  -8.311535459949778E-1  
 1.020255063765942E9     5.513494610786438E-1  -8.334713934795350E-1  
 1.022505626406602E9     5.501850247383118E-1  -8.328941892454503E-1  
 1.024756189047262E9     5.461489558219910E-1  -8.340577716785473E-1  
 1.027006751687922E9     5.449497699737549E-1  -8.370313747545216E-1  
 1.029257314328582E9     5.421065688133240E-1  -8.396971088740743E-1  
 1.031507876969242E9     5.431702136993408E-1  -8.392122986240005E-1  
 1.033758439609903E9     5.410119891166687E-1  -8.399902006053607E-1  
 1.036009002250563E9     5.372495651245117E-1  -8.390725287216967E-1  
 1.038259564891223E9     5.359239578247070E-1  -8.424740195437647E-1  
 1.040510127531883E9     5.340244174003601E-1  -8.439023664164540E-1  
 1.042760690172543E9     5.326833724975586E-1  -8.437943691446697E-1  
 1.045011252813203E9     5.310345888137817E-1  -8.458227141701331E-1  
 1.047261815453864E9     5.297799706459045E-1  -8.477973954962610E-1  
 1.049512378094524E9     5.246300697326660E-1  -8.487074189631382E-1  
 1.051762940735184E9     5.263983607292175E-1  -8.488065519193138E-1  
 1.054013503375844E9     5.239810347557068E-1  -8.524034750079945E-1  
 1.056264066016504E9     5.225247740745544E-1  -8.510618523799712E-1  
 1.058514628657164E9     5.202981233596802E-1  -8.515658122381633E-1  
 1.060765191297825E9     5.197961330413818E-1  -8.524985603922702E-1  
 1.063015753938485E9     5.169329643249512E-1  -8.550858381885289E-1  
 1.065266316579145E9     5.164347887039185E-1  -8.553755790101103E-1  
 1.067516879219805E9     5.125839710235596E-1  -8.570188450988342E-1  
 1.069767441860465E9     5.096349120140076E-1  -8.584808771517085E-1  
 1.072018004501125E9     5.078770518302918E-1  -8.583684056636746E-1  
 1.074268567141785E9     5.052759647369385E-1  -8.610044587849557E-1  
 1.076519129782446E9     5.040972828865051E-1  -8.617092593399234E-1  
 1.078769692423106E9     5.012856721878052E-1  -8.623966495992572E-1  
 1.081020255063766E9     4.992383420467377E-1  -8.626943662059634E-1  
 1.083270817704426E9     4.997389316558838E-1  -8.642355202802216E-1  
 1.085521380345086E9     4.985015094280243E-1  -8.655479946949021E-1  
 1.087771942985746E9     4.954791665077210E-1  -8.676034773431394E-1  
 1.090022505626407E9     4.950694441795349E-1  -8.685622225799397E-1  
 1.092273068267067E9     4.926785826683044E-1  -8.688232735244075E-1  
 1.094523630907727E9     4.891375601291657E-1  -8.708449083553547E-1  
 1.096774193548387E9     4.875321388244629E-1  -8.725127452281641E-1  
 1.099024756189047E9     4.865779876708984E-1  -8.719789643843475E-1  
 1.101275318829707E9     4.795257449150085E-1  -8.752411630007375E-1  
 1.103525881470368E9     4.817978739738464E-1  -8.748617165358819E-1  
 1.105776444111028E9     4.817471802234650E-1  -8.771458259598336E-1  
 1.108027006751688E9     4.778886437416077E-1  -8.769697172935980E-1  
 1.110277569392348E9     4.758228063583374E-1  -8.763808744468552E-1  
 1.112528132033008E9     4.727841913700104E-1  -8.803663570170885E-1  
 1.114778694673668E9     4.708649814128876E-1  -8.812930411397716E-1  
 1.117029257314329E9     4.681770205497742E-1  -8.806389513680107E-1  
 1.119279819954989E9     4.697032272815704E-1  -8.830302865417398E-1  
 1.121530382595649E9     4.645291566848755E-1  -8.841530026969332E-1  
 1.123780945236309E9     4.635658860206604E-1  -8.855865848485125E-1  
 1.126031507876969E9     4.598032832145691E-1  -8.851371680580327E-1  
 1.128282070517629E9     4.598606824874878E-1  -8.874482878593624E-1  
 1.130532633158290E9     4.594994783401489E-1  -8.879336198913570E-1  
 1.132783195798950E9     4.557605683803558E-1  -8.885859501242072E-1  
 1.135033758439610E9     4.550834596157074E-1  -8.885686824581693E-1  
 1.137284321080270E9     4.513770043849945E-1  -8.907654560487420E-1  
 1.139534883720930E9     4.531766474246979E-1  -8.914209387697314E-1  
 1.141785446361590E9     4.499427974224091E-1  -8.907007428419018E-1  
 1.144036009002251E9     4.463110268115997E-1  -8.916588452340942E-1  
 1.146286571642911E9     4.440326690673828E-1  -8.936837200418718E-1  
 1.148537134283571E9     4.449169337749481E-1  -8.937671638244322E-1  
 1.150787696924231E9     4.402845799922943E-1  -8.956030939585492E-1  
 1.153038259564891E9     4.415347278118134E-1  -8.960143159135968E-1  
 1.155288822205551E9     4.364419281482697E-1  -8.975497548509224E-1  
 1.157539384846211E9     4.363552033901215E-1  -8.977820940514140E-1  
 1.159789947486872E9     4.351400732994080E-1  -9.002678200332563E-1  
 1.162040510127532E9     4.319063127040863E-1  -9.028471019141455E-1  
 1.164291072768192E9     4.290878772735596E-1  -9.019280244816260E-1  
 1.166541635408852E9     4.289562404155731E-1  -9.041467930810008E-1  
 1.168792198049512E9     4.227564334869385E-1  -9.039788371289278E-1  
 1.171042760690172E9     4.226520955562592E-1  -9.046242459999517E-1  
 1.173293323330833E9     4.227857589721680E-1  -9.052645728932771E-1  
 1.175543885971493E9     4.203045368194580E-1  -9.068175131514830E-1  
 1.177794448612153E9     4.177202284336090E-1  -9.068265729259172E-1  
 1.180045011252813E9     4.176387786865234E-1  -9.075141721671430E-1  
 1.182295573893473E9     4.159674048423767E-1  -9.093244232080563E-1  
 1.184546136534133E9     4.115240275859833E-1  -9.106114982344311E-1  
 1.186796699174794E9     4.097661674022675E-1  -9.099493452614199E-1  
 1.189047261815454E9     4.076514542102814E-1  -9.110701920335907E-1  
 1.191297824456114E9     4.046845734119415E-1  -9.123113652198145E-1  
 1.193548387096774E9     4.033880531787872E-1  -9.139137907188238E-1  
 1.195798949737434E9     4.004803597927094E-1  -9.139125774542193E-1  
 1.198049512378094E9     3.988470733165741E-1  -9.143013307384847E-1  
 1.200300075018755E9     3.976419270038605E-1  -9.149050980910648E-1  
 1.202550637659415E9     3.955517113208771E-1  -9.176814987362941E-1  
 1.204801200300075E9     3.944929242134094E-1  -9.159842675770775E-1  
 1.207051762940735E9     3.916723728179932E-1  -9.176622860218687E-1  
 1.209302325581395E9     3.889419734477997E-1  -9.210581990695445E-1  
 1.211552888222055E9     3.891782462596893E-1  -9.177765629002287E-1  
 1.213803450862716E9     3.867435753345490E-1  -9.210410032354230E-1  
 1.216054013503376E9     3.841075301170349E-1  -9.212981258271787E-1  
 1.218304576144036E9     3.821472525596619E-1  -9.215228762145630E-1  
 1.220555138784696E9     3.796170949935913E-1  -9.234981866439898E-1  
 1.222805701425356E9     3.783088922500610E-1  -9.234826979752828E-1  
 1.225056264066016E9     3.768017590045929E-1  -9.247470033487505E-1  
 1.227306826706677E9     3.744258284568787E-1  -9.249687679399554E-1  
 1.229557389347337E9     3.721306920051575E-1  -9.263082478845276E-1  
 1.231807951987997E9     3.702229261398315E-1  -9.269928488010351E-1  
 1.234058514628657E9     3.689349889755249E-1  -9.275483104342571E-1  
 1.236309077269317E9     3.664544522762299E-1  -9.284376528419754E-1  
 1.238559639909977E9     3.647677600383759E-1  -9.301146744967269E-1  
 1.240810202550638E9     3.608260452747345E-1  -9.306901039202119E-1  
 1.243060765191298E9     3.599542081356049E-1  -9.311278242872337E-1  
 1.245311327831958E9     3.585723638534546E-1  -9.316600522785816E-1  
 1.247561890472618E9     3.580874204635620E-1  -9.334047360585789E-1  
 1.249812453113278E9     3.547260463237763E-1  -9.338063979868377E-1  
 1.252063015753938E9     3.515467047691345E-1  -9.334045676994160E-1  
 1.254313578394599E9     3.495026230812073E-1  -9.376636441938200E-1  
 1.256564141035259E9     3.479266464710236E-1  -9.350533503408375E-1  
 1.258814703675919E9     3.459792435169220E-1  -9.358314571045627E-1  
 1.261065266316579E9     3.424451053142548E-1  -9.379950282816327E-1  
 1.263315828957239E9     3.409208655357361E-1  -9.381525651582579E-1  
 1.265566391597899E9     3.405566513538361E-1  -9.404220319016347E-1  
 1.267816954238560E9     3.371390700340271E-1  -9.384454196178979E-1  
 1.270067516879220E9     3.362107574939728E-1  -9.399523682531418E-1  
 1.272318079519880E9     3.330616950988770E-1  -9.428587248146171E-1  
 1.274568642160540E9     3.348764181137085E-1  -9.411648533387202E-1  
 1.276819204801200E9     3.313529789447784E-1  -9.416502153671096E-1  
 1.279069767441860E9     3.261699974536896E-1  -9.438080082059981E-1  
 1.281320330082521E9     3.250665962696075E-1  -9.443574400613285E-1  
 1.283570892723181E9     3.230866491794586E-1  -9.440677531273833E-1  
 1.285821455363841E9     3.204599618911743E-1  -9.450933512710761E-1  
 1.288072018004501E9     3.192008733749390E-1  -9.471129866410263E-1  
 1.290322580645161E9     3.162211477756500E-1  -9.464366036109695E-1  
 1.292573143285821E9     3.142095506191254E-1  -9.490666716023868E-1  
 1.294823705926482E9     3.118872344493866E-1  -9.493709784660219E-1  
 1.297074268567142E9     3.117050826549530E-1  -9.465108486387373E-1  
 1.299324831207802E9     3.090962171554565E-1  -9.484078814781114E-1  
 1.301575393848462E9     3.076475560665131E-1  -9.511422987160577E-1  
 1.303825956489122E9     3.033315837383270E-1  -9.496568940145711E-1  
 1.306076519129782E9     3.031799793243408E-1  -9.515621049060584E-1  
 1.308327081770443E9     3.017089366912842E-1  -9.530513360057568E-1  
 1.310577644411103E9     2.982569336891174E-1  -9.538311824531308E-1  
 1.312828207051763E9     2.959377467632294E-1  -9.547303330160771E-1  
 1.315078769692423E9     2.936923503875732E-1  -9.553219261836844E-1  
 1.317329332333083E9     2.922451198101044E-1  -9.544164112527855E-1  
 1.319579894973743E9     2.899582982063294E-1  -9.555571446323280E-1  
 1.321830457614404E9     2.881950736045837E-1  -9.566707965866230E-1  
 1.324081020255064E9     2.856090068817139E-1  -9.556691671033156E-1  
 1.326331582895724E9     2.829765975475311E-1  -9.565202188129691E-1  
 1.328582145536384E9     2.827013134956360E-1  -9.572987589166291E-1  
 1.330832708177044E9     2.790262401103973E-1  -9.582496786923542E-1  
 1.333083270817704E9     2.787215709686279E-1  -9.581259366683820E-1  
 1.335333833458365E9     2.751765847206116E-1  -9.595275555357250E-1  
 1.337584396099025E9     2.758180499076843E-1  -9.591783118359114E-1  
 1.339834958739685E9     2.718566060066223E-1  -9.611056897201927E-1  
 1.342085521380345E9     2.690654695034027E-1  -9.600777291320246E-1  
 1.344336084021005E9     2.674249708652496E-1  -9.624367321166210E-1  
 1.346586646661665E9     2.634012699127197E-1  -9.644728517503205E-1  
 1.348837209302326E9     2.622090280056000E-1  -9.629585935549661E-1  
 1.351087771942986E9     2.616246640682221E-1  -9.646063646528247E-1  
 1.353338334583646E9     2.597938477993012E-1  -9.655738150651937E-1  
 1.355588897224306E9     2.544358074665070E-1  -9.635388453465266E-1  
 1.357839459864966E9     2.536744475364685E-1  -9.656540917208156E-1  
 1.360090022505626E9     2.545922100543976E-1  -9.645162993080215E-1  
 1.362340585146287E9     2.494330406188965E-1  -9.669759915605940E-1  
 1.364591147786947E9     2.497431933879852E-1  -9.672364820671066E-1  
 1.366841710427607E9     2.456923276185989E-1  -9.669526763326943E-1  
 1.369092273068267E9     2.436486184597015E-1  -9.697791183357346E-1  
 1.371342835708927E9     2.423971742391586E-1  -9.675123228919677E-1  
 1.373593398349587E9     2.391256242990494E-1  -9.693389859388787E-1  
 1.375843960990248E9     2.383304238319397E-1  -9.699370619157837E-1  
 1.378094523630908E9     2.363367527723312E-1  -9.704637877628226E-1  
 1.380345086271568E9     2.344613522291184E-1  -9.710071501930876E-1  
 1.382595648912228E9     2.332125306129456E-1  -9.704529532676011E-1  
 1.384846211552888E9     2.303547263145447E-1  -9.727209028748700E-1  
 1.387096774193548E9     2.281899750232697E-1  -9.728743032365477E-1  
 1.389347336834209E9     2.244568318128586E-1  -9.733651767903018E-1  
 1.391597899474869E9     2.245283573865891E-1  -9.711368283149097E-1  
 1.393848462115529E9     2.198306173086166E-1  -9.723147266227262E-1  
 1.396099024756189E9     2.195223420858383E-1  -9.737176689187994E-1  
 1.398349587396849E9     2.168678641319275E-1  -9.746435497312715E-1  
 1.400600150037509E9     2.164205759763718E-1  -9.752138410709360E-1  
 1.402850712678170E9     2.128143608570099E-1  -9.750740909864120E-1  
 1.405101275318830E9     2.127337306737900E-1  -9.756492681466726E-1  
 1.407351837959490E9     2.083670794963837E-1  -9.762187379214637E-1  
 1.409602400600150E9     2.055854350328445E-1  -9.775083182112916E-1  
 1.411852963240810E9     2.042803615331650E-1  -9.772119066102382E-1  
 1.414103525881470E9     2.015076130628586E-1  -9.796894876224792E-1  
 1.416354088522131E9     1.986492276191711E-1  -9.788387545565099E-1  
 1.418604651162791E9     1.983696669340134E-1  -9.776649109350157E-1  
 1.420855213803451E9     1.949144899845123E-1  -9.807038397185609E-1  
 1.423105776444111E9     1.926383376121521E-1  -9.800115538063635E-1  
 1.425356339084771E9     1.906086057424545E-1  -9.815364143450640E-1  
 1.427606901725431E9     1.875362247228622E-1  -9.822348435927276E-1  
 1.429857464366092E9     1.865373700857163E-1  -9.819953457028297E-1  
 1.432108027006752E9     1.848340481519699E-1  -9.811760736804015E-1  
 1.434358589647412E9     1.841552704572678E-1  -9.816907258231336E-1  
 1.436609152288072E9     1.804306358098984E-1  -9.825139789004050E-1  
 1.438859714928732E9     1.793895065784454E-1  -9.820128793210372E-1  
 1.441110277569392E9     1.754088103771210E-1  -9.832303369472253E-1  
 1.443360840210053E9     1.738667935132980E-1  -9.834604939031818E-1  
 1.445611402850713E9     1.731526255607605E-1  -9.844636820473490E-1  
 1.447861965491373E9     1.694361567497253E-1  -9.840709415886955E-1  
 1.450112528132033E9     1.680907607078552E-1  -9.846627521540268E-1  
 1.452363090772693E9     1.648032665252686E-1  -9.830833331875102E-1  
 1.454613653413353E9     1.621682494878769E-1  -9.838739700133028E-1  
 1.456864216054014E9     1.606251597404480E-1  -9.880423887910074E-1  
 1.459114778694674E9     1.605075746774674E-1  -9.854196225872705E-1  
 1.461365341335334E9     1.572090238332748E-1  -9.872259097667729E-1  
 1.463615903975994E9     1.546695381402969E-1  -9.865665802257326E-1  
 1.465866466616654E9     1.526938825845718E-1  -9.860684120379865E-1  
 1.468117029257314E9     1.508051156997681E-1  -9.857833928052961E-1  
 1.470367591897975E9     1.481523215770721E-1  -9.867825229822040E-1  
 1.472618154538635E9     1.468014270067215E-1  -9.862292385657009E-1  
 1.474868717179295E9     1.448610574007034E-1  -9.871783481567072E-1  
 1.477119279819955E9     1.412197053432465E-1  -9.889794840700282E-1  
 1.479369842460615E9     1.397924870252609E-1  -9.889232718306795E-1  
 1.481620405101275E9     1.378802359104157E-1  -9.887228095048046E-1  
 1.483870967741936E9     1.342425793409348E-1  -9.882840707119094E-1  
 1.486121530382596E9     1.358902007341385E-1  -9.909409213696435E-1  
 1.488372093023256E9     1.317508369684219E-1  -9.906260040072713E-1  
 1.490622655663916E9     1.275442093610764E-1  -9.901790151419777E-1  
 1.492873218304576E9     1.297637522220612E-1  -9.899718925266580E-1  
 1.495123780945236E9     1.262168139219284E-1  -9.893364642060004E-1  
 1.497374343585897E9     1.221302300691605E-1  -9.914480741020615E-1  
 1.499624906226557E9     1.216920688748360E-1  -9.915322330573519E-1  
 1.501875468867217E9     1.191805750131607E-1  -9.910303771091868E-1  
 1.504126031507877E9     1.178850978612900E-1  -9.900761532646774E-1  
 1.506376594148537E9     1.146013960242271E-1  -9.910459316761930E-1  
 1.508627156789197E9     1.110071986913681E-1  -9.928747403393444E-1  
 1.510877719429858E9     1.095602512359619E-1  -9.937648797286252E-1  
 1.513128282070518E9     1.062616035342217E-1  -9.923803989568959E-1  
 1.515378844711178E9     1.056014597415924E-1  -9.923742668015004E-1  
 1.517629407351838E9     1.019309461116791E-1  -9.928806083331004E-1  
 1.519879969992498E9     9.848693013191223E-2  -9.929165721202626E-1  
 1.522130532633158E9     9.747208654880524E-2  -9.940059739961742E-1  
 1.524381095273819E9     9.728652238845825E-2  -9.928371118867189E-1  
 1.526631657914479E9     9.502988308668137E-2  -9.942214301935357E-1  
 1.528882220555139E9     9.450245648622513E-2  -9.944198067269606E-1  
 1.531132783195799E9     8.888173103332520E-2  -9.932627115549406E-1  
 1.533383345836459E9     8.990487456321716E-2  -9.950629791287676E-1  
 1.535633908477119E9     8.749471604824066E-2  -9.957909190022111E-1  
 1.537884471117779E9     8.132285624742508E-2  -9.941142771505057E-1  
 1.540135033758440E9     7.783842086791992E-2  -9.927135084424805E-1  
 1.542385596399100E9     7.868777215480804E-2  -9.951046919212581E-1  
 1.544636159039760E9     7.773289084434509E-2  -9.975524393135316E-1  
 1.546886721680420E9     7.477442175149918E-2  -9.942095266883633E-1  
 1.549137284321080E9     7.313545048236847E-2  -9.946358041011481E-1  
 1.551387846961741E9     7.126021385192871E-2  -9.946839756201977E-1  
 1.553638409602401E9     6.869474053382874E-2  -9.956929266039649E-1  
 1.555888972243061E9     6.673034280538559E-2  -9.958139147593240E-1  
 1.558139534883721E9     6.349826604127884E-2  -9.955092428470342E-1  
 1.560390097524381E9     6.131510436534882E-2  -9.969946662711752E-1  
 1.562640660165041E9     6.081959977746010E-2  -9.957388976603518E-1  
 1.564891222805701E9     5.937245860695839E-2  -9.965755684963993E-1  
 1.567141785446362E9     5.623091012239456E-2  -9.978431583061912E-1  
 1.569392348087022E9     5.147060751914978E-2  -9.982479658052818E-1  
 1.571642910727682E9     5.301323905587196E-2  -9.961229610257778E-1  
 1.573893473368342E9     4.502765089273453E-2  -9.981309082733593E-1  
 1.576144036009002E9     4.662485793232918E-2  -9.981830535883391E-1  
 1.578394598649663E9     4.410205408930779E-2  -9.984496022148984E-1  
 1.580645161290323E9     4.232432320713997E-2  -9.965425540729541E-1  
 1.582895723930983E9     3.950014710426331E-2  -9.981742489342416E-1  
 1.585146286571643E9     3.778618574142456E-2  -9.966219406825949E-1  
 1.587396849212303E9     3.563445433974266E-2  -9.973234424652684E-1  
 1.589647411852963E9     3.607743233442307E-2  -9.975881621429695E-1  
 1.591897974493623E9     2.907459624111652E-2  -9.958497319687342E-1  
 1.594148537134284E9     2.768814563751221E-2  -9.984583844488825E-1  
 1.596399099774944E9     2.610644325613976E-2  -9.970676369658046E-1  
 1.598649662415604E9     2.640430629253388E-2  -9.978881847356849E-1  
 1.600900225056264E9     2.222530171275139E-2  -9.997394541349576E-1  
 1.603150787696924E9     2.091853320598602E-2  -9.966064171297975E-1  
 1.605401350337585E9     1.951229944825172E-2  -9.984404593668723E-1  
 1.607651912978245E9     1.649442687630653E-2  -9.990793204358244E-1  
 1.609902475618905E9     1.435498334467411E-2  -9.979713288326736E-1  
 1.612153038259565E9     1.211684290319681E-2  -9.974923344574495E-1  
 1.614403600900225E9     9.788882918655872E-3  -9.977826038129770E-1  
 1.616654163540885E9     5.968202836811543E-3  -9.969879833879440E-1  
 1.618904726181545E9     6.739112082868815E-3  -9.984739224636389E-1  
 1.621155288822206E9     1.015477580949664E-3  -9.983929484254844E-1  
 1.623405851462866E9     1.324906595982611E-3  -9.982831511423715E-1  
