#  HZ   S   RI   R     50.0 
! Rohde & Schwarz ZVL13 2Ports - Version 3.31 - 1303.6509k13 SN: 101088
! Date: 2023-03-02 17:02:38
! Data & Calibration Information:
! Trc2:S21(Trans Norm)
! 
! 
! 
 1.000000000000000E9     5.806993246078491E-1  -8.332419556539361E-1  
 1.002250562640660E9     5.799353122711182E-1  -8.332215665541748E-1  
 1.004501125281320E9     5.767379999160767E-1  -8.341873826867712E-1  
 1.006751687921981E9     5.732502937316895E-1  -8.364353286546893E-1  
 1.009002250562641E9     5.702174901962280E-1  -8.370720438399346E-1  
 1.011252813203301E9     5.643811225891113E-1  -8.384162223738264E-1  
 1.013503375843961E9     5.620520710945129E-1  -8.387396776650890E-1  
 1.015753938484621E9     5.614698529243469E-1  -8.423972278203817E-1  
 1.018004501125281E9     5.576677322387695E-1  -8.411015299754909E-1  
 1.020255063765942E9     5.545876026153565E-1  -8.412552079642900E-1  
 1.022505626406602E9     5.526216626167297E-1  -8.416831107668578E-1  
 1.024756189047262E9     5.485669374465942E-1  -8.420020741796692E-1  
 1.027006751687922E9     5.471972227096558E-1  -8.436531123387269E-1  
 1.029257314328582E9     5.453925728797913E-1  -8.441096271897551E-1  
 1.031507876969242E9     5.442541241645813E-1  -8.436247960632302E-1  
 1.033758439609903E9     5.399373769760132E-1  -8.428791052408136E-1  
 1.036009002250563E9     5.383847951889038E-1  -8.428440966442878E-1  
 1.038259564891223E9     5.360857248306274E-1  -8.441959952401653E-1  
 1.040510127531883E9     5.340768694877625E-1  -8.434592423937040E-1  
 1.042760690172543E9     5.338546037673950E-1  -8.442141567714030E-1  
 1.045011252813203E9     5.312944054603577E-1  -8.442899725938194E-1  
 1.047261815453864E9     5.324912071228027E-1  -8.454477329199276E-1  
 1.049512378094524E9     5.274507403373718E-1  -8.458810326633812E-1  
 1.051762940735184E9     5.289972424507141E-1  -8.463906412980856E-1  
 1.054013503375844E9     5.271039605140686E-1  -8.501387777609031E-1  
 1.056264066016504E9     5.263959169387817E-1  -8.494704198139849E-1  
 1.058514628657164E9     5.243368148803711E-1  -8.517863827416898E-1  
 1.060765191297825E9     5.244076251983643E-1  -8.517505232627763E-1  
 1.063015753938485E9     5.218195319175720E-1  -8.539698283083465E-1  
 1.065266316579145E9     5.198237299919128E-1  -8.545633374462078E-1  
 1.067516879219805E9     5.181304812431335E-1  -8.558781673587709E-1  
 1.069767441860465E9     5.155770182609558E-1  -8.584491906227278E-1  
 1.072018004501125E9     5.123887062072754E-1  -8.572392389350626E-1  
 1.074268567141785E9     5.108051300048828E-1  -8.600739611970325E-1  
 1.076519129782446E9     5.098634362220764E-1  -8.613229924600907E-1  
 1.078769692423106E9     5.088009238243103E-1  -8.620372758520545E-1  
 1.081020255063766E9     5.078599452972412E-1  -8.623398696145378E-1  
 1.083270817704426E9     5.065302848815918E-1  -8.634615379390815E-1  
 1.085521380345086E9     5.053249001502991E-1  -8.657734692981731E-1  
 1.087771942985746E9     5.028938651084900E-1  -8.660963177924967E-1  
 1.090022505626407E9     5.013404488563538E-1  -8.670974223265433E-1  
 1.092273068267067E9     4.979963898658752E-1  -8.688269835087288E-1  
 1.094523630907727E9     4.960975348949432E-1  -8.698318558683280E-1  
 1.096774193548387E9     4.966093897819519E-1  -8.719112287233874E-1  
 1.099024756189047E9     4.947792887687683E-1  -8.733304557998206E-1  
 1.101275318829707E9     4.899283349514008E-1  -8.761490201845256E-1  
 1.103525881470368E9     4.909025132656097E-1  -8.755406957775734E-1  
 1.105776444111028E9     4.883556365966797E-1  -8.772123257400676E-1  
 1.108027006751688E9     4.867020547389984E-1  -8.766231984952274E-1  
 1.110277569392348E9     4.841235876083374E-1  -8.767922668359220E-1  
 1.112528132033008E9     4.799644649028778E-1  -8.799704620581266E-1  
 1.114778694673668E9     4.803078770637512E-1  -8.806646185410838E-1  
 1.117029257314329E9     4.786506295204163E-1  -8.815325744574105E-1  
 1.119279819954989E9     4.767535030841827E-1  -8.829929216076657E-1  
 1.121530382595649E9     4.733020663261414E-1  -8.852157772771201E-1  
 1.123780945236309E9     4.730890691280365E-1  -8.853379142222431E-1  
 1.126031507876969E9     4.683247208595276E-1  -8.857125920865743E-1  
 1.128282070517629E9     4.684711396694183E-1  -8.882883127858314E-1  
 1.130532633158290E9     4.678660631179810E-1  -8.877275370737059E-1  
 1.132783195798950E9     4.645138382911682E-1  -8.906854280348299E-1  
 1.135033758439610E9     4.627209901809692E-1  -8.897262754293472E-1  
 1.137284321080270E9     4.602348804473877E-1  -8.917447788722558E-1  
 1.139534883720930E9     4.612548053264618E-1  -8.915119558351770E-1  
 1.141785446361590E9     4.566395580768585E-1  -8.927690021092231E-1  
 1.144036009002251E9     4.565100967884064E-1  -8.952136832944972E-1  
 1.146286571642911E9     4.501155912876129E-1  -8.957913830303611E-1  
 1.148537134283571E9     4.510213136672974E-1  -8.958117387135102E-1  
 1.150787696924231E9     4.494372606277466E-1  -8.961149279998320E-1  
 1.153038259564891E9     4.501032233238220E-1  -8.969616801157250E-1  
 1.155288822205551E9     4.448270201683044E-1  -8.980303823895839E-1  
 1.157539384846211E9     4.441445171833038E-1  -8.977835265608718E-1  
 1.159789947486872E9     4.434526860713959E-1  -9.004500594212721E-1  
 1.162040510127532E9     4.412943422794342E-1  -9.028894479101757E-1  
 1.164291072768192E9     4.392495155334473E-1  -9.030935647426697E-1  
 1.166541635408852E9     4.371756017208099E-1  -9.042438203911579E-1  
 1.168792198049512E9     4.332512319087982E-1  -9.050178096675198E-1  
 1.171042760690172E9     4.334042668342590E-1  -9.067143810996159E-1  
 1.173293323330833E9     4.311198294162750E-1  -9.083226231683387E-1  
 1.175543885971493E9     4.293120503425598E-1  -9.099803861517649E-1  
 1.177794448612153E9     4.260845184326172E-1  -9.089526309602640E-1  
 1.180045011252813E9     4.257715344429016E-1  -9.092416096080640E-1  
 1.182295573893473E9     4.231359660625458E-1  -9.125643838681482E-1  
 1.184546136534133E9     4.204518198966980E-1  -9.129577579910365E-1  
 1.186796699174794E9     4.172686040401459E-1  -9.125700074325289E-1  
 1.189047261815454E9     4.145691394805908E-1  -9.126472853650244E-1  
 1.191297824456114E9     4.126042127609253E-1  -9.139847235669166E-1  
 1.193548387096774E9     4.119409918785095E-1  -9.148762234470055E-1  
 1.195798949737434E9     4.083118140697479E-1  -9.160805359918027E-1  
 1.198049512378094E9     4.090510010719299E-1  -9.151489464328375E-1  
 1.200300075018755E9     4.070002436637878E-1  -9.165395965608602E-1  
 1.202550637659415E9     4.024473130702972E-1  -9.186362131905366E-1  
 1.204801200300075E9     4.034617543220520E-1  -9.205257992113030E-1  
 1.207051762940735E9     3.997794985771179E-1  -9.216341522745447E-1  
 1.209302325581395E9     3.992359638214111E-1  -9.209349791870978E-1  
 1.211552888222055E9     3.976168036460877E-1  -9.189644608422231E-1  
 1.213803450862716E9     3.926380574703217E-1  -9.222777793221986E-1  
 1.216054013503376E9     3.922080695629120E-1  -9.243066973550772E-1  
 1.218304576144036E9     3.922313451766968E-1  -9.244816107388991E-1  
 1.220555138784696E9     3.882802128791809E-1  -9.241728049732978E-1  
 1.222805701425356E9     3.865553140640259E-1  -9.266225309848275E-1  
 1.225056264066016E9     3.853024840354919E-1  -9.273569917547621E-1  
 1.227306826706677E9     3.855354487895966E-1  -9.274801108632765E-1  
 1.229557389347337E9     3.816518187522888E-1  -9.310059390028406E-1  
 1.231807951987997E9     3.797534108161926E-1  -9.309435031644429E-1  
 1.234058514628657E9     3.762725293636322E-1  -9.316228925795437E-1  
 1.236309077269317E9     3.746643662452698E-1  -9.311315529006133E-1  
 1.238559639909977E9     3.704592585563660E-1  -9.350067931807984E-1  
 1.240810202550638E9     3.716172873973846E-1  -9.339056493404675E-1  
 1.243060765191298E9     3.685854971408844E-1  -9.359386711683680E-1  
 1.245311327831958E9     3.644405901432037E-1  -9.356310483967751E-1  
 1.247561890472618E9     3.647635579109192E-1  -9.367733965723596E-1  
 1.249812453113278E9     3.613633513450623E-1  -9.372546561404622E-1  
 1.252063015753938E9     3.592329323291779E-1  -9.379397949112602E-1  
 1.254313578394599E9     3.586758971214294E-1  -9.393541014402584E-1  
 1.256564141035259E9     3.545078933238983E-1  -9.397408741881559E-1  
 1.258814703675919E9     3.546647429466248E-1  -9.396264190922147E-1  
 1.261065266316579E9     3.520782887935638E-1  -9.402144077722787E-1  
 1.263315828957239E9     3.503592014312744E-1  -9.406420047396806E-1  
 1.265566391597899E9     3.487695157527924E-1  -9.425697640804230E-1  
 1.267816954238560E9     3.455379009246826E-1  -9.416244913684887E-1  
 1.270067516879220E9     3.454810976982117E-1  -9.429253935948192E-1  
 1.272318079519880E9     3.416100442409515E-1  -9.465088181901545E-1  
 1.274568642160540E9     3.411677479743958E-1  -9.453925204703214E-1  
 1.276819204801200E9     3.395066857337952E-1  -9.460811785797196E-1  
 1.279069767441860E9     3.358199298381805E-1  -9.466308281836704E-1  
 1.281320330082521E9     3.332940042018890E-1  -9.478251197731121E-1  
 1.283570892723181E9     3.312371075153351E-1  -9.473356531464914E-1  
 1.285821455363841E9     3.305431902408600E-1  -9.500629102873701E-1  
 1.288072018004501E9     3.271243274211884E-1  -9.508016050064810E-1  
 1.290322580645161E9     3.258573412895203E-1  -9.503777260981237E-1  
 1.292573143285821E9     3.222332596778870E-1  -9.524141229083055E-1  
 1.294823705926482E9     3.205235898494721E-1  -9.536557651763231E-1  
 1.297074268567142E9     3.196823298931122E-1  -9.525407509095363E-1  
 1.299324831207802E9     3.194684982299805E-1  -9.536211599628449E-1  
 1.301575393848462E9     3.160431087017059E-1  -9.550255689173093E-1  
 1.303825956489122E9     3.106446266174316E-1  -9.564020029212293E-1  
 1.306076519129782E9     3.111438155174255E-1  -9.550295029327192E-1  
 1.308327081770443E9     3.076612055301666E-1  -9.582627763752909E-1  
 1.310577644411103E9     3.062330484390259E-1  -9.592983830668554E-1  
 1.312828207051763E9     3.029690384864807E-1  -9.603639207704653E-1  
 1.315078769692423E9     3.015746474266052E-1  -9.573074672835026E-1  
 1.317329332333083E9     3.015426993370056E-1  -9.584026231570896E-1  
 1.319579894973743E9     2.971463799476624E-1  -9.595073234168320E-1  
 1.321830457614404E9     2.944227457046509E-1  -9.607060115247675E-1  
 1.324081020255064E9     2.926820814609528E-1  -9.607581868193528E-1  
 1.326331582895724E9     2.921977937221527E-1  -9.588165693368937E-1  
 1.328582145536384E9     2.895694375038147E-1  -9.624433852610138E-1  
 1.330832708177044E9     2.876030206680298E-1  -9.632970224039609E-1  
 1.333083270817704E9     2.863626182079315E-1  -9.628709340964710E-1  
 1.335333833458365E9     2.822648584842682E-1  -9.622932945899293E-1  
 1.337584396099025E9     2.809606492519379E-1  -9.633701374707394E-1  
 1.339834958739685E9     2.790180146694183E-1  -9.644436923117583E-1  
 1.342085521380345E9     2.766712903976440E-1  -9.648356494361188E-1  
 1.344336084021005E9     2.753826081752777E-1  -9.670454973788552E-1  
 1.346586646661665E9     2.719767987728119E-1  -9.683978747931492E-1  
 1.348837209302326E9     2.708078622817993E-1  -9.680037078665792E-1  
 1.351087771942986E9     2.683610618114471E-1  -9.692796510329090E-1  
 1.353338334583646E9     2.670307755470276E-1  -9.704436735212898E-1  
 1.355588897224306E9     2.628423273563385E-1  -9.698073802118040E-1  
 1.357839459864966E9     2.626847624778748E-1  -9.704530907210760E-1  
 1.360090022505626E9     2.622916698455811E-1  -9.702628394286004E-1  
 1.362340585146287E9     2.560003101825714E-1  -9.733775655815107E-1  
 1.364591147786947E9     2.568508684635162E-1  -9.739297575096095E-1  
 1.366841710427607E9     2.555195093154907E-1  -9.720745446639035E-1  
 1.369092273068267E9     2.511311769485474E-1  -9.733093581408728E-1  
 1.371342835708927E9     2.497784793376923E-1  -9.724253323665394E-1  
 1.373593398349587E9     2.479813247919083E-1  -9.744402741273870E-1  
 1.375843960990248E9     2.447786182165146E-1  -9.744455956257403E-1  
 1.378094523630908E9     2.447648495435715E-1  -9.759110254448961E-1  
 1.380345086271568E9     2.422110438346863E-1  -9.755771505379097E-1  
 1.382595648912228E9     2.393472790718079E-1  -9.760347166070305E-1  
 1.384846211552888E9     2.356565892696381E-1  -9.771746197370392E-1  
 1.387096774193548E9     2.339903712272644E-1  -9.776588579239658E-1  
 1.389347336834209E9     2.318386882543564E-1  -9.775006893725949E-1  
 1.391597899474869E9     2.299070805311203E-1  -9.777943164834597E-1  
 1.393848462115529E9     2.268554121255875E-1  -9.785199846244300E-1  
 1.396099024756189E9     2.266257554292679E-1  -9.799036260473860E-1  
 1.398349587396849E9     2.229116111993790E-1  -9.800211750943009E-1  
 1.400600150037509E9     2.244270294904709E-1  -9.797542126131233E-1  
 1.402850712678170E9     2.189356982707977E-1  -9.812725502754717E-1  
 1.405101275318830E9     2.178632318973541E-1  -9.837277460111852E-1  
 1.407351837959490E9     2.154378592967987E-1  -9.816781309639542E-1  
 1.409602400600150E9     2.126339524984360E-1  -9.821542211869211E-1  
 1.411852963240810E9     2.119473665952683E-1  -9.827643202559553E-1  
 1.414103525881470E9     2.068758755922318E-1  -9.847965012125135E-1  
 1.416354088522131E9     2.064872235059738E-1  -9.840458448209764E-1  
 1.418604651162791E9     2.053361237049103E-1  -9.843702945440270E-1  
 1.420855213803451E9     2.017972618341446E-1  -9.853930585886406E-1  
 1.423105776444111E9     1.992228180170059E-1  -9.849369163807393E-1  
 1.425356339084771E9     1.961885541677475E-1  -9.874682801840959E-1  
 1.427606901725431E9     1.953311711549759E-1  -9.884814874593684E-1  
 1.429857464366092E9     1.944349706172943E-1  -9.879802046344927E-1  
 1.432108027006752E9     1.921452283859253E-1  -9.868487817532152E-1  
 1.434358589647412E9     1.885976195335388E-1  -9.879174410393191E-1  
 1.436609152288072E9     1.859223693609238E-1  -9.878770076115249E-1  
 1.438859714928732E9     1.851596087217331E-1  -9.881741275865255E-1  
 1.441110277569392E9     1.828608363866806E-1  -9.898501396759920E-1  
 1.443360840210053E9     1.807585209608078E-1  -9.888469895212897E-1  
 1.445611402850713E9     1.786771267652512E-1  -9.904643736123209E-1  
 1.447861965491373E9     1.757042407989502E-1  -9.904595927873233E-1  
 1.450112528132033E9     1.735281795263290E-1  -9.899909911828528E-1  
 1.452363090772693E9     1.705933660268784E-1  -9.893019839866883E-1  
 1.454613653413353E9     1.696306169033051E-1  -9.903209457424259E-1  
 1.456864216054014E9     1.673140674829483E-1  -9.934412191762730E-1  
 1.459114778694674E9     1.631109863519669E-1  -9.917418159047924E-1  
 1.461365341335334E9     1.643378138542175E-1  -9.913182785332714E-1  
 1.463615903975994E9     1.593468040227890E-1  -9.919888860630644E-1  
 1.465866466616654E9     1.573426723480225E-1  -9.908366969198411E-1  
 1.468117029257314E9     1.561682671308518E-1  -9.909114203674250E-1  
 1.470367591897975E9     1.542652100324631E-1  -9.934760445086895E-1  
 1.472618154538635E9     1.519576013088226E-1  -9.925178803606356E-1  
 1.474868717179295E9     1.498835980892181E-1  -9.940098068874503E-1  
 1.477119279819955E9     1.489029526710510E-1  -9.946996790124589E-1  
 1.479369842460615E9     1.464793384075165E-1  -9.953144876350000E-1  
 1.481620405101275E9     1.436463892459869E-1  -9.941487449399724E-1  
 1.483870967741936E9     1.403437107801437E-1  -9.937689917858169E-1  
 1.486121530382596E9     1.409751325845718E-1  -9.955350029421765E-1  
 1.488372093023256E9     1.369799077510834E-1  -9.957262575294636E-1  
 1.490622655663916E9     1.345212608575821E-1  -9.963911757350281E-1  
 1.492873218304576E9     1.321007460355759E-1  -9.960250626998601E-1  
 1.495123780945236E9     1.304713040590286E-1  -9.964369073703666E-1  
 1.497374343585897E9     1.279563307762146E-1  -9.973977296946718E-1  
 1.499624906226557E9     1.270920336246491E-1  -9.970724216068391E-1  
 1.501875468867217E9     1.235412806272507E-1  -9.981931344634587E-1  
 1.504126031507877E9     1.242890581488609E-1  -9.970639351967153E-1  
 1.506376594148537E9     1.197684183716774E-1  -9.974428662171385E-1  
 1.508627156789197E9     1.175940632820129E-1  -9.991837562684941E-1  
 1.510877719429858E9     1.150165051221848E-1  -9.986800616112062E-1  
 1.513128282070518E9     1.130085289478302E-1  -9.990142892205762E-1  
 1.515378844711178E9     1.117658540606499E-1  -1.000655485710964  
 1.517629407351838E9     1.077949926257134E-1  -9.995175340807486E-1  
 1.519879969992498E9     1.036929488182068E-1  -9.994902867647574E-1  
 1.522130532633158E9     1.037502214312553E-1  -1.000249493723428  
 1.524381095273819E9     1.010133326053619E-1  -9.987991670271705E-1  
 1.526631657914479E9     1.001604199409485E-1  -9.990041808312540E-1  
 1.528882220555139E9     9.862975776195526E-2  -1.000659807882081  
 1.531132783195799E9     9.386797994375229E-2  -9.993952405847835E-1  
 1.533383345836459E9     9.559401124715805E-2  -1.001322371374929  
 1.535633908477119E9     9.231428802013397E-2  -1.000596872754805  
 1.537884471117779E9     8.512117713689804E-2  -1.000256554828292  
 1.540135033758440E9     8.486928045749664E-2  -1.000706022395143  
 1.542385596399100E9     8.253343403339386E-2  -9.995730735573793E-1  
 1.544636159039760E9     8.171981573104858E-2  -1.003398175823606  
 1.546886721680420E9     7.897457480430603E-2  -1.000763049962478  
 1.549137284321080E9     7.876760512590408E-2  -1.001432382356362  
 1.551387846961741E9     7.800766825675964E-2  -1.001389667449556  
 1.553638409602401E9     7.261123508214951E-2  -1.002853126693205  
 1.555888972243061E9     7.108201831579208E-2  -1.003025883686093  
 1.558139534883721E9     6.787000596523285E-2  -1.001150251438834  
 1.560390097524381E9     6.589578092098236E-2  -1.002350467942725  
 1.562640660165041E9     6.588038057088852E-2  -1.003579601029878  
 1.564891222805701E9     6.250309944152832E-2  -1.003474434468237  
 1.567141785446362E9     6.060333922505379E-2  -1.005824867873584  
 1.569392348087022E9     5.777474492788315E-2  -1.002706657225008  
 1.571642910727682E9     5.875781923532486E-2  -1.002281601141855  
 1.573893473368342E9     5.084917321801186E-2  -1.005089381723495  
 1.576144036009002E9     5.201115459203720E-2  -1.005434510973932  
 1.578394598649663E9     4.986080899834633E-2  -1.006151465258358  
 1.580645161290323E9     4.617194831371307E-2  -1.003110697237900  
 1.582895723930983E9     4.441250488162041E-2  -1.003872691039743  
 1.585146286571643E9     4.160096496343613E-2  -1.003178115326543  
 1.587396849212303E9     4.006360843777657E-2  -1.004371382104115  
 1.589647411852963E9     4.011816158890724E-2  -1.004102443908538  
 1.591897974493623E9     3.036713972687721E-2  -1.001412429745601  
 1.594148537134284E9     3.607895970344544E-2  -1.004136108284024  
 1.596399099774944E9     3.164666518568993E-2  -1.003950597680777  
 1.598649662415604E9     3.018371015787125E-2  -1.004326014780646  
 1.600900225056264E9     2.661860361695290E-2  -1.003992310094351  
 1.603150787696924E9     2.355759218335152E-2  -1.004460066529440  
 1.605401350337585E9     2.326573617756367E-2  -1.003197729755952  
 1.607651912978245E9     2.021185681223869E-2  -1.003897325523556  
 1.609902475618905E9     1.874825172126293E-2  -1.004362085012220  
 1.612153038259565E9     1.670549437403679E-2  -1.004060132208775  
 1.614403600900225E9     1.489389874041081E-2  -1.003837296609812  
 1.616654163540885E9     1.084568910300732E-2  -1.004824603726439  
 1.618904726181545E9     1.055048499256373E-2  -1.005108895969069  
 1.621155288822206E9     1.599108683876693E-3  -1.005945546969351  
 1.623405851462866E9     6.785988342016935E-3  -1.005965335317268  
 1.625656414103526E9     1.855776761658490E-3  -1.003642318164099  
 1.627906976744186E9     1.254773000255227E-3  -1.005147313911995  
