#  HZ   S   RI   R     50.0 
! Rohde & Schwarz ZVL13 2Ports - Version 3.31 - 1303.6509k13 SN: 101088
! Date: 2023-03-02 16:58:22
! Data & Calibration Information:
! Trc2:S21(Trans Norm)
! 
! 
! 
 1.000000000000000E9     5.769827961921692E-1  -8.355916372247116E-1  
 1.002250562640660E9     5.744408965110779E-1  -8.357819103323011E-1  
 1.004501125281320E9     5.708125233650208E-1  -8.384117013285988E-1  
 1.006751687921981E9     5.671424865722656E-1  -8.389662718707581E-1  
 1.009002250562641E9     5.654263496398926E-1  -8.416107284137511E-1  
 1.011252813203301E9     5.605985522270203E-1  -8.419431750354490E-1  
 1.013503375843961E9     5.571201443672180E-1  -8.411394847142124E-1  
 1.015753938484621E9     5.543453097343445E-1  -8.446862588115462E-1  
 1.018004501125281E9     5.524187684059143E-1  -8.428218248281892E-1  
 1.020255063765942E9     5.495365858078003E-1  -8.442116931310320E-1  
 1.022505626406602E9     5.479410886764526E-1  -8.429817234797866E-1  
 1.024756189047262E9     5.444076061248779E-1  -8.446823455687128E-1  
 1.027006751687922E9     5.432829260826111E-1  -8.457657859163459E-1  
 1.029257314328582E9     5.407713651657105E-1  -8.449762904845891E-1  
 1.031507876969242E9     5.383486151695252E-1  -8.464336717854555E-1  
 1.033758439609903E9     5.359258651733398E-1  -8.474375065488085E-1  
 1.036009002250563E9     5.334858894348145E-1  -8.458166319246231E-1  
 1.038259564891223E9     5.315215587615967E-1  -8.472248082350872E-1  
 1.040510127531883E9     5.294719338417053E-1  -8.461746988947850E-1  
 1.042760690172543E9     5.289501547813416E-1  -8.475263690296044E-1  
 1.045011252813203E9     5.264756679534912E-1  -8.493312817955503E-1  
 1.047261815453864E9     5.256420373916626E-1  -8.498398056081737E-1  
 1.049512378094524E9     5.239429473876953E-1  -8.490297410033656E-1  
 1.051762940735184E9     5.240720510482788E-1  -8.492040599064661E-1  
 1.054013503375844E9     5.229141712188721E-1  -8.527477793716711E-1  
 1.056264066016504E9     5.212239623069763E-1  -8.520457058605718E-1  
 1.058514628657164E9     5.196930170059204E-1  -8.524649834515964E-1  
 1.060765191297825E9     5.193832516670227E-1  -8.529554876738881E-1  
 1.063015753938485E9     5.151515603065491E-1  -8.568222612165806E-1  
 1.065266316579145E9     5.147863030433655E-1  -8.568378707361626E-1  
 1.067516879219805E9     5.116469264030457E-1  -8.585158011135767E-1  
 1.069767441860465E9     5.107629895210266E-1  -8.592754098340847E-1  
 1.072018004501125E9     5.081598162651062E-1  -8.604114588680267E-1  
 1.074268567141785E9     5.063349008560181E-1  -8.629747816703763E-1  
 1.076519129782446E9     5.054308176040649E-1  -8.638567496513419E-1  
 1.078769692423106E9     5.020743012428284E-1  -8.644978019955684E-1  
 1.081020255063766E9     5.016558766365051E-1  -8.639633908859937E-1  
 1.083270817704426E9     5.002415180206299E-1  -8.670919550863924E-1  
 1.085521380345086E9     4.989554286003113E-1  -8.686183174961817E-1  
 1.087771942985746E9     4.974392354488373E-1  -8.673692606001109E-1  
 1.090022505626407E9     4.958997666835785E-1  -8.705271732769416E-1  
 1.092273068267067E9     4.928950965404511E-1  -8.697081857683973E-1  
 1.094523630907727E9     4.906403720378876E-1  -8.705282800359941E-1  
 1.096774193548387E9     4.913424551486969E-1  -8.744390227278545E-1  
 1.099024756189047E9     4.877101778984070E-1  -8.753313034475775E-1  
 1.101275318829707E9     4.844821691513062E-1  -8.779482807089101E-1  
 1.103525881470368E9     4.851755499839783E-1  -8.773597405388283E-1  
 1.105776444111028E9     4.837184846401215E-1  -8.797061387759009E-1  
 1.108027006751688E9     4.812455773353577E-1  -8.791044395048884E-1  
 1.110277569392348E9     4.782162010669708E-1  -8.787556243673966E-1  
 1.112528132033008E9     4.768657982349396E-1  -8.833542044862179E-1  
 1.114778694673668E9     4.747987985610962E-1  -8.827637786162542E-1  
 1.117029257314329E9     4.731091558933258E-1  -8.838086838412781E-1  
 1.119279819954989E9     4.706077575683594E-1  -8.845020664072494E-1  
 1.121530382595649E9     4.680147171020508E-1  -8.861147283630738E-1  
 1.123780945236309E9     4.674147069454193E-1  -8.882157893491971E-1  
 1.126031507876969E9     4.639327526092529E-1  -8.871089781676379E-1  
 1.128282070517629E9     4.646206796169281E-1  -8.906294865536910E-1  
 1.130532633158290E9     4.611449539661408E-1  -8.904567874345253E-1  
 1.132783195798950E9     4.606384634971619E-1  -8.911687051332434E-1  
 1.135033758439610E9     4.568293392658234E-1  -8.908410216300731E-1  
 1.137284321080270E9     4.552713632583618E-1  -8.935589699216693E-1  
 1.139534883720930E9     4.548322558403015E-1  -8.936340512924527E-1  
 1.141785446361590E9     4.508343338966370E-1  -8.934023247983524E-1  
 1.144036009002251E9     4.499211907386780E-1  -8.956197788284714E-1  
 1.146286571642911E9     4.465687274932861E-1  -8.973370319392025E-1  
 1.148537134283571E9     4.471143484115601E-1  -8.971008279595850E-1  
 1.150787696924231E9     4.431666731834412E-1  -8.998639745114042E-1  
 1.153038259564891E9     4.453053474426270E-1  -8.985858057814016E-1  
 1.155288822205551E9     4.396267235279083E-1  -8.995060300153122E-1  
 1.157539384846211E9     4.401831626892090E-1  -8.992557891381157E-1  
 1.159789947486872E9     4.375501275062561E-1  -9.027413079126201E-1  
 1.162040510127532E9     4.347162246704102E-1  -9.047512630855541E-1  
 1.164291072768192E9     4.313279390335083E-1  -9.052365755330699E-1  
 1.166541635408852E9     4.322558343410492E-1  -9.071097528941994E-1  
 1.168792198049512E9     4.279559850692749E-1  -9.075516617411348E-1  
 1.171042760690172E9     4.242129027843475E-1  -9.096630162127660E-1  
 1.173293323330833E9     4.273931384086609E-1  -9.096810540437864E-1  
 1.175543885971493E9     4.242558181285858E-1  -9.107080730243397E-1  
 1.177794448612153E9     4.183229207992554E-1  -9.099997154342674E-1  
 1.180045011252813E9     4.177570939064026E-1  -9.129633204004126E-1  
 1.182295573893473E9     4.194045960903168E-1  -9.136104579393889E-1  
 1.184546136534133E9     4.151540994644165E-1  -9.132943429277883E-1  
 1.186796699174794E9     4.145145118236542E-1  -9.137912009577984E-1  
 1.189047261815454E9     4.106585085391998E-1  -9.144253479643462E-1  
 1.191297824456114E9     4.079101979732513E-1  -9.159323963435492E-1  
 1.193548387096774E9     4.076543152332306E-1  -9.162439412036982E-1  
 1.195798949737434E9     4.040102660655975E-1  -9.180344528804486E-1  
 1.198049512378094E9     4.023965299129486E-1  -9.184880251836226E-1  
 1.200300075018755E9     4.023606479167938E-1  -9.193354599575712E-1  
 1.202550637659415E9     3.975498974323273E-1  -9.206686581653469E-1  
 1.204801200300075E9     3.984019458293915E-1  -9.192054461503957E-1  
 1.207051762940735E9     3.965048789978027E-1  -9.216363561371158E-1  
 1.209302325581395E9     3.924605250358582E-1  -9.235662123011571E-1  
 1.211552888222055E9     3.918982744216919E-1  -9.228095477908445E-1  
 1.213803450862716E9     3.882912695407867E-1  -9.234942694517093E-1  
 1.216054013503376E9     3.876482844352722E-1  -9.243285120770851E-1  
 1.218304576144036E9     3.854753673076630E-1  -9.244713201923464E-1  
 1.220555138784696E9     3.811120688915253E-1  -9.272741044186977E-1  
 1.222805701425356E9     3.809351921081543E-1  -9.279957899527628E-1  
 1.225056264066016E9     3.810338675975800E-1  -9.275578417982727E-1  
 1.227306826706677E9     3.806152939796448E-1  -9.275311952496019E-1  
 1.229557389347337E9     3.766835331916809E-1  -9.310593479056044E-1  
 1.231807951987997E9     3.741538226604462E-1  -9.313245105290638E-1  
 1.234058514628657E9     3.722014129161835E-1  -9.309975997343287E-1  
 1.236309077269317E9     3.703279793262482E-1  -9.330595341029140E-1  
 1.238559639909977E9     3.678735196590424E-1  -9.340112456683275E-1  
 1.240810202550638E9     3.656921684741974E-1  -9.340283877922069E-1  
 1.243060765191298E9     3.615376651287079E-1  -9.365673033550103E-1  
 1.245311327831958E9     3.605221211910248E-1  -9.349454701251372E-1  
 1.247561890472618E9     3.591315150260925E-1  -9.378301394194355E-1  
 1.249812453113278E9     3.573543727397919E-1  -9.380323871849876E-1  
 1.252063015753938E9     3.530654907226563E-1  -9.363169535350531E-1  
 1.254313578394599E9     3.524473607540131E-1  -9.407314362716602E-1  
 1.256564141035259E9     3.506367504596710E-1  -9.412467229290615E-1  
 1.258814703675919E9     3.503228127956390E-1  -9.407495020178814E-1  
 1.261065266316579E9     3.463836014270783E-1  -9.413023558517162E-1  
 1.263315828957239E9     3.419999480247498E-1  -9.432001865901531E-1  
 1.265566391597899E9     3.443837165832520E-1  -9.437205870030588E-1  
 1.267816954238560E9     3.404583036899567E-1  -9.421121723729761E-1  
 1.270067516879220E9     3.386230170726776E-1  -9.440340293136696E-1  
 1.272318079519880E9     3.377626836299896E-1  -9.460202918637450E-1  
 1.274568642160540E9     3.369767963886261E-1  -9.459059893300614E-1  
 1.276819204801200E9     3.334137201309204E-1  -9.450088536733765E-1  
 1.279069767441860E9     3.310778737068176E-1  -9.472834581913813E-1  
 1.281320330082521E9     3.291833698749542E-1  -9.475063023293560E-1  
 1.283570892723181E9     3.271372020244598E-1  -9.486083075552568E-1  
 1.285821455363841E9     3.240142166614533E-1  -9.492638004234887E-1  
 1.288072018004501E9     3.222253918647766E-1  -9.505443517115372E-1  
 1.290322580645161E9     3.189350366592407E-1  -9.513911934261998E-1  
 1.292573143285821E9     3.167835175991058E-1  -9.518853886814733E-1  
 1.294823705926482E9     3.137519657611847E-1  -9.547047591457102E-1  
 1.297074268567142E9     3.136602938175201E-1  -9.519929759792475E-1  
 1.299324831207802E9     3.138895332813263E-1  -9.525952500744345E-1  
 1.301575393848462E9     3.114900887012482E-1  -9.548301282578666E-1  
 1.303825956489122E9     3.068786859512329E-1  -9.553891546573060E-1  
 1.306076519129782E9     3.069185018539429E-1  -9.556519855203768E-1  
 1.308327081770443E9     3.032018542289734E-1  -9.570204823376824E-1  
 1.310577644411103E9     3.004420101642609E-1  -9.601045795823151E-1  
 1.312828207051763E9     2.986416220664978E-1  -9.588281099953078E-1  
 1.315078769692423E9     2.970971763134003E-1  -9.586847581624376E-1  
 1.317329332333083E9     2.946673929691315E-1  -9.598613785664408E-1  
 1.319579894973743E9     2.910806238651276E-1  -9.590525926624041E-1  
 1.321830457614404E9     2.903953194618225E-1  -9.600033860969266E-1  
 1.324081020255064E9     2.880559861660004E-1  -9.600539202722598E-1  
 1.326331582895724E9     2.866982519626617E-1  -9.598350999067838E-1  
 1.328582145536384E9     2.841224074363709E-1  -9.614600701415224E-1  
 1.330832708177044E9     2.819198668003082E-1  -9.627279707274677E-1  
 1.333083270817704E9     2.812735140323639E-1  -9.638669189569626E-1  
 1.335333833458365E9     2.776053249835968E-1  -9.639406045413643E-1  
 1.337584396099025E9     2.767324447631836E-1  -9.634370455014807E-1  
 1.339834958739685E9     2.741281986236572E-1  -9.655008627520488E-1  
 1.342085521380345E9     2.716979086399078E-1  -9.656407020176651E-1  
 1.344336084021005E9     2.686390876770020E-1  -9.668514851726066E-1  
 1.346586646661665E9     2.662019133567810E-1  -9.685064602657384E-1  
 1.348837209302326E9     2.633914947509766E-1  -9.688245174193316E-1  
 1.351087771942986E9     2.637242674827576E-1  -9.688061283218230E-1  
 1.353338334583646E9     2.608575522899628E-1  -9.707810050344707E-1  
 1.355588897224306E9     2.574747204780579E-1  -9.696673457107409E-1  
 1.357839459864966E9     2.565883994102478E-1  -9.705528590559742E-1  
 1.360090022505626E9     2.549708485603333E-1  -9.694841216157810E-1  
 1.362340585146287E9     2.528052926063538E-1  -9.735584215283496E-1  
 1.364591147786947E9     2.511790990829468E-1  -9.726257876157092E-1  
 1.366841710427607E9     2.488316595554352E-1  -9.716772136428340E-1  
 1.369092273068267E9     2.449123561382294E-1  -9.742602412540479E-1  
 1.371342835708927E9     2.443682998418808E-1  -9.731306846323097E-1  
 1.373593398349587E9     2.430696785449982E-1  -9.739172260832912E-1  
 1.375843960990248E9     2.401896417140961E-1  -9.742709776866108E-1  
 1.378094523630908E9     2.377021312713623E-1  -9.752620034717597E-1  
 1.380345086271568E9     2.359779030084610E-1  -9.755192971716021E-1  
 1.382595648912228E9     2.346699386835098E-1  -9.753252022028354E-1  
 1.384846211552888E9     2.309101969003677E-1  -9.763059234684428E-1  
 1.387096774193548E9     2.289541661739349E-1  -9.763690356603987E-1  
 1.389347336834209E9     2.266436070203781E-1  -9.776964938132989E-1  
 1.391597899474869E9     2.250891178846359E-1  -9.771337868145733E-1  
 1.393848462115529E9     2.223277837038040E-1  -9.783876373240594E-1  
 1.396099024756189E9     2.215864211320877E-1  -9.792242027558585E-1  
 1.398349587396849E9     2.195909768342972E-1  -9.797166080356539E-1  
 1.400600150037509E9     2.184273302555084E-1  -9.797845856097653E-1  
 1.402850712678170E9     2.137037366628647E-1  -9.809143790496839E-1  
 1.405101275318830E9     2.126867473125458E-1  -9.813897512202991E-1  
 1.407351837959490E9     2.107769846916199E-1  -9.815987939467581E-1  
 1.409602400600150E9     2.077273726463318E-1  -9.827332982983768E-1  
 1.411852963240810E9     2.065051048994064E-1  -9.821768873944228E-1  
 1.414103525881470E9     2.031032592058182E-1  -9.843655297310718E-1  
 1.416354088522131E9     2.020928114652634E-1  -9.838123854125792E-1  
 1.418604651162791E9     2.012456208467484E-1  -9.842218312753767E-1  
 1.420855213803451E9     1.967986375093460E-1  -9.848823431791536E-1  
 1.423105776444111E9     1.945980787277222E-1  -9.842657641104602E-1  
 1.425356339084771E9     1.938365399837494E-1  -9.859103726903326E-1  
 1.427606901725431E9     1.909289062023163E-1  -9.871215217847715E-1  
 1.429857464366092E9     1.875540912151337E-1  -9.871305020848920E-1  
 1.432108027006752E9     1.861932128667831E-1  -9.872323519291818E-1  
 1.434358589647412E9     1.847667247056961E-1  -9.876704331880281E-1  
 1.436609152288072E9     1.809278577566147E-1  -9.881916121875670E-1  
 1.438859714928732E9     1.795594990253449E-1  -9.873799911993311E-1  
 1.441110277569392E9     1.769298315048218E-1  -9.881893805724679E-1  
 1.443360840210053E9     1.757166981697083E-1  -9.867918198470655E-1  
 1.445611402850713E9     1.739145368337631E-1  -9.895607967705395E-1  
 1.447861965491373E9     1.711585968732834E-1  -9.889844025297501E-1  
 1.450112528132033E9     1.685846894979477E-1  -9.892249401786082E-1  
 1.452363090772693E9     1.659636050462723E-1  -9.886063817400761E-1  
 1.454613653413353E9     1.645601242780685E-1  -9.890342546995580E-1  
 1.456864216054014E9     1.623391211032867E-1  -9.905939527176522E-1  
 1.459114778694674E9     1.609479933977127E-1  -9.909381085136055E-1  
 1.461365341335334E9     1.573083996772766E-1  -9.902661480352691E-1  
 1.463615903975994E9     1.553351432085037E-1  -9.909149608616107E-1  
 1.465866466616654E9     1.532571315765381E-1  -9.909998244668097E-1  
 1.468117029257314E9     1.501704901456833E-1  -9.906202651486957E-1  
 1.470367591897975E9     1.501059383153915E-1  -9.906883690615715E-1  
 1.472618154538635E9     1.464845687150955E-1  -9.907177599978585E-1  
 1.474868717179295E9     1.475483477115631E-1  -9.924300245390455E-1  
 1.477119279819955E9     1.434414386749268E-1  -9.931096956826941E-1  
 1.479369842460615E9     1.425303220748901E-1  -9.941457053648335E-1  
 1.481620405101275E9     1.392449885606766E-1  -9.936297976650912E-1  
 1.483870967741936E9     1.352123320102692E-1  -9.932922154125036E-1  
 1.486121530382596E9     1.368733793497086E-1  -9.944777394707817E-1  
 1.488372093023256E9     1.320344209671021E-1  -9.959041931151214E-1  
 1.490622655663916E9     1.295022517442703E-1  -9.955294339516412E-1  
 1.492873218304576E9     1.279964596033096E-1  -9.958321435019085E-1  
 1.495123780945236E9     1.245429143309593E-1  -9.958158806854113E-1  
 1.497374343585897E9     1.232150346040726E-1  -9.977840143055274E-1  
 1.499624906226557E9     1.214319840073586E-1  -9.969543090088768E-1  
 1.501875468867217E9     1.187069714069367E-1  -9.964949768638906E-1  
 1.504126031507877E9     1.168622225522995E-1  -9.961338950276784E-1  
 1.506376594148537E9     1.157356277108192E-1  -9.965159856623270E-1  
 1.508627156789197E9     1.122934445738792E-1  -9.975774915109374E-1  
 1.510877719429858E9     1.105014160275459E-1  -9.977671559836021E-1  
 1.513128282070518E9     1.065069064497948E-1  -9.984133828162798E-1  
 1.515378844711178E9     1.059090495109558E-1  -9.984276736030283E-1  
 1.517629407351838E9     1.032527536153793E-1  -9.978995567089138E-1  
 1.519879969992498E9     1.002670228481293E-1  -9.963475731195024E-1  
 1.522130532633158E9     9.907042980194092E-2  -9.989847652238845E-1  
 1.524381095273819E9     9.667015075683594E-2  -9.959530379105769E-1  
 1.526631657914479E9     9.826463460922241E-2  -9.983497305362880E-1  
 1.528882220555139E9     9.551922231912613E-2  -9.984320192568986E-1  
 1.531132783195799E9     8.914499729871750E-2  -9.984474408074733E-1  
 1.533383345836459E9     9.116795659065247E-2  -1.001429203746077  
 1.535633908477119E9     8.717527985572815E-2  -1.000598755237043  
 1.537884471117779E9     8.124097436666489E-2  -1.001115756157601  
 1.540135033758440E9     7.880700379610062E-2  -9.987743234250874E-1  
 1.542385596399100E9     7.924947887659073E-2  -9.992936998091508E-1  
 1.544636159039760E9     7.614002376794815E-2  -1.002203190728024  
 1.546886721680420E9     7.388121634721756E-2  -9.999489618785608E-1  
 1.549137284321080E9     7.316771149635315E-2  -1.000515342797021  
 1.551387846961741E9     7.344852387905121E-2  -1.000168762828478  
 1.553638409602401E9     6.833640486001968E-2  -1.001896957730393  
 1.555888972243061E9     6.681053340435028E-2  -1.000589489928035  
 1.558139534883721E9     6.300642341375351E-2  -9.991924699125361E-1  
 1.560390097524381E9     6.063559278845787E-2  -1.001429413725169  
 1.562640660165041E9     6.131138652563095E-2  -1.000671230343100  
 1.564891222805701E9     5.907832831144333E-2  -1.001688561315551  
 1.567141785446362E9     5.670357495546341E-2  -1.003033658631651  
 1.569392348087022E9     5.269236117601395E-2  -1.001470479898981  
 1.571642910727682E9     5.469730868935585E-2  -1.001959147311261  
 1.573893473368342E9     4.619280621409416E-2  -1.001514408388118  
 1.576144036009002E9     4.641640558838844E-2  -1.003195848683698  
 1.578394598649663E9     4.473137855529785E-2  -1.004136162625941  
 1.580645161290323E9     4.239012673497200E-2  -1.001376629940073  
 1.582895723930983E9     4.023414477705956E-2  -1.003660693923190  
 1.585146286571643E9     3.683651238679886E-2  -1.000365461364930  
 1.587396849212303E9     3.556889295578003E-2  -1.002603803949258  
 1.589647411852963E9     3.532888367772102E-2  -1.002753254831260  
 1.591897974493623E9     2.760362066328526E-2  -1.001379280536615  
 1.594148537134284E9     2.835392206907272E-2  -1.002016634388960  
 1.596399099774944E9     2.678341977298260E-2  -1.001547726378556  
 1.598649662415604E9     2.541369013488293E-2  -1.003511392849018  
 1.600900225056264E9     2.170614898204804E-2  -1.003206137746092  
 1.603150787696924E9     2.190129272639751E-2  -1.001684237900403  
 1.605401350337585E9     1.901724934577942E-2  -1.001897909181445  
 1.607651912978245E9     1.448546629399061E-2  -1.000908400248085  
 1.609902475618905E9     1.495936885476112E-2  -1.003043073756244  
 1.612153038259565E9     1.073831506073475E-2  -1.001751305117281  
 1.614403600900225E9     1.095830556005240E-2  -1.001848096455030  
 1.616654163540885E9     6.138763390481472E-3  -1.001943730323041  
 1.618904726181545E9     6.361054256558418E-3  -1.004918351535007  
 1.621155288822206E9     3.491708543151617E-3  -1.003861488824674  
 1.623405851462866E9     1.701192231848836E-3  -1.003682322317202  
 1.625656414103526E9    -3.651725593954325E-3  -1.001797294192885  
 1.627906976744186E9    -3.822030965238810E-3  -1.002514641505871  
