#  HZ   S   RI   R     50.0 
! Rohde & Schwarz ZVL13 2Ports - Version 3.31 - 1303.6509k13 SN: 101088
! Date: 2023-03-02 16:56:27
! Data & Calibration Information:
! Trc2:S21(Trans Norm)
! 
! 
! 
 1.000000000000000E9     5.717965960502625E-1  -8.352342145289343E-1  
 1.002250562640660E9     5.706485509872437E-1  -8.373810934632838E-1  
 1.004501125281320E9     5.672924518585205E-1  -8.389213883452509E-1  
 1.006751687921981E9     5.633191466331482E-1  -8.397412991277518E-1  
 1.009002250562641E9     5.604799389839172E-1  -8.416466188942067E-1  
 1.011252813203301E9     5.568227171897888E-1  -8.420840171930069E-1  
 1.013503375843961E9     5.539104938507080E-1  -8.422527288273621E-1  
 1.015753938484621E9     5.520676970481873E-1  -8.440980042425543E-1  
 1.018004501125281E9     5.485758781433106E-1  -8.430715972474003E-1  
 1.020255063765942E9     5.471409559249878E-1  -8.437056439361155E-1  
 1.022505626406602E9     5.445414781570435E-1  -8.445693508602582E-1  
 1.024756189047262E9     5.401284694671631E-1  -8.446054178159539E-1  
 1.027006751687922E9     5.395448207855225E-1  -8.450118786048757E-1  
 1.029257314328582E9     5.362106561660767E-1  -8.468432060355172E-1  
 1.031507876969242E9     5.350087285041809E-1  -8.457454133257019E-1  
 1.033758439609903E9     5.309342145919800E-1  -8.472215557608984E-1  
 1.036009002250563E9     5.287910699844360E-1  -8.454939202746704E-1  
 1.038259564891223E9     5.287525057792664E-1  -8.476059567030514E-1  
 1.040510127531883E9     5.255010128021240E-1  -8.464074141630907E-1  
 1.042760690172543E9     5.247809290885925E-1  -8.469691272075417E-1  
 1.045011252813203E9     5.260007381439209E-1  -8.479457281941739E-1  
 1.047261815453864E9     5.227482318878174E-1  -8.492829139447269E-1  
 1.049512378094524E9     5.192989110946655E-1  -8.480973180444420E-1  
 1.051762940735184E9     5.208480954170227E-1  -8.487023140092816E-1  
 1.054013503375844E9     5.182509422302246E-1  -8.530327489332151E-1  
 1.056264066016504E9     5.180856585502625E-1  -8.537726833461147E-1  
 1.058514628657164E9     5.158926248550415E-1  -8.534804037775224E-1  
 1.060765191297825E9     5.147883296012878E-1  -8.549679687950522E-1  
 1.063015753938485E9     5.123177170753479E-1  -8.557344590255558E-1  
 1.065266316579145E9     5.119687318801880E-1  -8.564854245708757E-1  
 1.067516879219805E9     5.093632340431213E-1  -8.580207406670108E-1  
 1.069767441860465E9     5.055112838745117E-1  -8.592164483423546E-1  
 1.072018004501125E9     5.040726065635681E-1  -8.614912901480278E-1  
 1.074268567141785E9     5.023093223571777E-1  -8.624754813643857E-1  
 1.076519129782446E9     5.037316679954529E-1  -8.624216961713189E-1  
 1.078769692423106E9     5.000628829002380E-1  -8.640254468669800E-1  
 1.081020255063766E9     4.988321959972382E-1  -8.650046174925811E-1  
 1.083270817704426E9     4.984785616397858E-1  -8.675755113729643E-1  
 1.085521380345086E9     4.952486753463745E-1  -8.684606869713961E-1  
 1.087771942985746E9     4.945430159568787E-1  -8.693266166188680E-1  
 1.090022505626407E9     4.938929378986359E-1  -8.699397249607128E-1  
 1.092273068267067E9     4.900704920291901E-1  -8.696413958805038E-1  
 1.094523630907727E9     4.894272983074188E-1  -8.710335318357891E-1  
 1.096774193548387E9     4.874041378498077E-1  -8.750449913858406E-1  
 1.099024756189047E9     4.863737225532532E-1  -8.744013113916798E-1  
 1.101275318829707E9     4.811034798622131E-1  -8.771564672875721E-1  
 1.103525881470368E9     4.829873144626617E-1  -8.777510207649328E-1  
 1.105776444111028E9     4.799513816833496E-1  -8.804030887651602E-1  
 1.108027006751688E9     4.773395657539368E-1  -8.796337931049195E-1  
 1.110277569392348E9     4.756200611591339E-1  -8.794206904684589E-1  
 1.112528132033008E9     4.724688231945038E-1  -8.825207927146553E-1  
 1.114778694673668E9     4.716282784938812E-1  -8.845179480781960E-1  
 1.117029257314329E9     4.693423509597778E-1  -8.842599049179810E-1  
 1.119279819954989E9     4.667882919311523E-1  -8.848079392754296E-1  
 1.121530382595649E9     4.646026492118835E-1  -8.849421905908230E-1  
 1.123780945236309E9     4.647687375545502E-1  -8.862494493893410E-1  
 1.126031507876969E9     4.603633880615234E-1  -8.895326116320916E-1  
 1.128282070517629E9     4.597572684288025E-1  -8.892395664516302E-1  
 1.130532633158290E9     4.592883586883545E-1  -8.890985009230777E-1  
 1.132783195798950E9     4.550643265247345E-1  -8.913609184786742E-1  
 1.135033758439610E9     4.533227086067200E-1  -8.914539590840862E-1  
 1.137284321080270E9     4.524718821048737E-1  -8.924094550534244E-1  
 1.139534883720930E9     4.531308114528656E-1  -8.943059793867736E-1  
 1.141785446361590E9     4.489942789077759E-1  -8.929511382155974E-1  
 1.144036009002251E9     4.502417147159576E-1  -8.944705082828685E-1  
 1.146286571642911E9     4.426533579826355E-1  -8.971829788254687E-1  
 1.148537134283571E9     4.445482194423676E-1  -8.964548018377949E-1  
 1.150787696924231E9     4.404691457748413E-1  -8.986145061653179E-1  
 1.153038259564891E9     4.407437741756439E-1  -8.995027299610412E-1  
 1.155288822205551E9     4.367922544479370E-1  -8.996799032550178E-1  
 1.157539384846211E9     4.367617368698120E-1  -9.009280458069955E-1  
 1.159789947486872E9     4.340628683567047E-1  -9.019732518723479E-1  
 1.162040510127532E9     4.323325455188751E-1  -9.054232503618740E-1  
 1.164291072768192E9     4.295503199100494E-1  -9.052571553027490E-1  
 1.166541635408852E9     4.281821250915527E-1  -9.057866159009899E-1  
 1.168792198049512E9     4.235095083713532E-1  -9.089385489018036E-1  
 1.171042760690172E9     4.232810735702515E-1  -9.082785799510565E-1  
 1.173293323330833E9     4.231529533863068E-1  -9.087649244162552E-1  
 1.175543885971493E9     4.211882650852203E-1  -9.101177283519436E-1  
 1.177794448612153E9     4.167849421501160E-1  -9.102890651912311E-1  
 1.180045011252813E9     4.159406423568726E-1  -9.113465668035491E-1  
 1.182295573893473E9     4.132238328456879E-1  -9.125619444297999E-1  
 1.184546136534133E9     4.122102260589600E-1  -9.133183671611149E-1  
 1.186796699174794E9     4.091778993606567E-1  -9.129514821200970E-1  
 1.189047261815454E9     4.055905044078827E-1  -9.145970640043813E-1  
 1.191297824456114E9     4.041308760643005E-1  -9.140420345673859E-1  
 1.193548387096774E9     4.037633836269379E-1  -9.153259952895648E-1  
 1.195798949737434E9     4.016548395156860E-1  -9.178374240928238E-1  
 1.198049512378094E9     4.003481566905975E-1  -9.162753440623938E-1  
 1.200300075018755E9     3.995744585990906E-1  -9.184328952186222E-1  
 1.202550637659415E9     3.940756022930145E-1  -9.187831221381884E-1  
 1.204801200300075E9     3.941143751144409E-1  -9.204715889698583E-1  
 1.207051762940735E9     3.914333879947662E-1  -9.225187973695644E-1  
 1.209302325581395E9     3.919351100921631E-1  -9.215328919255613E-1  
 1.211552888222055E9     3.900663852691650E-1  -9.211332250052653E-1  
 1.213803450862716E9     3.856701552867889E-1  -9.229720600472433E-1  
 1.216054013503376E9     3.846544623374939E-1  -9.234023802287154E-1  
 1.218304576144036E9     3.835467398166657E-1  -9.248542568409064E-1  
 1.220555138784696E9     3.807868361473084E-1  -9.253910255608451E-1  
 1.222805701425356E9     3.798699676990509E-1  -9.274133215173175E-1  
 1.225056264066016E9     3.761018216609955E-1  -9.282831288532150E-1  
 1.227306826706677E9     3.751416802406311E-1  -9.285408216644000E-1  
 1.229557389347337E9     3.720006644725800E-1  -9.303586812013124E-1  
 1.231807951987997E9     3.714589774608612E-1  -9.300433856597701E-1  
 1.234058514628657E9     3.682690858840942E-1  -9.319917002445868E-1  
 1.236309077269317E9     3.663193881511688E-1  -9.324313480192484E-1  
 1.238559639909977E9     3.645026683807373E-1  -9.338751053560100E-1  
 1.240810202550638E9     3.609687983989716E-1  -9.345417290157925E-1  
 1.243060765191298E9     3.590349555015564E-1  -9.354108102853465E-1  
 1.245311327831958E9     3.568616807460785E-1  -9.354380766141028E-1  
 1.247561890472618E9     3.544650673866272E-1  -9.367694079771991E-1  
 1.249812453113278E9     3.548600077629089E-1  -9.374679949642675E-1  
 1.252063015753938E9     3.531025648117065E-1  -9.367526869303566E-1  
 1.254313578394599E9     3.501904904842377E-1  -9.400699786066080E-1  
 1.256564141035259E9     3.474705815315247E-1  -9.394191080139618E-1  
 1.258814703675919E9     3.460147082805634E-1  -9.392342273997447E-1  
 1.261065266316579E9     3.422915339469910E-1  -9.401920313170533E-1  
 1.263315828957239E9     3.413682281970978E-1  -9.408204147898783E-1  
 1.265566391597899E9     3.403393328189850E-1  -9.433778804173778E-1  
 1.267816954238560E9     3.370702862739563E-1  -9.408218224392734E-1  
 1.270067516879220E9     3.357821106910706E-1  -9.430871749704026E-1  
 1.272318079519880E9     3.355719149112701E-1  -9.454281490736692E-1  
 1.274568642160540E9     3.331395983695984E-1  -9.454069394021660E-1  
 1.276819204801200E9     3.297518193721771E-1  -9.447333681767018E-1  
 1.279069767441860E9     3.281082212924957E-1  -9.466295749347883E-1  
 1.281320330082521E9     3.254889845848084E-1  -9.483455955029876E-1  
 1.283570892723181E9     3.231042921543121E-1  -9.482715210404304E-1  
 1.285821455363841E9     3.222942948341370E-1  -9.485144888802011E-1  
 1.288072018004501E9     3.198283612728119E-1  -9.507045862982418E-1  
 1.290322580645161E9     3.166656792163849E-1  -9.496740103936822E-1  
 1.292573143285821E9     3.138908743858337E-1  -9.521382192817922E-1  
 1.294823705926482E9     3.135668635368347E-1  -9.534020958879633E-1  
 1.297074268567142E9     3.109163045883179E-1  -9.516282327512073E-1  
 1.299324831207802E9     3.087942302227020E-1  -9.523841786306484E-1  
 1.301575393848462E9     3.084869086742401E-1  -9.545731341027405E-1  
 1.303825956489122E9     3.038788437843323E-1  -9.564539580030568E-1  
 1.306076519129782E9     3.022111654281616E-1  -9.554784833190227E-1  
 1.308327081770443E9     3.006555736064911E-1  -9.554163361424819E-1  
 1.310577644411103E9     2.972690463066101E-1  -9.571787638667303E-1  
 1.312828207051763E9     2.948194146156311E-1  -9.583155369406116E-1  
 1.315078769692423E9     2.929203212261200E-1  -9.581708280430932E-1  
 1.317329332333083E9     2.935703396797180E-1  -9.587098565291188E-1  
 1.319579894973743E9     2.895927131175995E-1  -9.568305061367517E-1  
 1.321830457614404E9     2.868374884128571E-1  -9.592175724858466E-1  
 1.324081020255064E9     2.854365706443787E-1  -9.596657817865595E-1  
 1.326331582895724E9     2.827084660530090E-1  -9.593646980299102E-1  
 1.328582145536384E9     2.824243605136871E-1  -9.603792253019162E-1  
 1.330832708177044E9     2.808825671672821E-1  -9.624281123707147E-1  
 1.333083270817704E9     2.789415121078491E-1  -9.616825948428479E-1  
 1.335333833458365E9     2.746089696884155E-1  -9.630076082938230E-1  
 1.337584396099025E9     2.738306820392609E-1  -9.623477019786516E-1  
 1.339834958739685E9     2.715210020542145E-1  -9.647645865995624E-1  
 1.342085521380345E9     2.678380608558655E-1  -9.645436587950228E-1  
 1.344336084021005E9     2.662824392318726E-1  -9.664282711680978E-1  
 1.346586646661665E9     2.625482082366943E-1  -9.673567763420572E-1  
 1.348837209302326E9     2.599329650402069E-1  -9.669957199325857E-1  
 1.351087771942986E9     2.621738016605377E-1  -9.687314434907470E-1  
 1.353338334583646E9     2.580963671207428E-1  -9.684324439820234E-1  
 1.355588897224306E9     2.556973099708557E-1  -9.689024910574324E-1  
 1.357839459864966E9     2.526691257953644E-1  -9.685302610871334E-1  
 1.360090022505626E9     2.545403242111206E-1  -9.690725519798592E-1  
 1.362340585146287E9     2.512626647949219E-1  -9.724248976980824E-1  
 1.364591147786947E9     2.496375590562820E-1  -9.721958135188142E-1  
 1.366841710427607E9     2.479867041110992E-1  -9.699533714689971E-1  
 1.369092273068267E9     2.433209270238876E-1  -9.729914930437649E-1  
 1.371342835708927E9     2.425294369459152E-1  -9.717352093314045E-1  
 1.373593398349587E9     2.407394200563431E-1  -9.740947507578712E-1  
 1.375843960990248E9     2.377601712942123E-1  -9.734828519305827E-1  
 1.378094523630908E9     2.362948805093765E-1  -9.744234819701346E-1  
 1.380345086271568E9     2.346118241548538E-1  -9.743299777711247E-1  
 1.382595648912228E9     2.330399602651596E-1  -9.751846401261193E-1  
 1.384846211552888E9     2.288551628589630E-1  -9.745275179575950E-1  
 1.387096774193548E9     2.276189029216766E-1  -9.763898344835680E-1  
 1.389347336834209E9     2.257054895162582E-1  -9.770319839372161E-1  
 1.391597899474869E9     2.235148847103119E-1  -9.769644290558086E-1  
 1.393848462115529E9     2.193384468555450E-1  -9.776385641758955E-1  
 1.396099024756189E9     2.195910066366196E-1  -9.784670560831150E-1  
 1.398349587396849E9     2.158394604921341E-1  -9.787652122007948E-1  
 1.400600150037509E9     2.168703228235245E-1  -9.792113156099132E-1  
 1.402850712678170E9     2.103744298219681E-1  -9.788697811012230E-1  
 1.405101275318830E9     2.091590166091919E-1  -9.812661935930411E-1  
 1.407351837959490E9     2.062714844942093E-1  -9.790848981729983E-1  
 1.409602400600150E9     2.038085609674454E-1  -9.807840240507256E-1  
 1.411852963240810E9     2.033893615007401E-1  -9.808817067012131E-1  
 1.414103525881470E9     2.008675336837769E-1  -9.825908327762258E-1  
 1.416354088522131E9     1.984848827123642E-1  -9.830522441757783E-1  
 1.418604651162791E9     1.965505331754684E-1  -9.827560159835636E-1  
 1.420855213803451E9     1.950982511043549E-1  -9.831552626088493E-1  
 1.423105776444111E9     1.923991739749908E-1  -9.837657904019728E-1  
 1.425356339084771E9     1.913797259330750E-1  -9.833632244686223E-1  
 1.427606901725431E9     1.888089329004288E-1  -9.839693524340973E-1  
 1.429857464366092E9     1.847672611474991E-1  -9.864129976402816E-1  
 1.432108027006752E9     1.837139874696732E-1  -9.841914899516109E-1  
 1.434358589647412E9     1.823481321334839E-1  -9.853800869045701E-1  
 1.436609152288072E9     1.786675602197647E-1  -9.861552188922972E-1  
 1.438859714928732E9     1.769736856222153E-1  -9.854226591785256E-1  
 1.441110277569392E9     1.740478724241257E-1  -9.864894912237877E-1  
 1.443360840210053E9     1.739538013935089E-1  -9.873337477277407E-1  
 1.445611402850713E9     1.714088469743729E-1  -9.870751001967393E-1  
 1.447861965491373E9     1.676889210939407E-1  -9.887646908315166E-1  
 1.450112528132033E9     1.664138883352280E-1  -9.874851919789081E-1  
 1.452363090772693E9     1.653618365526199E-1  -9.866237899582407E-1  
 1.454613653413353E9     1.607524603605270E-1  -9.884471457765357E-1  
 1.456864216054014E9     1.599625200033188E-1  -9.912459429852484E-1  
 1.459114778694674E9     1.576766073703766E-1  -9.881034465302185E-1  
 1.461365341335334E9     1.559793204069138E-1  -9.893815911962871E-1  
 1.463615903975994E9     1.531716138124466E-1  -9.890416701784451E-1  
 1.465866466616654E9     1.503774225711823E-1  -9.890958312983387E-1  
 1.468117029257314E9     1.491328775882721E-1  -9.889698724391587E-1  
 1.470367591897975E9     1.479881703853607E-1  -9.898750026712377E-1  
 1.472618154538635E9     1.461457312107086E-1  -9.901888436133840E-1  
 1.474868717179295E9     1.432159394025803E-1  -9.916554592256993E-1  
 1.477119279819955E9     1.411772370338440E-1  -9.928783489965202E-1  
 1.479369842460615E9     1.399369686841965E-1  -9.929617919013811E-1  
 1.481620405101275E9     1.368781775236130E-1  -9.911916289519919E-1  
 1.483870967741936E9     1.321167796850205E-1  -9.920590661015469E-1  
 1.486121530382596E9     1.337132006883621E-1  -9.926971474958423E-1  
 1.488372093023256E9     1.301500499248505E-1  -9.929761028419257E-1  
 1.490622655663916E9     1.271961182355881E-1  -9.930684834151400E-1  
 1.492873218304576E9     1.243874207139015E-1  -9.940072287434812E-1  
 1.495123780945236E9     1.232632324099541E-1  -9.937226552685040E-1  
 1.497374343585897E9     1.212171465158463E-1  -9.939864761529785E-1  
 1.499624906226557E9     1.195616573095322E-1  -9.961102296809369E-1  
 1.501875468867217E9     1.178000345826149E-1  -9.962753359395540E-1  
 1.504126031507877E9     1.151383742690086E-1  -9.942998687735714E-1  
 1.506376594148537E9     1.125066205859184E-1  -9.954941084263239E-1  
 1.508627156789197E9     1.101789325475693E-1  -9.958308234317784E-1  
 1.510877719429858E9     1.080411598086357E-1  -9.969068797548790E-1  
 1.513128282070518E9     1.041227653622627E-1  -9.970886857132623E-1  
 1.515378844711178E9     1.060045138001442E-1  -9.968117598550847E-1  
 1.517629407351838E9     1.005900204181671E-1  -9.953344504575719E-1  
 1.519879969992498E9     9.716906398534775E-2  -9.947845454122954E-1  
 1.522130532633158E9     9.792774915695190E-2  -9.975186961049753E-1  
 1.524381095273819E9     9.547880291938782E-2  -9.954781601300458E-1  
 1.526631657914479E9     9.385406225919724E-2  -9.966113874517273E-1  
 1.528882220555139E9     9.338676929473877E-2  -9.988550930127290E-1  
 1.531132783195799E9     8.699246495962143E-2  -9.965621885662948E-1  
 1.533383345836459E9     8.764748275279999E-2  -9.987828756418178E-1  
 1.535633908477119E9     8.589896559715271E-2  -9.984999260317030E-1  
 1.537884471117779E9     7.927799224853516E-2  -9.985395600744027E-1  
 1.540135033758440E9     7.765663415193558E-2  -9.972774718081243E-1  
 1.542385596399100E9     7.719604671001434E-2  -9.988054321723960E-1  
 1.544636159039760E9     7.485407590866089E-2  -1.002080061977408  
 1.546886721680420E9     7.408437877893448E-2  -9.994769061534795E-1  
 1.549137284321080E9     7.150246202945709E-2  -9.987181173391133E-1  
 1.551387846961741E9     7.085976004600525E-2  -9.986055385170461E-1  
 1.553638409602401E9     6.616756319999695E-2  -9.996044065420039E-1  
 1.555888972243061E9     6.257053464651108E-2  -1.000017534805389  
 1.558139534883721E9     6.223229691386223E-2  -9.979390272150471E-1  
 1.560390097524381E9     6.016068905591965E-2  -9.999162423494870E-1  
 1.562640660165041E9     5.956069752573967E-2  -9.996969604109536E-1  
 1.564891222805701E9     5.714511498808861E-2  -1.000692443117942  
 1.567141785446362E9     5.458117276430130E-2  -1.001010577365288  
 1.569392348087022E9     4.928516596555710E-2  -1.001076379295353  
 1.571642910727682E9     5.130458995699883E-2  -9.996824382849537E-1  
 1.573893473368342E9     4.293912649154663E-2  -1.001845387692910  
 1.576144036009002E9     4.527101665735245E-2  -1.002882395160792  
 1.578394598649663E9     4.239922389388084E-2  -1.002415059824994  
 1.580645161290323E9     4.028721153736115E-2  -9.994926194467368E-1  
 1.582895723930983E9     3.736201673746109E-2  -1.001450962226001  
 1.585146286571643E9     3.389668837189674E-2  -1.000480580145183  
 1.587396849212303E9     3.591968491673470E-2  -9.997803068150990E-1  
 1.589647411852963E9     3.303440660238266E-2  -1.000431104891076  
 1.591897974493623E9     2.647176198661327E-2  -1.000044852300984  
 1.594148537134284E9     2.648589760065079E-2  -1.001168673095434  
 1.596399099774944E9     2.447344735264778E-2  -1.000813739572110  
 1.598649662415604E9     2.480878680944443E-2  -1.000622526917707  
 1.600900225056264E9     2.005497366189957E-2  -1.001851639111749  
 1.603150787696924E9     1.877618208527565E-2  -1.000375642003834  
 1.605401350337585E9     1.654193736612797E-2  -1.000804757871024  
 1.607651912978245E9     1.302950549870729E-2  -1.002296737195727  
 1.609902475618905E9     1.342397276312113E-2  -1.002984360672521  
 1.612153038259565E9     9.730105288326740E-3  -1.000831145981618  
 1.614403600900225E9     7.260653190314770E-3  -1.000490787019716  
 1.616654163540885E9     4.843769595026970E-3  -1.002527777074942  
 1.618904726181545E9     2.855631755664945E-3  -1.002241514949473  
 1.621155288822206E9     4.026885144412518E-4  -1.002328836493404  
 1.623405851462866E9    -2.413780603092164E-4  -1.001549438561329  
 1.625656414103526E9    -4.784629680216312E-3  -1.000870553734214  
 1.627906976744186E9    -4.711989779025316E-3  -1.000748662252494  
