#  HZ   S   RI   R     50.0 
! Rohde & Schwarz ZVL13 2Ports - Version 3.31 - 1303.6509k13 SN: 101088
! Date: 2023-03-02 17:03:37
! Data & Calibration Information:
! Trc2:S21(Trans Norm)
! 
! 
! 
 1.000000000000000E9     5.816590189933777E-1  -8.301016268085325E-1  
 1.002250562640660E9     5.811340212821960E-1  -8.314341251149966E-1  
 1.004501125281320E9     5.770350694656372E-1  -8.341610048477050E-1  
 1.006751687921981E9     5.736119747161865E-1  -8.354588546192703E-1  
 1.009002250562641E9     5.706717371940613E-1  -8.377765367892068E-1  
 1.011252813203301E9     5.669680237770081E-1  -8.377160671421018E-1  
 1.013503375843961E9     5.637257695198059E-1  -8.383949661509711E-1  
 1.015753938484621E9     5.603709220886231E-1  -8.402222729037385E-1  
 1.018004501125281E9     5.589943528175354E-1  -8.405749292843245E-1  
 1.020255063765942E9     5.571632981300354E-1  -8.404267592137709E-1  
 1.022505626406602E9     5.531870722770691E-1  -8.407205659156196E-1  
 1.024756189047262E9     5.506708025932312E-1  -8.407844978392383E-1  
 1.027006751687922E9     5.486171841621399E-1  -8.415529157734156E-1  
 1.029257314328582E9     5.439303517341614E-1  -8.434993788462123E-1  
 1.031507876969242E9     5.451006889343262E-1  -8.426205529027602E-1  
 1.033758439609903E9     5.425244569778442E-1  -8.435054172305849E-1  
 1.036009002250563E9     5.372802019119263E-1  -8.428490951272299E-1  
 1.038259564891223E9     5.373171567916870E-1  -8.443739690696672E-1  
 1.040510127531883E9     5.347589850425720E-1  -8.434217624034487E-1  
 1.042760690172543E9     5.319143533706665E-1  -8.440970041926064E-1  
 1.045011252813203E9     5.341507196426392E-1  -8.439157302188787E-1  
 1.047261815453864E9     5.318978428840637E-1  -8.450380267438364E-1  
 1.049512378094524E9     5.291083455085754E-1  -8.449943347712368E-1  
 1.051762940735184E9     5.311272740364075E-1  -8.451847741365663E-1  
 1.054013503375844E9     5.281975269317627E-1  -8.488911040365199E-1  
 1.056264066016504E9     5.268008708953857E-1  -8.502099574639324E-1  
 1.058514628657164E9     5.260996222496033E-1  -8.499122025977468E-1  
 1.060765191297825E9     5.236346125602722E-1  -8.508280006139861E-1  
 1.063015753938485E9     5.224643945693970E-1  -8.534867172385021E-1  
 1.065266316579145E9     5.219406485557556E-1  -8.546361705186658E-1  
 1.067516879219805E9     5.188168287277222E-1  -8.560131016823580E-1  
 1.069767441860465E9     5.164392590522766E-1  -8.593805784992958E-1  
 1.072018004501125E9     5.134316086769104E-1  -8.578768577810864E-1  
 1.074268567141785E9     5.124057531356812E-1  -8.601296703528437E-1  
 1.076519129782446E9     5.111166834831238E-1  -8.604086070075279E-1  
 1.078769692423106E9     5.081482529640198E-1  -8.619599975538040E-1  
 1.081020255063766E9     5.070011019706726E-1  -8.612835379726771E-1  
 1.083270817704426E9     5.072480440139771E-1  -8.638955990899150E-1  
 1.085521380345086E9     5.051590204238892E-1  -8.650804040718284E-1  
 1.087771942985746E9     5.035942196846008E-1  -8.658879978450405E-1  
 1.090022505626407E9     5.018187761306763E-1  -8.660821363430588E-1  
 1.092273068267067E9     4.983873367309570E-1  -8.680692057791717E-1  
 1.094523630907727E9     4.973189234733582E-1  -8.679551084961588E-1  
 1.096774193548387E9     4.971762299537659E-1  -8.716093407005383E-1  
 1.099024756189047E9     4.942982792854309E-1  -8.708550567308577E-1  
 1.101275318829707E9     4.893932342529297E-1  -8.751612916454068E-1  
 1.103525881470368E9     4.908646345138550E-1  -8.753756125852726E-1  
 1.105776444111028E9     4.891477525234222E-1  -8.753174462690663E-1  
 1.108027006751688E9     4.886086583137512E-1  -8.766728456288758E-1  
 1.110277569392348E9     4.848990738391876E-1  -8.751254020008280E-1  
 1.112528132033008E9     4.813331067562103E-1  -8.789850761447917E-1  
 1.114778694673668E9     4.817459881305695E-1  -8.807933831588023E-1  
 1.117029257314329E9     4.793877005577087E-1  -8.825728090936352E-1  
 1.119279819954989E9     4.783475100994110E-1  -8.830394469274515E-1  
 1.121530382595649E9     4.750317037105560E-1  -8.836537425961460E-1  
 1.123780945236309E9     4.746831357479096E-1  -8.851204642525911E-1  
 1.126031507876969E9     4.697098731994629E-1  -8.862789158166483E-1  
 1.128282070517629E9     4.687951505184174E-1  -8.876831813705385E-1  
 1.130532633158290E9     4.684572219848633E-1  -8.872934412299477E-1  
 1.132783195798950E9     4.656813740730286E-1  -8.882448068432863E-1  
 1.135033758439610E9     4.636333882808685E-1  -8.892701637841792E-1  
 1.137284321080270E9     4.621725678443909E-1  -8.911229202214758E-1  
 1.139534883720930E9     4.618059992790222E-1  -8.920986993556324E-1  
 1.141785446361590E9     4.584777057170868E-1  -8.916771101161830E-1  
 1.144036009002251E9     4.562290906906128E-1  -8.925988017141238E-1  
 1.146286571642911E9     4.526421129703522E-1  -8.954165680761472E-1  
 1.148537134283571E9     4.532440006732941E-1  -8.954034050909632E-1  
 1.150787696924231E9     4.495515823364258E-1  -8.975351153711658E-1  
 1.153038259564891E9     4.499929845333099E-1  -8.964260712305581E-1  
 1.155288822205551E9     4.466689229011536E-1  -8.970721758475485E-1  
 1.157539384846211E9     4.451584219932556E-1  -8.972508844563419E-1  
 1.159789947486872E9     4.452345371246338E-1  -8.992930464284490E-1  
 1.162040510127532E9     4.416438639163971E-1  -9.027928582665397E-1  
 1.164291072768192E9     4.386258721351624E-1  -9.019754053611447E-1  
 1.166541635408852E9     4.389606118202210E-1  -9.043578219802209E-1  
 1.168792198049512E9     4.339845776557922E-1  -9.054775515727899E-1  
 1.171042760690172E9     4.355497956275940E-1  -9.044075606737881E-1  
 1.173293323330833E9     4.332460165023804E-1  -9.071575350655976E-1  
 1.175543885971493E9     4.304439723491669E-1  -9.087390836538407E-1  
 1.177794448612153E9     4.263862371444702E-1  -9.087775210579911E-1  
 1.180045011252813E9     4.255644679069519E-1  -9.091960485674288E-1  
 1.182295573893473E9     4.239090979099274E-1  -9.126705368355291E-1  
 1.184546136534133E9     4.220287799835205E-1  -9.116365929204033E-1  
 1.186796699174794E9     4.182169735431671E-1  -9.123577605312120E-1  
 1.189047261815454E9     4.157702922821045E-1  -9.131832715002008E-1  
 1.191297824456114E9     4.123311340808868E-1  -9.146818742891832E-1  
 1.193548387096774E9     4.126462936401367E-1  -9.155203249707585E-1  
 1.195798949737434E9     4.106139540672302E-1  -9.157649757968607E-1  
 1.198049512378094E9     4.081897735595703E-1  -9.159240542946392E-1  
 1.200300075018755E9     4.063397049903870E-1  -9.170049534708746E-1  
 1.202550637659415E9     4.035519957542419E-1  -9.175824467364735E-1  
 1.204801200300075E9     4.035592675209045E-1  -9.181048160151256E-1  
 1.207051762940735E9     4.017266929149628E-1  -9.192447986314857E-1  
 1.209302325581395E9     3.977525830268860E-1  -9.215195837176851E-1  
 1.211552888222055E9     3.960250616073608E-1  -9.211573891836664E-1  
 1.213803450862716E9     3.958503603935242E-1  -9.232016777246345E-1  
 1.216054013503376E9     3.945332169532776E-1  -9.222741307424287E-1  
 1.218304576144036E9     3.917242288589478E-1  -9.225602851670866E-1  
 1.220555138784696E9     3.904273509979248E-1  -9.243920693370851E-1  
 1.222805701425356E9     3.871359229087830E-1  -9.266868486930366E-1  
 1.225056264066016E9     3.858508169651032E-1  -9.271821142125982E-1  
 1.227306826706677E9     3.842734694480896E-1  -9.277882942788068E-1  
 1.229557389347337E9     3.823048174381256E-1  -9.293085035903292E-1  
 1.231807951987997E9     3.797787427902222E-1  -9.301832295657248E-1  
 1.234058514628657E9     3.776206672191620E-1  -9.318720225210909E-1  
 1.236309077269317E9     3.754910826683044E-1  -9.303877176630221E-1  
 1.238559639909977E9     3.741928935050964E-1  -9.340412504402758E-1  
 1.240810202550638E9     3.705672919750214E-1  -9.341709027518501E-1  
 1.243060765191298E9     3.689850568771362E-1  -9.357094717547015E-1  
 1.245311327831958E9     3.664098083972931E-1  -9.341539134872237E-1  
 1.247561890472618E9     3.657889366149902E-1  -9.371441178237024E-1  
 1.249812453113278E9     3.623547852039337E-1  -9.361520069389220E-1  
 1.252063015753938E9     3.612037897109985E-1  -9.371258479633965E-1  
 1.254313578394599E9     3.584071993827820E-1  -9.392359456709490E-1  
 1.256564141035259E9     3.555487990379334E-1  -9.398563726796593E-1  
 1.258814703675919E9     3.557497262954712E-1  -9.393577851833173E-1  
 1.261065266316579E9     3.516934514045715E-1  -9.397191225705524E-1  
 1.263315828957239E9     3.487692773342133E-1  -9.409991523376923E-1  
 1.265566391597899E9     3.490954339504242E-1  -9.420935596736892E-1  
 1.267816954238560E9     3.453813791275024E-1  -9.400667412325720E-1  
 1.270067516879220E9     3.453132212162018E-1  -9.424349467412964E-1  
 1.272318079519880E9     3.436226844787598E-1  -9.454800424913392E-1  
 1.274568642160540E9     3.425535857677460E-1  -9.442713931260904E-1  
 1.276819204801200E9     3.387425839900971E-1  -9.448263966059443E-1  
 1.279069767441860E9     3.363698422908783E-1  -9.448594598775371E-1  
 1.281320330082521E9     3.356103599071503E-1  -9.467640021820710E-1  
 1.283570892723181E9     3.318604826927185E-1  -9.473123628530672E-1  
 1.285821455363841E9     3.299811482429504E-1  -9.490641559151265E-1  
 1.288072018004501E9     3.282595574855804E-1  -9.515142269016518E-1  
 1.290322580645161E9     3.259908854961395E-1  -9.502106096799242E-1  
 1.292573143285821E9     3.226504027843475E-1  -9.528301666938719E-1  
 1.294823705926482E9     3.220270872116089E-1  -9.526805404389057E-1  
 1.297074268567142E9     3.206399381160736E-1  -9.527985840647684E-1  
 1.299324831207802E9     3.192193508148193E-1  -9.530584583689200E-1  
 1.301575393848462E9     3.169705569744110E-1  -9.552082860019785E-1  
 1.303825956489122E9     3.117811679840088E-1  -9.552930293640801E-1  
 1.306076519129782E9     3.127758800983429E-1  -9.556878612546272E-1  
 1.308327081770443E9     3.084610104560852E-1  -9.578626925984350E-1  
 1.310577644411103E9     3.054238557815552E-1  -9.593623418986739E-1  
 1.312828207051763E9     3.050704598426819E-1  -9.600250758735580E-1  
 1.315078769692423E9     3.020687103271484E-1  -9.586966316933464E-1  
 1.317329332333083E9     3.009018003940582E-1  -9.592767983222494E-1  
 1.319579894973743E9     2.959181666374207E-1  -9.586728155614421E-1  
 1.321830457614404E9     2.952964901924133E-1  -9.608250340892018E-1  
 1.324081020255064E9     2.929568588733673E-1  -9.606473507246947E-1  
 1.326331582895724E9     2.910641133785248E-1  -9.618069520897348E-1  
 1.328582145536384E9     2.905838489532471E-1  -9.615097668485313E-1  
 1.330832708177044E9     2.883634567260742E-1  -9.623513692492669E-1  
 1.333083270817704E9     2.876813411712647E-1  -9.617712784120749E-1  
 1.335333833458365E9     2.827494442462921E-1  -9.628890575402933E-1  
 1.337584396099025E9     2.829391658306122E-1  -9.623968514163340E-1  
 1.339834958739685E9     2.796942591667175E-1  -9.648825009125212E-1  
 1.342085521380345E9     2.795276045799255E-1  -9.651050060296084E-1  
 1.344336084021005E9     2.762897312641144E-1  -9.677387695427105E-1  
 1.346586646661665E9     2.736823558807373E-1  -9.672855710067527E-1  
 1.348837209302326E9     2.708953022956848E-1  -9.684964709081243E-1  
 1.351087771942986E9     2.708670496940613E-1  -9.696976316896530E-1  
 1.353338334583646E9     2.661326825618744E-1  -9.712995812815488E-1  
 1.355588897224306E9     2.647331655025482E-1  -9.693267226612730E-1  
 1.357839459864966E9     2.619855701923370E-1  -9.702075595973929E-1  
 1.360090022505626E9     2.625007629394531E-1  -9.692419782629657E-1  
 1.362340585146287E9     2.584345936775208E-1  -9.745071968567377E-1  
 1.364591147786947E9     2.579620480537415E-1  -9.733717509444942E-1  
 1.366841710427607E9     2.547174394130707E-1  -9.715278221099812E-1  
 1.369092273068267E9     2.521674633026123E-1  -9.741914113167040E-1  
 1.371342835708927E9     2.488419711589813E-1  -9.724841715697106E-1  
 1.373593398349587E9     2.475242167711258E-1  -9.747728975310067E-1  
 1.375843960990248E9     2.463523000478745E-1  -9.742027146675756E-1  
 1.378094523630908E9     2.439798265695572E-1  -9.750653451241435E-1  
 1.380345086271568E9     2.401718050241470E-1  -9.760325821608125E-1  
 1.382595648912228E9     2.413730472326279E-1  -9.762470161662954E-1  
 1.384846211552888E9     2.369324862957001E-1  -9.772812250664850E-1  
 1.387096774193548E9     2.344414740800858E-1  -9.781662150726750E-1  
 1.389347336834209E9     2.338292151689529E-1  -9.770413268245484E-1  
 1.391597899474869E9     2.299489825963974E-1  -9.781397723801865E-1  
 1.393848462115529E9     2.278544306755066E-1  -9.794900795268772E-1  
 1.396099024756189E9     2.266846150159836E-1  -9.781708090430679E-1  
 1.398349587396849E9     2.246419340372086E-1  -9.792534195155980E-1  
 1.400600150037509E9     2.240699529647827E-1  -9.805104776991334E-1  
 1.402850712678170E9     2.198894023895264E-1  -9.818128003360095E-1  
 1.405101275318830E9     2.179445177316666E-1  -9.817166657098049E-1  
 1.407351837959490E9     2.158900052309036E-1  -9.817924224761692E-1  
 1.409602400600150E9     2.124996930360794E-1  -9.818062126894581E-1  
 1.411852963240810E9     2.127347737550736E-1  -9.829975567944091E-1  
 1.414103525881470E9     2.104371190071106E-1  -9.848938530816812E-1  
 1.416354088522131E9     2.074922621250153E-1  -9.841276783445295E-1  
 1.418604651162791E9     2.071984559297562E-1  -9.838925989859778E-1  
 1.420855213803451E9     2.020957618951798E-1  -9.851518826115862E-1  
 1.423105776444111E9     2.012486308813095E-1  -9.845715736798871E-1  
 1.425356339084771E9     1.984791755676270E-1  -9.871319495567410E-1  
 1.427606901725431E9     1.968064904212952E-1  -9.866123751961293E-1  
 1.429857464366092E9     1.918719261884689E-1  -9.875490831868126E-1  
 1.432108027006752E9     1.914654076099396E-1  -9.871260818338250E-1  
 1.434358589647412E9     1.901612579822540E-1  -9.879648306171617E-1  
 1.436609152288072E9     1.877335906028748E-1  -9.883617975879708E-1  
 1.438859714928732E9     1.866700202226639E-1  -9.871107206416774E-1  
 1.441110277569392E9     1.822531372308731E-1  -9.887486595238313E-1  
 1.443360840210053E9     1.815563291311264E-1  -9.889569590514167E-1  
 1.445611402850713E9     1.798377037048340E-1  -9.888481990072756E-1  
 1.447861965491373E9     1.752311289310455E-1  -9.907773153941676E-1  
 1.450112528132033E9     1.758724451065064E-1  -9.905147419212506E-1  
 1.452363090772693E9     1.730456054210663E-1  -9.898365137821388E-1  
 1.454613653413353E9     1.688238382339478E-1  -9.900575955828650E-1  
 1.456864216054014E9     1.676404476165772E-1  -9.933159234057075E-1  
 1.459114778694674E9     1.659305691719055E-1  -9.907822356549573E-1  
 1.461365341335334E9     1.639435738325119E-1  -9.916007218583051E-1  
 1.463615903975994E9     1.601265370845795E-1  -9.906211977102168E-1  
 1.465866466616654E9     1.586958020925522E-1  -9.919984597592430E-1  
 1.468117029257314E9     1.571713238954544E-1  -9.917014529168238E-1  
 1.470367591897975E9     1.541365683078766E-1  -9.921589089492466E-1  
 1.472618154538635E9     1.529752761125565E-1  -9.913594548211591E-1  
 1.474868717179295E9     1.515979617834091E-1  -9.954381422528574E-1  
 1.477119279819955E9     1.492339372634888E-1  -9.945670440483323E-1  
 1.479369842460615E9     1.476129293441773E-1  -9.950378876566478E-1  
 1.481620405101275E9     1.442609131336212E-1  -9.945266751345226E-1  
 1.483870967741936E9     1.419827342033386E-1  -9.932442754058050E-1  
 1.486121530382596E9     1.414691358804703E-1  -9.959538166213102E-1  
 1.488372093023256E9     1.369904726743698E-1  -9.959694680056642E-1  
 1.490622655663916E9     1.344025135040283E-1  -9.956999548102078E-1  
 1.492873218304576E9     1.344960927963257E-1  -9.964188859206169E-1  
 1.495123780945236E9     1.305348873138428E-1  -9.966006586966133E-1  
 1.497374343585897E9     1.286716610193253E-1  -9.970264259901265E-1  
 1.499624906226557E9     1.258066445589066E-1  -9.977065427261966E-1  
 1.501875468867217E9     1.248848959803581E-1  -9.966495473306594E-1  
 1.504126031507877E9     1.241062879562378E-1  -9.988501908174489E-1  
 1.506376594148537E9     1.199837028980255E-1  -9.967183882246348E-1  
 1.508627156789197E9     1.182078346610069E-1  -9.988559534399066E-1  
 1.510877719429858E9     1.148503869771957E-1  -9.996289716864614E-1  
 1.513128282070518E9     1.120136156678200E-1  -1.000590291643519  
 1.515378844711178E9     1.121090576052666E-1  -1.000087481330418  
 1.517629407351838E9     1.082758381962776E-1  -9.994155008044795E-1  
 1.519879969992498E9     1.043011397123337E-1  -9.969593444477023E-1  
 1.522130532633158E9     1.066659986972809E-1  -1.002617487568064  
 1.524381095273819E9     1.022562161087990E-1  -9.979331000324041E-1  
 1.526631657914479E9     1.021313667297363E-1  -1.001030628969815  
 1.528882220555139E9     1.005912721157074E-1  -1.000825244005710  
 1.531132783195799E9     9.448426961898804E-2  -9.984633743110938E-1  
 1.533383345836459E9     9.620064496994019E-2  -1.001591513884886  
 1.535633908477119E9     9.390196949243546E-2  -1.001002633388504  
 1.537884471117779E9     8.576646447181702E-2  -1.000803392847615  
 1.540135033758440E9     8.511740714311600E-2  -9.993227238579409E-1  
 1.542385596399100E9     8.369353413581848E-2  -1.001111860043894  
 1.544636159039760E9     8.349365741014481E-2  -1.002496674861056  
 1.546886721680420E9     8.126039803028107E-2  -1.001377670033263  
 1.549137284321080E9     7.912030071020126E-2  -1.000953326940182  
 1.551387846961741E9     7.781127095222473E-2  -1.000948736329424  
 1.553638409602401E9     7.434483617544174E-2  -1.002937839590759  
 1.555888972243061E9     7.219254970550537E-2  -1.002808552422227  
 1.558139534883721E9     6.860572844743729E-2  -1.002040332435877  
 1.560390097524381E9     6.847727298736572E-2  -1.002868673829605  
 1.562640660165041E9     6.706710904836655E-2  -1.003025055665043  
 1.564891222805701E9     6.343086063861847E-2  -1.002505045532941  
 1.567141785446362E9     6.118324026465416E-2  -1.004543804233676  
 1.569392348087022E9     5.774955451488495E-2  -1.004937793587710  
 1.571642910727682E9     5.843664333224297E-2  -1.002508503792474  
 1.573893473368342E9     4.940818622708321E-2  -1.003021335442355  
 1.576144036009002E9     5.160596594214439E-2  -1.005408607888299  
 1.578394598649663E9     4.892306402325630E-2  -1.005411335311554  
 1.580645161290323E9     4.669843614101410E-2  -1.002610141622277  
 1.582895723930983E9     4.387331753969193E-2  -1.003699472932677  
 1.585146286571643E9     4.122416675090790E-2  -1.003101951041497  
 1.587396849212303E9     4.017285257577896E-2  -1.004569190908339  
 1.589647411852963E9     4.032856225967407E-2  -1.004098279285867  
 1.591897974493623E9     3.273831680417061E-2  -1.002868232233770  
 1.594148537134284E9     3.389439359307289E-2  -1.004660522415061  
 1.596399099774944E9     3.086896426975727E-2  -1.003219224545183  
 1.598649662415604E9     2.989991754293442E-2  -1.003798002353485  
 1.600900225056264E9     2.682333253324032E-2  -1.004859643203664  
 1.603150787696924E9     2.561723068356514E-2  -1.003054780938347  
 1.605401350337585E9     2.426939457654953E-2  -1.002160444697911  
 1.607651912978245E9     1.919699087738991E-2  -1.004276205313380  
 1.609902475618905E9     2.031102590262890E-2  -1.004089795897936  
 1.612153038259565E9     1.765326410531998E-2  -1.003309323370720  
 1.614403600900225E9     1.515983510762453E-2  -1.004279990573665  
 1.616654163540885E9     1.273060403764248E-2  -1.003016486478931  
 1.618904726181545E9     1.217046845704317E-2  -1.005607570177656  
 1.621155288822206E9     8.422937244176865E-3  -1.005982235863081  
 1.623405851462866E9     7.933999411761761E-3  -1.003729939020855  
 1.625656414103526E9     2.856366103515029E-3  -1.004069768890223  
 1.627906976744186E9     1.422284869477153E-3  -1.002674118751231  
