#  HZ   S   RI   R     50.0 
! Rohde & Schwarz ZVL13 2Ports - Version 3.31 - 1303.6509k13 SN: 101088
! Date: 2023-03-02 16:59:04
! Data & Calibration Information:
! Trc2:S21(Trans Norm)
! 
! 
! 
 1.000000000000000E9     5.755181312561035E-1  -8.354658253355846E-1  
 1.002250562640660E9     5.717874169349670E-1  -8.377827515278054E-1  
 1.004501125281320E9     5.718650221824646E-1  -8.398465512008008E-1  
 1.006751687921981E9     5.676555633544922E-1  -8.380946149355931E-1  
 1.009002250562641E9     5.647831559181213E-1  -8.410408098699993E-1  
 1.011252813203301E9     5.618362426757813E-1  -8.416873129913024E-1  
 1.013503375843961E9     5.583778619766235E-1  -8.409121340597183E-1  
 1.015753938484621E9     5.554533004760742E-1  -8.433313819816432E-1  
 1.018004501125281E9     5.527698993682861E-1  -8.429434131203125E-1  
 1.020255063765942E9     5.518255829811096E-1  -8.439300648635191E-1  
 1.022505626406602E9     5.497338771820068E-1  -8.439648336274458E-1  
 1.024756189047262E9     5.455504655838013E-1  -8.438315761805497E-1  
 1.027006751687922E9     5.448933839797974E-1  -8.453807308371955E-1  
 1.029257314328582E9     5.411406755447388E-1  -8.470681708852824E-1  
 1.031507876969242E9     5.416195392608643E-1  -8.451662099186741E-1  
 1.033758439609903E9     5.366870164871216E-1  -8.473555047891661E-1  
 1.036009002250563E9     5.328884124755859E-1  -8.449871498366035E-1  
 1.038259564891223E9     5.319970250129700E-1  -8.458888328266147E-1  
 1.040510127531883E9     5.301786065101624E-1  -8.460442307588334E-1  
 1.042760690172543E9     5.297268629074097E-1  -8.465553599486066E-1  
 1.045011252813203E9     5.281595587730408E-1  -8.470713775318194E-1  
 1.047261815453864E9     5.260646939277649E-1  -8.477813865602401E-1  
 1.049512378094524E9     5.253940820693970E-1  -8.466552227371921E-1  
 1.051762940735184E9     5.264734625816345E-1  -8.480631231720192E-1  
 1.054013503375844E9     5.215929150581360E-1  -8.527081876153972E-1  
 1.056264066016504E9     5.214100480079651E-1  -8.533684723965315E-1  
 1.058514628657164E9     5.204722285270691E-1  -8.536043407514913E-1  
 1.060765191297825E9     5.196852684020996E-1  -8.527749709793209E-1  
 1.063015753938485E9     5.162730813026428E-1  -8.567553475769925E-1  
 1.065266316579145E9     5.170383453369141E-1  -8.577611465249078E-1  
 1.067516879219805E9     5.135953426361084E-1  -8.575620837974647E-1  
 1.069767441860465E9     5.108504295349121E-1  -8.610959215619759E-1  
 1.072018004501125E9     5.088253021240234E-1  -8.592994869690748E-1  
 1.074268567141785E9     5.060427188873291E-1  -8.633049621462311E-1  
 1.076519129782446E9     5.059577822685242E-1  -8.627546845944225E-1  
 1.078769692423106E9     5.041316747665405E-1  -8.632292623604785E-1  
 1.081020255063766E9     5.027855634689331E-1  -8.637929587179606E-1  
 1.083270817704426E9     5.016269087791443E-1  -8.665306860376242E-1  
 1.085521380345086E9     4.998282492160797E-1  -8.681098057934927E-1  
 1.087771942985746E9     4.982360899448395E-1  -8.706442856072101E-1  
 1.090022505626407E9     4.977246522903442E-1  -8.693414158787671E-1  
 1.092273068267067E9     4.948053359985352E-1  -8.702531500385224E-1  
 1.094523630907727E9     4.920479655265808E-1  -8.712005092240098E-1  
 1.096774193548387E9     4.931646585464478E-1  -8.732256357134420E-1  
 1.099024756189047E9     4.911609590053558E-1  -8.754430459315472E-1  
 1.101275318829707E9     4.852080345153809E-1  -8.789420924862601E-1  
 1.103525881470368E9     4.891773164272308E-1  -8.780723893244705E-1  
 1.105776444111028E9     4.844964146614075E-1  -8.795624900104158E-1  
 1.108027006751688E9     4.822493493556976E-1  -8.792426805394872E-1  
 1.110277569392348E9     4.794448614120483E-1  -8.785832705453562E-1  
 1.112528132033008E9     4.770219922065735E-1  -8.829549004125533E-1  
 1.114778694673668E9     4.759610891342163E-1  -8.834355041291594E-1  
 1.117029257314329E9     4.738596379756928E-1  -8.845587780967591E-1  
 1.119279819954989E9     4.729731082916260E-1  -8.849260819236819E-1  
 1.121530382595649E9     4.697075188159943E-1  -8.858181740323380E-1  
 1.123780945236309E9     4.676930308341980E-1  -8.887416101629259E-1  
 1.126031507876969E9     4.647926688194275E-1  -8.884011020116511E-1  
 1.128282070517629E9     4.642524421215057E-1  -8.897098045718135E-1  
 1.130532633158290E9     4.619603455066681E-1  -8.903375539592492E-1  
 1.132783195798950E9     4.606208503246307E-1  -8.900068597023630E-1  
 1.135033758439610E9     4.581835865974426E-1  -8.907078250649229E-1  
 1.137284321080270E9     4.554796814918518E-1  -8.938972734477890E-1  
 1.139534883720930E9     4.567149877548218E-1  -8.931290124732735E-1  
 1.141785446361590E9     4.534400999546051E-1  -8.930687835994393E-1  
 1.144036009002251E9     4.516929686069489E-1  -8.951603215519097E-1  
 1.146286571642911E9     4.469257593154907E-1  -8.971056944855804E-1  
 1.148537134283571E9     4.473049342632294E-1  -8.970250782441318E-1  
 1.150787696924231E9     4.430521726608276E-1  -8.994912915586395E-1  
 1.153038259564891E9     4.449018239974976E-1  -8.987168058616462E-1  
 1.155288822205551E9     4.410168528556824E-1  -8.996503156820506E-1  
 1.157539384846211E9     4.406538903713226E-1  -9.013922599610739E-1  
 1.159789947486872E9     4.392114877700806E-1  -9.035300346058758E-1  
 1.162040510127532E9     4.362972378730774E-1  -9.056032515258713E-1  
 1.164291072768192E9     4.320926666259766E-1  -9.049368395511060E-1  
 1.166541635408852E9     4.343952536582947E-1  -9.048893755266398E-1  
 1.168792198049512E9     4.285601973533630E-1  -9.067853083988406E-1  
 1.171042760690172E9     4.274447858333588E-1  -9.079725641874855E-1  
 1.173293323330833E9     4.260493814945221E-1  -9.092350840873763E-1  
 1.175543885971493E9     4.232132732868195E-1  -9.108966567789502E-1  
 1.177794448612153E9     4.223996698856354E-1  -9.097555266566102E-1  
 1.180045011252813E9     4.194027483463287E-1  -9.115010149177287E-1  
 1.182295573893473E9     4.177341759204865E-1  -9.130862025167800E-1  
 1.184546136534133E9     4.164319038391113E-1  -9.139629270104516E-1  
 1.186796699174794E9     4.133051931858063E-1  -9.123596622603505E-1  
 1.189047261815454E9     4.101187586784363E-1  -9.143107008881390E-1  
 1.191297824456114E9     4.083294868469238E-1  -9.154895709264086E-1  
 1.193548387096774E9     4.064964950084686E-1  -9.165747169268130E-1  
 1.195798949737434E9     4.056960344314575E-1  -9.169059036639301E-1  
 1.198049512378094E9     4.037443101406097E-1  -9.181150142520205E-1  
 1.200300075018755E9     4.026842117309570E-1  -9.193564175974998E-1  
 1.202550637659415E9     3.998536467552185E-1  -9.199795526368557E-1  
 1.204801200300075E9     3.981432020664215E-1  -9.193182962691403E-1  
 1.207051762940735E9     3.969508409500122E-1  -9.230836452250105E-1  
 1.209302325581395E9     3.938873410224915E-1  -9.217102856718493E-1  
 1.211552888222055E9     3.924523591995239E-1  -9.213147807685141E-1  
 1.213803450862716E9     3.892263770103455E-1  -9.229944825238774E-1  
 1.216054013503376E9     3.867017030715942E-1  -9.243129890840940E-1  
 1.218304576144036E9     3.867603540420532E-1  -9.256011083836817E-1  
 1.220555138784696E9     3.855948150157929E-1  -9.246101085210955E-1  
 1.222805701425356E9     3.833642303943634E-1  -9.277721392961817E-1  
 1.225056264066016E9     3.804075121879578E-1  -9.284906680980014E-1  
 1.227306826706677E9     3.792141079902649E-1  -9.298092539777096E-1  
 1.229557389347337E9     3.771108686923981E-1  -9.310549238538212E-1  
 1.231807951987997E9     3.754117786884308E-1  -9.320915832808036E-1  
 1.234058514628657E9     3.712556958198547E-1  -9.326120003749483E-1  
 1.236309077269317E9     3.706088066101074E-1  -9.321249854222410E-1  
 1.238559639909977E9     3.691563010215759E-1  -9.340664754988125E-1  
 1.240810202550638E9     3.671778142452240E-1  -9.348126186917217E-1  
 1.243060765191298E9     3.612551689147949E-1  -9.382897425892044E-1  
 1.245311327831958E9     3.610465824604034E-1  -9.354499191469170E-1  
 1.247561890472618E9     3.584737479686737E-1  -9.386388080055663E-1  
 1.249812453113278E9     3.596099317073822E-1  -9.389625868380873E-1  
 1.252063015753938E9     3.545025289058685E-1  -9.383308707243151E-1  
 1.254313578394599E9     3.545621335506439E-1  -9.413038868088662E-1  
 1.256564141035259E9     3.510392904281616E-1  -9.412984626418581E-1  
 1.258814703675919E9     3.483777046203613E-1  -9.408513546936770E-1  
 1.261065266316579E9     3.463304042816162E-1  -9.417058713932864E-1  
 1.263315828957239E9     3.437083363533020E-1  -9.409516441374570E-1  
 1.265566391597899E9     3.432834744453430E-1  -9.434573584320166E-1  
 1.267816954238560E9     3.423709273338318E-1  -9.414575100922979E-1  
 1.270067516879220E9     3.395318686962128E-1  -9.444992667938059E-1  
 1.272318079519880E9     3.382374942302704E-1  -9.467925438247867E-1  
 1.274568642160540E9     3.372491300106049E-1  -9.454187194774597E-1  
 1.276819204801200E9     3.324891626834869E-1  -9.468544460779929E-1  
 1.279069767441860E9     3.310458958148956E-1  -9.470627500280732E-1  
 1.281320330082521E9     3.302387893199921E-1  -9.490541588710356E-1  
 1.283570892723181E9     3.271526396274567E-1  -9.481818353542754E-1  
 1.285821455363841E9     3.249046206474304E-1  -9.495476793217241E-1  
 1.288072018004501E9     3.221024274826050E-1  -9.510966301523808E-1  
 1.290322580645161E9     3.201117217540741E-1  -9.509848539034732E-1  
 1.292573143285821E9     3.187363743782044E-1  -9.521198739006223E-1  
 1.294823705926482E9     3.159513771533966E-1  -9.530510590740168E-1  
 1.297074268567142E9     3.135451972484589E-1  -9.526712950458594E-1  
 1.299324831207802E9     3.130388259887695E-1  -9.526915627898213E-1  
 1.301575393848462E9     3.101022839546204E-1  -9.562398950260332E-1  
 1.303825956489122E9     3.081960976123810E-1  -9.558797428956618E-1  
 1.306076519129782E9     3.058987855911255E-1  -9.547989622440322E-1  
 1.308327081770443E9     3.046012222766876E-1  -9.576679420965083E-1  
 1.310577644411103E9     3.005156815052033E-1  -9.596661240238287E-1  
 1.312828207051763E9     2.990645170211792E-1  -9.599548834210672E-1  
 1.315078769692423E9     2.972217798233032E-1  -9.598146154880219E-1  
 1.317329332333083E9     2.948125600814819E-1  -9.592796861406231E-1  
 1.319579894973743E9     2.938358485698700E-1  -9.590521024390878E-1  
 1.321830457614404E9     2.901234328746796E-1  -9.604286464407907E-1  
 1.324081020255064E9     2.877214848995209E-1  -9.610432530284006E-1  
 1.326331582895724E9     2.877919077873230E-1  -9.592835246969276E-1  
 1.328582145536384E9     2.853847444057465E-1  -9.617824104479188E-1  
 1.330832708177044E9     2.831023931503296E-1  -9.626000178966864E-1  
 1.333083270817704E9     2.818086743354797E-1  -9.633607948910054E-1  
 1.335333833458365E9     2.788801789283752E-1  -9.643621571464277E-1  
 1.337584396099025E9     2.774692773818970E-1  -9.634424494633725E-1  
 1.339834958739685E9     2.746244668960571E-1  -9.654534546781979E-1  
 1.342085521380345E9     2.740468084812164E-1  -9.660992131065265E-1  
 1.344336084021005E9     2.700250148773193E-1  -9.674128824437899E-1  
 1.346586646661665E9     2.675625383853912E-1  -9.684384088327300E-1  
 1.348837209302326E9     2.657871842384338E-1  -9.691110866943021E-1  
 1.351087771942986E9     2.660624980926514E-1  -9.695122478548800E-1  
 1.353338334583646E9     2.620731294155121E-1  -9.714289222707228E-1  
 1.355588897224306E9     2.573170065879822E-1  -9.684978293469249E-1  
 1.357839459864966E9     2.570071518421173E-1  -9.706204313001636E-1  
 1.360090022505626E9     2.567767202854157E-1  -9.708947783048897E-1  
 1.362340585146287E9     2.536349296569824E-1  -9.734140382727344E-1  
 1.364591147786947E9     2.527920305728912E-1  -9.720647758556453E-1  
 1.366841710427607E9     2.506068646907806E-1  -9.728665280849462E-1  
 1.369092273068267E9     2.467337548732758E-1  -9.732212668819298E-1  
 1.371342835708927E9     2.454317063093185E-1  -9.725355929459467E-1  
 1.373593398349587E9     2.431448251008987E-1  -9.731535495221336E-1  
 1.375843960990248E9     2.418390512466431E-1  -9.752027778435151E-1  
 1.378094523630908E9     2.391541451215744E-1  -9.750217961130585E-1  
 1.380345086271568E9     2.359280884265900E-1  -9.753549927732845E-1  
 1.382595648912228E9     2.363456636667252E-1  -9.770121516560552E-1  
 1.384846211552888E9     2.314742654561997E-1  -9.786427906614765E-1  
 1.387096774193548E9     2.304961979389191E-1  -9.778184790866913E-1  
 1.389347336834209E9     2.266600281000137E-1  -9.779118552251709E-1  
 1.391597899474869E9     2.260255813598633E-1  -9.780503082776040E-1  
 1.393848462115529E9     2.224519103765488E-1  -9.792237480756562E-1  
 1.396099024756189E9     2.219306230545044E-1  -9.791672149516271E-1  
 1.398349587396849E9     2.189528793096542E-1  -9.810198986990263E-1  
 1.400600150037509E9     2.185098081827164E-1  -9.810451724519737E-1  
 1.402850712678170E9     2.155428230762482E-1  -9.801246782151326E-1  
 1.405101275318830E9     2.126700729131699E-1  -9.820126748894382E-1  
 1.407351837959490E9     2.103614062070847E-1  -9.821239532163919E-1  
 1.409602400600150E9     2.070201337337494E-1  -9.826191679119531E-1  
 1.411852963240810E9     2.077863812446594E-1  -9.831556733372797E-1  
 1.414103525881470E9     2.031190693378449E-1  -9.854732918479175E-1  
 1.416354088522131E9     2.034442126750946E-1  -9.836286149068383E-1  
 1.418604651162791E9     2.017360627651215E-1  -9.846700206979674E-1  
 1.420855213803451E9     1.973005235195160E-1  -9.838126193561564E-1  
 1.423105776444111E9     1.951564699411392E-1  -9.840141109935101E-1  
 1.425356339084771E9     1.924101114273071E-1  -9.866139639780185E-1  
 1.427606901725431E9     1.900261342525482E-1  -9.870392733931119E-1  
 1.429857464366092E9     1.881113201379776E-1  -9.884148205407821E-1  
 1.432108027006752E9     1.872365027666092E-1  -9.877935185017261E-1  
 1.434358589647412E9     1.853746175765991E-1  -9.868897839051131E-1  
 1.436609152288072E9     1.817747354507446E-1  -9.882131691277262E-1  
 1.438859714928732E9     1.816255450248718E-1  -9.868380407015347E-1  
 1.441110277569392E9     1.774971932172775E-1  -9.881549561260221E-1  
 1.443360840210053E9     1.766287088394165E-1  -9.886682299350172E-1  
 1.445611402850713E9     1.738711148500443E-1  -9.890244375957755E-1  
 1.447861965491373E9     1.706511378288269E-1  -9.903243543771577E-1  
 1.450112528132033E9     1.690614521503449E-1  -9.896212404901899E-1  
 1.452363090772693E9     1.673585921525955E-1  -9.907291272046084E-1  
 1.454613653413353E9     1.650844514369965E-1  -9.894266833273820E-1  
 1.456864216054014E9     1.617434024810791E-1  -9.911351281376263E-1  
 1.459114778694674E9     1.625248044729233E-1  -9.905537757161550E-1  
 1.461365341335334E9     1.598742753267288E-1  -9.917797148814765E-1  
 1.463615903975994E9     1.553412675857544E-1  -9.912064699489486E-1  
 1.465866466616654E9     1.523776650428772E-1  -9.916159905756664E-1  
 1.468117029257314E9     1.526750773191452E-1  -9.908161115774029E-1  
 1.470367591897975E9     1.495465189218521E-1  -9.933604116163830E-1  
 1.472618154538635E9     1.478110402822495E-1  -9.916220431248476E-1  
 1.474868717179295E9     1.464794278144836E-1  -9.935902722322961E-1  
 1.477119279819955E9     1.435163766145706E-1  -9.951568471825263E-1  
 1.479369842460615E9     1.423590481281281E-1  -9.933284845521693E-1  
 1.481620405101275E9     1.399671733379364E-1  -9.938654556783652E-1  
 1.483870967741936E9     1.369607746601105E-1  -9.934383238361156E-1  
 1.486121530382596E9     1.365303099155426E-1  -9.954534314188521E-1  
 1.488372093023256E9     1.340170949697495E-1  -9.956496380573863E-1  
 1.490622655663916E9     1.290224343538284E-1  -9.953245368366206E-1  
 1.492873218304576E9     1.287672668695450E-1  -9.964543112759288E-1  
 1.495123780945236E9     1.261248588562012E-1  -9.956971192046403E-1  
 1.497374343585897E9     1.241184771060944E-1  -9.968479393016132E-1  
 1.499624906226557E9     1.221796572208405E-1  -9.961641829014267E-1  
 1.501875468867217E9     1.190884560346603E-1  -9.952069373412057E-1  
 1.504126031507877E9     1.183396056294441E-1  -9.975700280570478E-1  
 1.506376594148537E9     1.159234941005707E-1  -9.965900162128476E-1  
 1.508627156789197E9     1.121921762824059E-1  -9.971946451180468E-1  
 1.510877719429858E9     1.104536578059197E-1  -9.986667861557976E-1  
 1.513128282070518E9     1.079862713813782E-1  -9.980503345551218E-1  
 1.515378844711178E9     1.060299947857857E-1  -9.995564351273683E-1  
 1.517629407351838E9     1.031644493341446E-1  -9.967450233092524E-1  
 1.519879969992498E9     1.005338951945305E-1  -9.966213492126561E-1  
 1.522130532633158E9     1.004689335823059E-1  -9.999244841150201E-1  
 1.524381095273819E9     9.706220030784607E-2  -9.978407316292097E-1  
 1.526631657914479E9     9.836092591285706E-2  -1.000223528863330  
 1.528882220555139E9     9.480078518390656E-2  -9.997804695138057E-1  
 1.531132783195799E9     8.957182615995407E-2  -9.980900616847453E-1  
 1.533383345836459E9     9.184546023607254E-2  -1.001558652233077  
 1.535633908477119E9     8.708969503641129E-2  -1.000968015923333  
 1.537884471117779E9     8.002631366252899E-2  -9.998216540364611E-1  
 1.540135033758440E9     7.960786670446396E-2  -9.990712214416138E-1  
 1.542385596399100E9     7.934790104627609E-2  -1.000628013340182  
 1.544636159039760E9     7.817387580871582E-2  -1.001692647175521  
 1.546886721680420E9     7.641296088695526E-2  -1.000832801726351  
 1.549137284321080E9     7.419029623270035E-2  -1.000308562245362  
 1.551387846961741E9     7.338275015354157E-2  -1.000631979082958  
 1.553638409602401E9     6.951005756855011E-2  -1.001265004122474  
 1.555888972243061E9     6.655320525169373E-2  -1.001457341893094  
 1.558139534883721E9     6.423090398311615E-2  -1.001328178838630  
 1.560390097524381E9     6.258105486631393E-2  -1.001401118482366  
 1.562640660165041E9     6.336415559053421E-2  -1.002137825371516  
 1.564891222805701E9     5.854063481092453E-2  -1.001554218564658  
 1.567141785446362E9     5.634022504091263E-2  -1.004320654979720  
 1.569392348087022E9     5.279487371444702E-2  -1.003161948755259  
 1.571642910727682E9     5.435921251773834E-2  -1.001434931077674  
 1.573893473368342E9     4.653723537921906E-2  -1.004063253703919  
 1.576144036009002E9     4.585542902350426E-2  -1.002912075878250  
 1.578394598649663E9     4.499144107103348E-2  -1.004989344190682  
 1.580645161290323E9     4.139620065689087E-2  -1.000327863236379  
 1.582895723930983E9     3.974721953272820E-2  -1.003468266957931  
 1.585146286571643E9     3.819655254483223E-2  -1.002829197781137  
 1.587396849212303E9     3.692642971873283E-2  -1.002375491384742  
 1.589647411852963E9     3.618627414107323E-2  -1.002350941329169  
 1.591897974493623E9     2.962937206029892E-2  -1.001280137861901  
 1.594148537134284E9     2.992108836770058E-2  -1.002767271093229  
 1.596399099774944E9     2.684169821441174E-2  -1.002786320328247  
 1.598649662415604E9     2.547642774879932E-2  -1.002514722493269  
 1.600900225056264E9     2.132789604365826E-2  -1.004434969449758  
 1.603150787696924E9     2.141160704195499E-2  -1.002896693587024  
 1.605401350337585E9     1.903295330703259E-2  -1.001616953487930  
 1.607651912978245E9     1.546646188944578E-2  -1.003805028221200  
 1.609902475618905E9     1.410082075744867E-2  -1.002103469856983  
 1.612153038259565E9     1.271391287446022E-2  -1.002688226654542  
 1.614403600900225E9     1.028398331254721E-2  -1.002832570178598  
 1.616654163540885E9     7.119016256183386E-3  -1.003122069990686  
 1.618904726181545E9     5.867667030543089E-3  -1.003884472751012  
 1.621155288822206E9     1.975008752197027E-3  -1.004766038539977  
 1.623405851462866E9     2.211562125012279E-3  -1.004632072682695  
 1.625656414103526E9    -2.246333169750869E-4  -1.002954241508937  
 1.627906976744186E9    -2.396641299128532E-3  -1.002166003691443  
