#  HZ   S   RI   R     50.0 
! Rohde & Schwarz ZVL13 2Ports - Version 3.31 - 1303.6509k13 SN: 101088
! Date: 2023-03-02 17:01:20
! Data & Calibration Information:
! Trc2:S21(Trans Norm)
! 
! 
! 
 1.000000000000000E9     5.802670121192932E-1  -8.337181889680926E-1  
 1.002250562640660E9     5.769913792610169E-1  -8.339049055984077E-1  
 1.004501125281320E9     5.750355124473572E-1  -8.368240120044519E-1  
 1.006751687921981E9     5.703277587890625E-1  -8.369432362119599E-1  
 1.009002250562641E9     5.684483051300049E-1  -8.399172194010472E-1  
 1.011252813203301E9     5.640709400177002E-1  -8.384040631959610E-1  
 1.013503375843961E9     5.620186328887940E-1  -8.395605236140322E-1  
 1.015753938484621E9     5.585476160049439E-1  -8.414044295499213E-1  
 1.018004501125281E9     5.568801760673523E-1  -8.402077612402177E-1  
 1.020255063765942E9     5.533702373504639E-1  -8.411066531114507E-1  
 1.022505626406602E9     5.508916378021240E-1  -8.420097111990488E-1  
 1.024756189047262E9     5.482380390167236E-1  -8.422248712068774E-1  
 1.027006751687922E9     5.462800264358521E-1  -8.442831909524771E-1  
 1.029257314328582E9     5.445768833160400E-1  -8.432962508034561E-1  
 1.031507876969242E9     5.425315499305725E-1  -8.453921825473529E-1  
 1.033758439609903E9     5.381181240081787E-1  -8.442785770407273E-1  
 1.036009002250563E9     5.355038046836853E-1  -8.432692267840715E-1  
 1.038259564891223E9     5.357164740562439E-1  -8.446354226480878E-1  
 1.040510127531883E9     5.323735475540161E-1  -8.444004997549657E-1  
 1.042760690172543E9     5.327137708663940E-1  -8.441664342474556E-1  
 1.045011252813203E9     5.305329561233521E-1  -8.458096146837240E-1  
 1.047261815453864E9     5.300756692886353E-1  -8.467985228027140E-1  
 1.049512378094524E9     5.259453654289246E-1  -8.478497093155891E-1  
 1.051762940735184E9     5.281910300254822E-1  -8.467877719179836E-1  
 1.054013503375844E9     5.255374312400818E-1  -8.510935114043994E-1  
 1.056264066016504E9     5.242764949798584E-1  -8.519179963004206E-1  
 1.058514628657164E9     5.234982371330261E-1  -8.519110048085586E-1  
 1.060765191297825E9     5.221414566040039E-1  -8.537080450808858E-1  
 1.063015753938485E9     5.206552743911743E-1  -8.543333989609228E-1  
 1.065266316579145E9     5.181773900985718E-1  -8.558713784774753E-1  
 1.067516879219805E9     5.156526565551758E-1  -8.564851376002024E-1  
 1.069767441860465E9     5.147895812988281E-1  -8.596843853529342E-1  
 1.072018004501125E9     5.116748809814453E-1  -8.593256462207642E-1  
 1.074268567141785E9     5.095763802528381E-1  -8.605975088280564E-1  
 1.076519129782446E9     5.094037055969238E-1  -8.615025739027233E-1  
 1.078769692423106E9     5.062696933746338E-1  -8.634487220512980E-1  
 1.081020255063766E9     5.059821009635925E-1  -8.631618906695777E-1  
 1.083270817704426E9     5.039570927619934E-1  -8.650300492265001E-1  
 1.085521380345086E9     5.029075145721436E-1  -8.671948438483547E-1  
 1.087771942985746E9     5.016906857490540E-1  -8.668401145860840E-1  
 1.090022505626407E9     5.002084374427795E-1  -8.695507567611193E-1  
 1.092273068267067E9     4.977770447731018E-1  -8.697735646022806E-1  
 1.094523630907727E9     4.951337873935700E-1  -8.694585401694549E-1  
 1.096774193548387E9     4.956054389476776E-1  -8.725428142798180E-1  
 1.099024756189047E9     4.935158789157867E-1  -8.735581752986916E-1  
 1.101275318829707E9     4.893293976783752E-1  -8.757450839131765E-1  
 1.103525881470368E9     4.896490573883057E-1  -8.757940592298908E-1  
 1.105776444111028E9     4.868254363536835E-1  -8.785422760497436E-1  
 1.108027006751688E9     4.848646521568298E-1  -8.785427071114087E-1  
 1.110277569392348E9     4.832230210304260E-1  -8.765049517040567E-1  
 1.112528132033008E9     4.756817221641541E-1  -8.810674757124262E-1  
 1.114778694673668E9     4.812632203102112E-1  -8.808675915458352E-1  
 1.117029257314329E9     4.772306084632874E-1  -8.827147636559347E-1  
 1.119279819954989E9     4.741565287113190E-1  -8.840467252127652E-1  
 1.121530382595649E9     4.726953804492950E-1  -8.849632702812802E-1  
 1.123780945236309E9     4.710856974124908E-1  -8.878736366063846E-1  
 1.126031507876969E9     4.684651196002960E-1  -8.869883064314353E-1  
 1.128282070517629E9     4.678955674171448E-1  -8.895103413858531E-1  
 1.130532633158290E9     4.665349125862122E-1  -8.877137497705953E-1  
 1.132783195798950E9     4.628803431987763E-1  -8.900063855893193E-1  
 1.135033758439610E9     4.600433707237244E-1  -8.910318031574527E-1  
 1.137284321080270E9     4.578154683113098E-1  -8.925466872899156E-1  
 1.139534883720930E9     4.595622718334198E-1  -8.923269257359043E-1  
 1.141785446361590E9     4.535359740257263E-1  -8.928033962612211E-1  
 1.144036009002251E9     4.535980522632599E-1  -8.940199794271025E-1  
 1.146286571642911E9     4.501276016235352E-1  -8.966088508478322E-1  
 1.148537134283571E9     4.477254152297974E-1  -8.962308393581513E-1  
 1.150787696924231E9     4.487071931362152E-1  -8.981233871778009E-1  
 1.153038259564891E9     4.460259974002838E-1  -8.975349179208194E-1  
 1.155288822205551E9     4.448465406894684E-1  -8.991446740741418E-1  
 1.157539384846211E9     4.439156949520111E-1  -8.991014125278291E-1  
 1.159789947486872E9     4.417409300804138E-1  -9.030551261301714E-1  
 1.162040510127532E9     4.398943483829498E-1  -9.039721364551301E-1  
 1.164291072768192E9     4.362528622150421E-1  -9.046175025999962E-1  
 1.166541635408852E9     4.367057979106903E-1  -9.061682576945129E-1  
 1.168792198049512E9     4.328785240650177E-1  -9.067209889158782E-1  
 1.171042760690172E9     4.299912750720978E-1  -9.079195826747939E-1  
 1.173293323330833E9     4.292091429233551E-1  -9.081095631058572E-1  
 1.175543885971493E9     4.277412593364716E-1  -9.105876482341682E-1  
 1.177794448612153E9     4.252448976039887E-1  -9.090000488445846E-1  
 1.180045011252813E9     4.228212833404541E-1  -9.106628192150960E-1  
 1.182295573893473E9     4.206979572772980E-1  -9.141581721717061E-1  
 1.184546136534133E9     4.199017584323883E-1  -9.122550013702976E-1  
 1.186796699174794E9     4.159954786300659E-1  -9.139702075949107E-1  
 1.189047261815454E9     4.126058518886566E-1  -9.144208125598559E-1  
 1.191297824456114E9     4.113054275512695E-1  -9.145108407820967E-1  
 1.193548387096774E9     4.108661115169525E-1  -9.162068387811155E-1  
 1.195798949737434E9     4.073305428028107E-1  -9.174142266210813E-1  
 1.198049512378094E9     4.057348668575287E-1  -9.153507327554302E-1  
 1.200300075018755E9     4.055386483669281E-1  -9.181074845563473E-1  
 1.202550637659415E9     4.015535116195679E-1  -9.174072655337453E-1  
 1.204801200300075E9     4.016499221324921E-1  -9.182951791450837E-1  
 1.207051762940735E9     3.984446823596954E-1  -9.222499331022583E-1  
 1.209302325581395E9     3.981576263904572E-1  -9.214329538829639E-1  
 1.211552888222055E9     3.946866095066071E-1  -9.208224460652514E-1  
 1.213803450862716E9     3.922883272171021E-1  -9.225849302227012E-1  
 1.216054013503376E9     3.898653388023377E-1  -9.234885984071666E-1  
 1.218304576144036E9     3.904115259647369E-1  -9.241671908661647E-1  
 1.220555138784696E9     3.873215913772583E-1  -9.249747633881271E-1  
 1.222805701425356E9     3.843332231044769E-1  -9.267112902080000E-1  
 1.225056264066016E9     3.848555982112885E-1  -9.283344834358573E-1  
 1.227306826706677E9     3.826682567596436E-1  -9.281897113598993E-1  
 1.229557389347337E9     3.797396421432495E-1  -9.300225569419333E-1  
 1.231807951987997E9     3.782306611537933E-1  -9.299400272965536E-1  
 1.234058514628657E9     3.754964172840118E-1  -9.316054965902618E-1  
 1.236309077269317E9     3.738399147987366E-1  -9.317887990825554E-1  
 1.238559639909977E9     3.730760812759399E-1  -9.340077998264993E-1  
 1.240810202550638E9     3.684145808219910E-1  -9.349017877282302E-1  
 1.243060765191298E9     3.675478994846344E-1  -9.366898563335013E-1  
 1.245311327831958E9     3.637694418430328E-1  -9.364852678651581E-1  
 1.247561890472618E9     3.623057901859283E-1  -9.371483535820900E-1  
 1.249812453113278E9     3.622229099273682E-1  -9.381543929893514E-1  
 1.252063015753938E9     3.581220209598541E-1  -9.369749300107009E-1  
 1.254313578394599E9     3.566455245018005E-1  -9.407420365694437E-1  
 1.256564141035259E9     3.541861176490784E-1  -9.404897285658845E-1  
 1.258814703675919E9     3.521458208560944E-1  -9.403471362844826E-1  
 1.261065266316579E9     3.495849967002869E-1  -9.409519855155328E-1  
 1.263315828957239E9     3.480527997016907E-1  -9.421260996860934E-1  
 1.265566391597899E9     3.471035063266754E-1  -9.425603514090500E-1  
 1.267816954238560E9     3.448745012283325E-1  -9.417358406885877E-1  
 1.270067516879220E9     3.430353999137878E-1  -9.432416087400540E-1  
 1.272318079519880E9     3.399194478988648E-1  -9.452514886069737E-1  
 1.274568642160540E9     3.394934237003326E-1  -9.449294356445369E-1  
 1.276819204801200E9     3.365519046783447E-1  -9.461640624329432E-1  
 1.279069767441860E9     3.343758285045624E-1  -9.458891898844792E-1  
 1.281320330082521E9     3.333945274353027E-1  -9.490909809960725E-1  
 1.283570892723181E9     3.308499455451965E-1  -9.476503038698573E-1  
 1.285821455363841E9     3.280246257781982E-1  -9.493032992931668E-1  
 1.288072018004501E9     3.259656727313995E-1  -9.499338726210704E-1  
 1.290322580645161E9     3.229790925979614E-1  -9.518688604866479E-1  
 1.292573143285821E9     3.199443817138672E-1  -9.524237734437351E-1  
 1.294823705926482E9     3.182819485664368E-1  -9.540462123240389E-1  
 1.297074268567142E9     3.173745274543762E-1  -9.519460431457362E-1  
 1.299324831207802E9     3.162062764167786E-1  -9.527570995237651E-1  
 1.301575393848462E9     3.144504427909851E-1  -9.552354130528231E-1  
 1.303825956489122E9     3.083033859729767E-1  -9.566347368483434E-1  
 1.306076519129782E9     3.090575039386749E-1  -9.558988946062452E-1  
 1.308327081770443E9     3.078347742557526E-1  -9.574159483699049E-1  
 1.310577644411103E9     3.038194775581360E-1  -9.588855140512562E-1  
 1.312828207051763E9     3.003452420234680E-1  -9.596742866972605E-1  
 1.315078769692423E9     3.007676601409912E-1  -9.595760097257734E-1  
 1.317329332333083E9     2.978146672248840E-1  -9.596506685862977E-1  
 1.319579894973743E9     2.962144613265991E-1  -9.584236605264694E-1  
 1.321830457614404E9     2.941913902759552E-1  -9.588983025437040E-1  
 1.324081020255064E9     2.906374037265778E-1  -9.604251982728385E-1  
 1.326331582895724E9     2.899517118930817E-1  -9.603871914832811E-1  
 1.328582145536384E9     2.884061336517334E-1  -9.613268276000176E-1  
 1.330832708177044E9     2.866743803024292E-1  -9.629312964847034E-1  
 1.333083270817704E9     2.846854925155640E-1  -9.633416833869745E-1  
 1.335333833458365E9     2.811880409717560E-1  -9.633319732153228E-1  
 1.337584396099025E9     2.799293994903565E-1  -9.637742596558944E-1  
 1.339834958739685E9     2.780695855617523E-1  -9.643183803519381E-1  
 1.342085521380345E9     2.774941921234131E-1  -9.656742773053508E-1  
 1.344336084021005E9     2.725933194160461E-1  -9.666947233018776E-1  
 1.346586646661665E9     2.704108059406281E-1  -9.689667140342599E-1  
 1.348837209302326E9     2.679648697376251E-1  -9.692001879153058E-1  
 1.351087771942986E9     2.678373754024506E-1  -9.684806327242953E-1  
 1.353338334583646E9     2.639033794403076E-1  -9.704995856574911E-1  
 1.355588897224306E9     2.624183297157288E-1  -9.687358446532750E-1  
 1.357839459864966E9     2.592177689075470E-1  -9.696798367600916E-1  
 1.360090022505626E9     2.594782114028931E-1  -9.695736245251969E-1  
 1.362340585146287E9     2.576821446418762E-1  -9.731278487795440E-1  
 1.364591147786947E9     2.551839053630829E-1  -9.747834257315915E-1  
 1.366841710427607E9     2.539918720722199E-1  -9.720836756032951E-1  
 1.369092273068267E9     2.488112896680832E-1  -9.749293614901138E-1  
 1.371342835708927E9     2.474814653396606E-1  -9.740631982134866E-1  
 1.373593398349587E9     2.463292628526688E-1  -9.744672267654670E-1  
 1.375843960990248E9     2.453899532556534E-1  -9.761707472513055E-1  
 1.378094523630908E9     2.416645437479019E-1  -9.750772630600082E-1  
 1.380345086271568E9     2.402864694595337E-1  -9.761026687461406E-1  
 1.382595648912228E9     2.385360002517700E-1  -9.757466334411876E-1  
 1.384846211552888E9     2.351581603288651E-1  -9.777138585514738E-1  
 1.387096774193548E9     2.342275232076645E-1  -9.773268383310201E-1  
 1.389347336834209E9     2.303854972124100E-1  -9.781495349265351E-1  
 1.391597899474869E9     2.282265275716782E-1  -9.773300527377528E-1  
 1.393848462115529E9     2.252189517021179E-1  -9.797436524896009E-1  
 1.396099024756189E9     2.250203043222427E-1  -9.795156791010393E-1  
 1.398349587396849E9     2.227679342031479E-1  -9.806837916445177E-1  
 1.400600150037509E9     2.212404012680054E-1  -9.803132771502621E-1  
 1.402850712678170E9     2.175682038068771E-1  -9.800989699919311E-1  
 1.405101275318830E9     2.158984243869782E-1  -9.822662130131969E-1  
 1.407351837959490E9     2.136645317077637E-1  -9.819656036768425E-1  
 1.409602400600150E9     2.106507867574692E-1  -9.826938494675219E-1  
 1.411852963240810E9     2.086380273103714E-1  -9.836995497100296E-1  
 1.414103525881470E9     2.070721983909607E-1  -9.847984573331438E-1  
 1.416354088522131E9     2.056601941585541E-1  -9.835772536352406E-1  
 1.418604651162791E9     2.040477544069290E-1  -9.835591939114181E-1  
 1.420855213803451E9     2.006646245718002E-1  -9.847243477122296E-1  
 1.423105776444111E9     1.975806504487991E-1  -9.841136418527351E-1  
 1.425356339084771E9     1.957096308469772E-1  -9.877929603609311E-1  
 1.427606901725431E9     1.945828348398209E-1  -9.871089846370340E-1  
 1.429857464366092E9     1.899646073579788E-1  -9.878034284688293E-1  
 1.432108027006752E9     1.898786425590515E-1  -9.872483908848008E-1  
 1.434358589647412E9     1.882296800613403E-1  -9.881665536453024E-1  
 1.436609152288072E9     1.851026713848114E-1  -9.874608896832406E-1  
 1.438859714928732E9     1.844851821660996E-1  -9.880853680147741E-1  
 1.441110277569392E9     1.814371496438980E-1  -9.889144530233498E-1  
 1.443360840210053E9     1.789464801549912E-1  -9.889031965555798E-1  
 1.445611402850713E9     1.775224208831787E-1  -9.889078400810953E-1  
 1.447861965491373E9     1.751489490270615E-1  -9.898137748776279E-1  
 1.450112528132033E9     1.730782091617584E-1  -9.910366045825579E-1  
 1.452363090772693E9     1.705272495746613E-1  -9.891557923153054E-1  
 1.454613653413353E9     1.692876070737839E-1  -9.897642303514389E-1  
 1.456864216054014E9     1.653179526329041E-1  -9.932393197583361E-1  
 1.459114778694674E9     1.640178412199020E-1  -9.916820347422916E-1  
 1.461365341335334E9     1.613905131816864E-1  -9.911791614577953E-1  
 1.463615903975994E9     1.593893021345139E-1  -9.911292419352498E-1  
 1.465866466616654E9     1.574121415615082E-1  -9.916492933575442E-1  
 1.468117029257314E9     1.562804430723190E-1  -9.910899508668800E-1  
 1.470367591897975E9     1.533892303705216E-1  -9.918379239390534E-1  
 1.472618154538635E9     1.498474925756455E-1  -9.910630467813686E-1  
 1.474868717179295E9     1.506283879280090E-1  -9.938599564928717E-1  
 1.477119279819955E9     1.466563642024994E-1  -9.950014427315941E-1  
 1.479369842460615E9     1.427097022533417E-1  -9.946201742512224E-1  
 1.481620405101275E9     1.420519053936005E-1  -9.944489085608268E-1  
 1.483870967741936E9     1.423508822917938E-1  -9.932985931269368E-1  
 1.486121530382596E9     1.390475481748581E-1  -9.958441562950614E-1  
 1.488372093023256E9     1.370655596256256E-1  -9.961624981903449E-1  
 1.490622655663916E9     1.333909928798676E-1  -9.956933382301487E-1  
 1.492873218304576E9     1.332428604364395E-1  -9.960066955913992E-1  
 1.495123780945236E9     1.290129870176315E-1  -9.958219100976750E-1  
 1.497374343585897E9     1.261003166437149E-1  -9.961833634660864E-1  
 1.499624906226557E9     1.242778152227402E-1  -9.978641095816496E-1  
 1.501875468867217E9     1.232328712940216E-1  -9.961439273943731E-1  
 1.504126031507877E9     1.213188841938973E-1  -9.967044762098350E-1  
 1.506376594148537E9     1.187748089432716E-1  -9.974830950056917E-1  
 1.508627156789197E9     1.164811104536057E-1  -9.997952738361180E-1  
 1.510877719429858E9     1.133726388216019E-1  -9.998986736919562E-1  
 1.513128282070518E9     1.102805882692337E-1  -9.985673682422862E-1  
 1.515378844711178E9     1.103831231594086E-1  -9.990122167670673E-1  
 1.517629407351838E9     1.084811240434647E-1  -9.981516477970417E-1  
 1.519879969992498E9     1.037109270691872E-1  -9.977933916284555E-1  
 1.522130532633158E9     1.027795076370239E-1  -9.995720360900029E-1  
 1.524381095273819E9     1.002295613288879E-1  -9.984660465652300E-1  
 1.526631657914479E9     1.003454551100731E-1  -9.996975986085563E-1  
 1.528882220555139E9     9.750730544328690E-2  -1.000067299200794  
 1.531132783195799E9     9.253308176994324E-2  -9.984044888416686E-1  
 1.533383345836459E9     9.387725591659546E-2  -1.001163396101479  
 1.535633908477119E9     9.199854731559753E-2  -1.000323507621050  
 1.537884471117779E9     8.418797701597214E-2  -1.001032962011640  
 1.540135033758440E9     8.260840922594070E-2  -9.993242951570822E-1  
 1.542385596399100E9     8.245501667261124E-2  -1.001250971093264  
 1.544636159039760E9     8.114873617887497E-2  -1.001770784529200  
 1.546886721680420E9     7.892823219299316E-2  -1.001191460815267  
 1.549137284321080E9     7.652067393064499E-2  -1.001455789296317  
 1.551387846961741E9     7.802687585353851E-2  -1.000619732575958  
 1.553638409602401E9     7.220053672790527E-2  -1.001955980638524  
 1.555888972243061E9     7.043175399303436E-2  -1.002856779327857  
 1.558139534883721E9     6.726717203855515E-2  -1.000799539261849  
 1.560390097524381E9     6.440002471208572E-2  -1.003282304961377  
 1.562640660165041E9     6.465616822242737E-2  -1.002855119195231  
 1.564891222805701E9     6.251515448093414E-2  -1.004069522841011  
 1.567141785446362E9     6.021792441606522E-2  -1.004931608679887  
 1.569392348087022E9     5.641728639602661E-2  -1.003245472984500  
 1.571642910727682E9     5.773700773715973E-2  -1.002685443123732  
 1.573893473368342E9     4.853823035955429E-2  -1.002958329854614  
 1.576144036009002E9     4.953292384743691E-2  -1.005029572686762  
 1.578394598649663E9     4.874585568904877E-2  -1.004911734400156  
 1.580645161290323E9     4.595091566443443E-2  -1.002800195531724  
 1.582895723930983E9     4.173098132014275E-2  -1.003056470588191  
 1.585146286571643E9     4.016150906682015E-2  -1.002730233657799  
 1.587396849212303E9     3.946540132164955E-2  -1.003208816617099  
 1.589647411852963E9     3.535757586359978E-2  -1.005056383725641  
 1.591897974493623E9     3.100240044295788E-2  -1.002292630086581  
 1.594148537134284E9     3.070811368525028E-2  -1.003738286970150  
 1.596399099774944E9     2.861034870147705E-2  -1.003763514397744  
 1.598649662415604E9     2.740022912621498E-2  -1.003118166767556  
 1.600900225056264E9     2.511942386627197E-2  -1.004468135790457  
 1.603150787696924E9     2.453470416367054E-2  -1.003110208879478  
 1.605401350337585E9     2.198809571564198E-2  -1.002725901748299  
 1.607651912978245E9     1.882770098745823E-2  -1.004239491702614  
 1.609902475618905E9     1.818223483860493E-2  -1.003644834506601  
 1.612153038259565E9     1.556234527379274E-2  -1.003016519869849  
 1.614403600900225E9     1.285548135638237E-2  -1.003157549752552  
 1.616654163540885E9     9.611889719963074E-3  -1.003726014116750  
 1.618904726181545E9     1.008830033242703E-2  -1.004163643759794  
 1.621155288822206E9     7.099871523678303E-3  -1.005369684577180  
 1.623405851462866E9     4.460628144443035E-3  -1.004295017255200  
 1.625656414103526E9     9.317347430624068E-4  -1.003787311673793  
 1.627906976744186E9    -5.573182133957744E-4  -1.003910313936194  
