#  HZ   S   RI   R     50.0 
! Rohde & Schwarz ZVL13 2Ports - Version 3.31 - 1303.6509k13 SN: 101088
! Date: 2023-03-02 17:04:22
! Data & Calibration Information:
! Trc2:S21(Trans Norm)
! 
! 
! 
 1.000000000000000E9     5.822376608848572E-1  -8.301555484375709E-1  
 1.002250562640660E9     5.800249576568604E-1  -8.297206760978364E-1  
 1.004501125281320E9     5.769832730293274E-1  -8.335735247812124E-1  
 1.006751687921981E9     5.729532241821289E-1  -8.346141887417738E-1  
 1.009002250562641E9     5.713389515876770E-1  -8.373134998838362E-1  
 1.011252813203301E9     5.675889849662781E-1  -8.383256904579429E-1  
 1.013503375843961E9     5.633900165557861E-1  -8.366048627312158E-1  
 1.015753938484621E9     5.616335868835449E-1  -8.389207812189647E-1  
 1.018004501125281E9     5.579703450202942E-1  -8.381785921444108E-1  
 1.020255063765942E9     5.561407208442688E-1  -8.399590669281886E-1  
 1.022505626406602E9     5.542774200439453E-1  -8.398172410436919E-1  
 1.024756189047262E9     5.499257445335388E-1  -8.408878654574463E-1  
 1.027006751687922E9     5.489773750305176E-1  -8.414876278487160E-1  
 1.029257314328582E9     5.471332073211670E-1  -8.427189776420629E-1  
 1.031507876969242E9     5.439882874488831E-1  -8.413579195917479E-1  
 1.033758439609903E9     5.412598848342896E-1  -8.423602257759080E-1  
 1.036009002250563E9     5.388804078102112E-1  -8.415691669498820E-1  
 1.038259564891223E9     5.388469696044922E-1  -8.436571342725312E-1  
 1.040510127531883E9     5.360893011093140E-1  -8.418112022113005E-1  
 1.042760690172543E9     5.349822640419006E-1  -8.421076061677378E-1  
 1.045011252813203E9     5.336725115776062E-1  -8.429737660578437E-1  
 1.047261815453864E9     5.311233401298523E-1  -8.443561109367512E-1  
 1.049512378094524E9     5.299856662750244E-1  -8.432536247158146E-1  
 1.051762940735184E9     5.315051078796387E-1  -8.440531466630162E-1  
 1.054013503375844E9     5.279260277748108E-1  -8.486754714195962E-1  
 1.056264066016504E9     5.289556384086609E-1  -8.496305390564800E-1  
 1.058514628657164E9     5.268732309341431E-1  -8.499493452573637E-1  
 1.060765191297825E9     5.267753005027771E-1  -8.501119546289886E-1  
 1.063015753938485E9     5.234193205833435E-1  -8.538543464915867E-1  
 1.065266316579145E9     5.223427414894104E-1  -8.528440201280527E-1  
 1.067516879219805E9     5.198587775230408E-1  -8.545916627479686E-1  
 1.069767441860465E9     5.174382925033569E-1  -8.557376939894555E-1  
 1.072018004501125E9     5.144684910774231E-1  -8.567623804848682E-1  
 1.074268567141785E9     5.138391852378845E-1  -8.594993977745785E-1  
 1.076519129782446E9     5.113791227340698E-1  -8.606819589868484E-1  
 1.078769692423106E9     5.098539590835571E-1  -8.603301410804163E-1  
 1.081020255063766E9     5.076755285263062E-1  -8.607882684648097E-1  
 1.083270817704426E9     5.084999203681946E-1  -8.633880891798894E-1  
 1.085521380345086E9     5.051594376564026E-1  -8.652302613607185E-1  
 1.087771942985746E9     5.042861104011536E-1  -8.649178963542773E-1  
 1.090022505626407E9     5.033659338951111E-1  -8.677685375818486E-1  
 1.092273068267067E9     5.005220174789429E-1  -8.688245020469984E-1  
 1.094523630907727E9     4.980227649211884E-1  -8.663493505278646E-1  
 1.096774193548387E9     4.971632063388825E-1  -8.697425401846137E-1  
 1.099024756189047E9     4.945060908794403E-1  -8.707561765496570E-1  
 1.101275318829707E9     4.917659759521484E-1  -8.754694361434542E-1  
 1.103525881470368E9     4.937230646610260E-1  -8.742891682166333E-1  
 1.105776444111028E9     4.881379902362824E-1  -8.753981600945748E-1  
 1.108027006751688E9     4.875991940498352E-1  -8.755276357125703E-1  
 1.110277569392348E9     4.852594435214996E-1  -8.756501917693429E-1  
 1.112528132033008E9     4.854911267757416E-1  -8.785493396382608E-1  
 1.114778694673668E9     4.819529950618744E-1  -8.791890083651361E-1  
 1.117029257314329E9     4.805539846420288E-1  -8.814688092532140E-1  
 1.119279819954989E9     4.796770215034485E-1  -8.813300797697727E-1  
 1.121530382595649E9     4.741421639919281E-1  -8.825803919036929E-1  
 1.123780945236309E9     4.747899472713471E-1  -8.856768703641582E-1  
 1.126031507876969E9     4.709152281284332E-1  -8.853238763238347E-1  
 1.128282070517629E9     4.703085124492645E-1  -8.862120091527808E-1  
 1.130532633158290E9     4.695206880569458E-1  -8.867449439755026E-1  
 1.132783195798950E9     4.669580161571503E-1  -8.883931688891928E-1  
 1.135033758439610E9     4.646804034709930E-1  -8.884165662882738E-1  
 1.137284321080270E9     4.620610177516937E-1  -8.900065293095749E-1  
 1.139534883720930E9     4.617053866386414E-1  -8.904025309463940E-1  
 1.141785446361590E9     4.586984515190125E-1  -8.907507313205901E-1  
 1.144036009002251E9     4.578866958618164E-1  -8.932497943818140E-1  
 1.146286571642911E9     4.536307156085968E-1  -8.948158810149084E-1  
 1.148537134283571E9     4.527022838592529E-1  -8.929580345384148E-1  
 1.150787696924231E9     4.506290256977081E-1  -8.956239546845591E-1  
 1.153038259564891E9     4.513689875602722E-1  -8.956643551414192E-1  
 1.155288822205551E9     4.466330409049988E-1  -8.970653865446896E-1  
 1.157539384846211E9     4.470048546791077E-1  -8.970087536226959E-1  
 1.159789947486872E9     4.447473287582398E-1  -8.996362917685633E-1  
 1.162040510127532E9     4.423200488090515E-1  -9.023901334945406E-1  
 1.164291072768192E9     4.410564899444580E-1  -9.018942946200395E-1  
 1.166541635408852E9     4.392536282539368E-1  -9.037506274935493E-1  
 1.168792198049512E9     4.341144859790802E-1  -9.032170372018707E-1  
 1.171042760690172E9     4.341481626033783E-1  -9.043570999383709E-1  
 1.173293323330833E9     4.301149547100067E-1  -9.088320020602494E-1  
 1.175543885971493E9     4.322920143604279E-1  -9.075817865338538E-1  
 1.177794448612153E9     4.286802411079407E-1  -9.083874546701172E-1  
 1.180045011252813E9     4.267534613609314E-1  -9.094619926343031E-1  
 1.182295573893473E9     4.237082302570343E-1  -9.117963835567019E-1  
 1.184546136534133E9     4.215085804462433E-1  -9.116394977143754E-1  
 1.186796699174794E9     4.201901257038117E-1  -9.113235784891387E-1  
 1.189047261815454E9     4.162299633026123E-1  -9.132972573812528E-1  
 1.191297824456114E9     4.134737253189087E-1  -9.150371521348636E-1  
 1.193548387096774E9     4.128983616828919E-1  -9.158898090879036E-1  
 1.195798949737434E9     4.121531844139099E-1  -9.161047396751466E-1  
 1.198049512378094E9     4.093284606933594E-1  -9.134894669077646E-1  
 1.200300075018755E9     4.072669148445129E-1  -9.170609254463584E-1  
 1.202550637659415E9     4.062208831310272E-1  -9.173609120417215E-1  
 1.204801200300075E9     4.048131406307221E-1  -9.180597607684879E-1  
 1.207051762940735E9     4.021176695823669E-1  -9.190915962579536E-1  
 1.209302325581395E9     3.995096385478973E-1  -9.217518107587442E-1  
 1.211552888222055E9     3.983827233314514E-1  -9.198274994834860E-1  
 1.213803450862716E9     3.959836661815643E-1  -9.230234716528259E-1  
 1.216054013503376E9     3.943961262702942E-1  -9.229548128603528E-1  
 1.218304576144036E9     3.941094875335693E-1  -9.222186710624274E-1  
 1.220555138784696E9     3.907436430454254E-1  -9.233216266880409E-1  
 1.222805701425356E9     3.882941305637360E-1  -9.248291312399968E-1  
 1.225056264066016E9     3.860560357570648E-1  -9.253939753419590E-1  
 1.227306826706677E9     3.862473964691162E-1  -9.275090697931991E-1  
 1.229557389347337E9     3.831219971179962E-1  -9.290880179726231E-1  
 1.231807951987997E9     3.806413114070892E-1  -9.290594234628558E-1  
 1.234058514628657E9     3.796762228012085E-1  -9.309632847379250E-1  
 1.236309077269317E9     3.776702582836151E-1  -9.314074644787356E-1  
 1.238559639909977E9     3.750816583633423E-1  -9.323997543916403E-1  
 1.240810202550638E9     3.719203770160675E-1  -9.333690063367468E-1  
 1.243060765191298E9     3.712000548839569E-1  -9.335616284799063E-1  
 1.245311327831958E9     3.668633103370667E-1  -9.348534831332472E-1  
 1.247561890472618E9     3.656618893146515E-1  -9.369010411886805E-1  
 1.249812453113278E9     3.645827770233154E-1  -9.379041753238286E-1  
 1.252063015753938E9     3.610635399818420E-1  -9.363034377027100E-1  
 1.254313578394599E9     3.602342903614044E-1  -9.397127935073917E-1  
 1.256564141035259E9     3.565341234207153E-1  -9.395492375716632E-1  
 1.258814703675919E9     3.563314378261566E-1  -9.398242951915898E-1  
 1.261065266316579E9     3.521551787853241E-1  -9.408026301288638E-1  
 1.263315828957239E9     3.507022261619568E-1  -9.403325493904086E-1  
 1.265566391597899E9     3.503704965114594E-1  -9.416416179970184E-1  
 1.267816954238560E9     3.461756110191345E-1  -9.410365926900813E-1  
 1.270067516879220E9     3.444309830665588E-1  -9.430551965058339E-1  
 1.272318079519880E9     3.436462581157684E-1  -9.443814399993672E-1  
 1.274568642160540E9     3.432782292366028E-1  -9.447956892411167E-1  
 1.276819204801200E9     3.394446074962616E-1  -9.433703670469216E-1  
 1.279069767441860E9     3.364920020103455E-1  -9.449849238754351E-1  
 1.281320330082521E9     3.378831744194031E-1  -9.453503054382676E-1  
 1.283570892723181E9     3.326807022094727E-1  -9.470109906082791E-1  
 1.285821455363841E9     3.317427933216095E-1  -9.489097593739531E-1  
 1.288072018004501E9     3.301572799682617E-1  -9.502781551624678E-1  
 1.290322580645161E9     3.282948136329651E-1  -9.501817544255886E-1  
 1.292573143285821E9     3.252153396606445E-1  -9.518007864896910E-1  
 1.294823705926482E9     3.219645023345947E-1  -9.522433862502620E-1  
 1.297074268567142E9     3.205718994140625E-1  -9.520371161506883E-1  
 1.299324831207802E9     3.198567032814026E-1  -9.517775787348136E-1  
 1.301575393848462E9     3.171610236167908E-1  -9.546937265165558E-1  
 1.303825956489122E9     3.122738003730774E-1  -9.544026292366798E-1  
 1.306076519129782E9     3.135336339473724E-1  -9.564339852299606E-1  
 1.308327081770443E9     3.092285096645355E-1  -9.570679358240405E-1  
 1.310577644411103E9     3.063458502292633E-1  -9.593515322032226E-1  
 1.312828207051763E9     3.049505650997162E-1  -9.579122461580714E-1  
 1.315078769692423E9     3.032519519329071E-1  -9.580392043585446E-1  
 1.317329332333083E9     3.025297522544861E-1  -9.587693253723992E-1  
 1.319579894973743E9     2.994225323200226E-1  -9.599089402867845E-1  
 1.321830457614404E9     2.968468666076660E-1  -9.604740379428250E-1  
 1.324081020255064E9     2.949711680412293E-1  -9.590149514914150E-1  
 1.326331582895724E9     2.925357222557068E-1  -9.600285453977533E-1  
 1.328582145536384E9     2.918840348720551E-1  -9.613835503462138E-1  
 1.330832708177044E9     2.884707748889923E-1  -9.624412090322593E-1  
 1.333083270817704E9     2.878623306751251E-1  -9.628418659163384E-1  
 1.335333833458365E9     2.840274870395660E-1  -9.625425865385497E-1  
 1.337584396099025E9     2.836527228355408E-1  -9.627656529184887E-1  
 1.339834958739685E9     2.814337313175201E-1  -9.648708335252447E-1  
 1.342085521380345E9     2.792649269104004E-1  -9.647814082207811E-1  
 1.344336084021005E9     2.766679525375366E-1  -9.666837929964606E-1  
 1.346586646661665E9     2.745862007141113E-1  -9.672864349156889E-1  
 1.348837209302326E9     2.716979980468750E-1  -9.667659269699831E-1  
 1.351087771942986E9     2.718363106250763E-1  -9.690370635692347E-1  
 1.353338334583646E9     2.680508494377136E-1  -9.706313669443220E-1  
 1.355588897224306E9     2.646750807762146E-1  -9.685515515255888E-1  
 1.357839459864966E9     2.635062634944916E-1  -9.705191605425418E-1  
 1.360090022505626E9     2.631720900535584E-1  -9.704870672858683E-1  
 1.362340585146287E9     2.594430446624756E-1  -9.724153748243012E-1  
 1.364591147786947E9     2.580592036247253E-1  -9.723496213408237E-1  
 1.366841710427607E9     2.565113902091980E-1  -9.721396984545796E-1  
 1.369092273068267E9     2.529302537441254E-1  -9.730337752145821E-1  
 1.371342835708927E9     2.500784397125244E-1  -9.723013066188601E-1  
 1.373593398349587E9     2.483927458524704E-1  -9.758862684010410E-1  
 1.375843960990248E9     2.472310364246368E-1  -9.741962599641671E-1  
 1.378094523630908E9     2.437289208173752E-1  -9.740108249984361E-1  
 1.380345086271568E9     2.432779371738434E-1  -9.742115495058923E-1  
 1.382595648912228E9     2.413791865110397E-1  -9.746807889372328E-1  
 1.384846211552888E9     2.378398180007935E-1  -9.756892899108027E-1  
 1.387096774193548E9     2.367182374000549E-1  -9.765304655079341E-1  
 1.389347336834209E9     2.342642396688461E-1  -9.769322552509223E-1  
 1.391597899474869E9     2.316440790891647E-1  -9.776164689381673E-1  
 1.393848462115529E9     2.294510900974274E-1  -9.783929719381129E-1  
 1.396099024756189E9     2.271363288164139E-1  -9.791902418032026E-1  
 1.398349587396849E9     2.257214784622192E-1  -9.802899252779118E-1  
 1.400600150037509E9     2.243773937225342E-1  -9.795922225583761E-1  
 1.402850712678170E9     2.204736024141312E-1  -9.804557808150798E-1  
 1.405101275318830E9     2.199867665767670E-1  -9.814340630215764E-1  
 1.407351837959490E9     2.167058736085892E-1  -9.815820763741554E-1  
 1.409602400600150E9     2.139765918254852E-1  -9.817219413957741E-1  
 1.411852963240810E9     2.132798880338669E-1  -9.832182630166662E-1  
 1.414103525881470E9     2.113359719514847E-1  -9.857808203936322E-1  
 1.416354088522131E9     2.085279673337936E-1  -9.845694843171148E-1  
 1.418604651162791E9     2.075537592172623E-1  -9.842471067725351E-1  
 1.420855213803451E9     2.030981332063675E-1  -9.846280849183150E-1  
 1.423105776444111E9     1.995793282985687E-1  -9.852747010567771E-1  
 1.425356339084771E9     2.002946287393570E-1  -9.870297004747732E-1  
 1.427606901725431E9     1.973012834787369E-1  -9.861447254584652E-1  
 1.429857464366092E9     1.945960223674774E-1  -9.883540717432880E-1  
 1.432108027006752E9     1.923214346170425E-1  -9.873145335560222E-1  
 1.434358589647412E9     1.913244128227234E-1  -9.876699612358684E-1  
 1.436609152288072E9     1.885546445846558E-1  -9.879497033166899E-1  
 1.438859714928732E9     1.871683746576309E-1  -9.875084461601429E-1  
 1.441110277569392E9     1.835670769214630E-1  -9.880988583818439E-1  
 1.443360840210053E9     1.831296682357788E-1  -9.879316195525799E-1  
 1.445611402850713E9     1.804783046245575E-1  -9.884698111323170E-1  
 1.447861965491373E9     1.756005287170410E-1  -9.899324847223630E-1  
 1.450112528132033E9     1.757950931787491E-1  -9.896321046948727E-1  
 1.452363090772693E9     1.731924414634705E-1  -9.891701295807884E-1  
 1.454613653413353E9     1.708249747753143E-1  -9.902398839640123E-1  
 1.456864216054014E9     1.687781363725662E-1  -9.926556652700005E-1  
 1.459114778694674E9     1.669241189956665E-1  -9.916157920575199E-1  
 1.461365341335334E9     1.653206497430801E-1  -9.917061896453067E-1  
 1.463615903975994E9     1.604278236627579E-1  -9.917954337152942E-1  
 1.465866466616654E9     1.593137234449387E-1  -9.914422460624757E-1  
 1.468117029257314E9     1.583424508571625E-1  -9.928536601756882E-1  
 1.470367591897975E9     1.558654904365540E-1  -9.925336643312454E-1  
 1.472618154538635E9     1.553409844636917E-1  -9.916624445277497E-1  
 1.474868717179295E9     1.535591632127762E-1  -9.942720468593022E-1  
 1.477119279819955E9     1.502097249031067E-1  -9.937741712999534E-1  
 1.479369842460615E9     1.473808884620667E-1  -9.937677116640834E-1  
 1.481620405101275E9     1.452953219413757E-1  -9.947405148468911E-1  
 1.483870967741936E9     1.440614461898804E-1  -9.940447001309452E-1  
 1.486121530382596E9     1.410701721906662E-1  -9.957103497111820E-1  
 1.488372093023256E9     1.384730041027069E-1  -9.964116496113405E-1  
 1.490622655663916E9     1.343746632337570E-1  -9.960633038110452E-1  
 1.492873218304576E9     1.349871903657913E-1  -9.962339442748207E-1  
 1.495123780945236E9     1.314829438924789E-1  -9.958776971231976E-1  
 1.497374343585897E9     1.292587369680405E-1  -9.989956085856812E-1  
 1.499624906226557E9     1.267192810773850E-1  -9.985740217055668E-1  
 1.501875468867217E9     1.250342726707459E-1  -9.986020191922151E-1  
 1.504126031507877E9     1.241529881954193E-1  -9.962464841911149E-1  
 1.506376594148537E9     1.209626048803330E-1  -9.972697208475456E-1  
 1.508627156789197E9     1.186335682868958E-1  -9.990001436465960E-1  
 1.510877719429858E9     1.169984042644501E-1  -9.979356961214831E-1  
 1.513128282070518E9     1.137288957834244E-1  -1.000048997345088  
 1.515378844711178E9     1.131984740495682E-1  -1.000050584902115  
 1.517629407351838E9     1.097391918301582E-1  -9.981251674689935E-1  
 1.519879969992498E9     1.062364503741264E-1  -9.991961849015719E-1  
 1.522130532633158E9     1.063223481178284E-1  -1.000790274067592  
 1.524381095273819E9     1.032034456729889E-1  -9.974565056638175E-1  
 1.526631657914479E9     1.044522449374199E-1  -1.000463979039534  
 1.528882220555139E9     1.029856353998184E-1  -1.001584026636459  
 1.531132783195799E9     9.457881003618240E-2  -9.987181974536799E-1  
 1.533383345836459E9     9.706981480121613E-2  -1.001724153172399  
 1.535633908477119E9     9.356715530157089E-2  -1.001350278701773  
 1.537884471117779E9     8.812867105007172E-2  -1.000728215820838  
 1.540135033758440E9     8.536401391029358E-2  -1.000613086863733  
 1.542385596399100E9     8.547034114599228E-2  -1.001770402308019  
 1.544636159039760E9     8.407855778932571E-2  -1.001607889568345  
 1.546886721680420E9     8.194620162248612E-2  -1.000835473617885  
 1.549137284321080E9     7.926902920007706E-2  -9.997140543775509E-1  
 1.551387846961741E9     7.854685932397842E-2  -1.002619679223168  
 1.553638409602401E9     7.515106350183487E-2  -1.002707539891898  
 1.555888972243061E9     7.289698719978333E-2  -1.002786742007966  
 1.558139534883721E9     6.800336390733719E-2  -1.002597119265590  
 1.560390097524381E9     6.729502230882645E-2  -1.001847163197273  
 1.562640660165041E9     6.912201642990112E-2  -1.000973821734947  
 1.564891222805701E9     6.569522619247437E-2  -1.003632688373680  
 1.567141785446362E9     6.300584971904755E-2  -1.005155934131655  
 1.569392348087022E9     6.056610494852066E-2  -1.003241840261532  
 1.571642910727682E9     5.917526409029961E-2  -1.003673700367834  
 1.573893473368342E9     5.035159736871719E-2  -1.003697387008707  
 1.576144036009002E9     5.391879007220268E-2  -1.006372998353941  
 1.578394598649663E9     5.043698474764824E-2  -1.006300388480215  
 1.580645161290323E9     4.794018343091011E-2  -1.002565765609232  
 1.582895723930983E9     4.589363187551498E-2  -1.005070674652123  
 1.585146286571643E9     4.245522245764732E-2  -1.003272499914067  
 1.587396849212303E9     4.225075989961624E-2  -1.003977994082184  
 1.589647411852963E9     4.170428216457367E-2  -1.004963520968229  
 1.591897974493623E9     3.317679464817047E-2  -1.003624754183749  
 1.594148537134284E9     3.378603607416153E-2  -1.003876379543812  
 1.596399099774944E9     3.090026229619980E-2  -1.002545293399639  
 1.598649662415604E9     3.182981908321381E-2  -1.004097537867437  
 1.600900225056264E9     2.771408110857010E-2  -1.004003462840345  
 1.603150787696924E9     2.707374282181263E-2  -1.003530583756133  
 1.605401350337585E9     2.478884719312191E-2  -1.004533533477815  
 1.607651912978245E9     2.096517942845821E-2  -1.003010136787033  
 1.609902475618905E9     1.934852451086044E-2  -1.005043295230285  
 1.612153038259565E9     1.770994625985622E-2  -1.004112147069036  
 1.614403600900225E9     1.591112837195396E-2  -1.004444909064642  
 1.616654163540885E9     1.322209276258946E-2  -1.004529466190197  
 1.618904726181545E9     1.192446332424879E-2  -1.005880913584890  
 1.621155288822206E9     8.226009085774422E-3  -1.005401729068184  
 1.623405851462866E9     7.470941171050072E-3  -1.004926029384253  
 1.625656414103526E9     3.574726637452841E-3  -1.005207524586460  
 1.627906976744186E9     2.501022536307573E-3  -1.004119287619077  
