#  HZ   S   RI   R     50.0 
! Rohde & Schwarz ZVL13 2Ports - Version 3.31 - 1303.6509k13 SN: 101088
! Date: 2023-03-02 16:57:39
! Data & Calibration Information:
! Trc2:S21(Trans Norm)
! 
! 
! 
 1.000000000000000E9     5.726175308227539E-1  -8.362183089792160E-1  
 1.002250562640660E9     5.727133750915527E-1  -8.375443061240375E-1  
 1.004501125281320E9     5.700041055679321E-1  -8.392058647755994E-1  
 1.006751687921981E9     5.643574595451355E-1  -8.394810880458913E-1  
 1.009002250562641E9     5.614884495735169E-1  -8.422181819486556E-1  
 1.011252813203301E9     5.597419738769531E-1  -8.429885962454564E-1  
 1.013503375843961E9     5.542773604393005E-1  -8.412413791969080E-1  
 1.015753938484621E9     5.518199205398560E-1  -8.437302160957870E-1  
 1.018004501125281E9     5.502696037292481E-1  -8.433614429915952E-1  
 1.020255063765942E9     5.479200482368469E-1  -8.426410677948357E-1  
 1.022505626406602E9     5.447280406951904E-1  -8.450741606061506E-1  
 1.024756189047262E9     5.433927774429321E-1  -8.447994482790884E-1  
 1.027006751687922E9     5.416393876075745E-1  -8.450274473183720E-1  
 1.029257314328582E9     5.382112264633179E-1  -8.462400670356333E-1  
 1.031507876969242E9     5.378892421722412E-1  -8.464150017108522E-1  
 1.033758439609903E9     5.332700014114380E-1  -8.470899216359780E-1  
 1.036009002250563E9     5.313262343406677E-1  -8.460752218280864E-1  
 1.038259564891223E9     5.325206518173218E-1  -8.478922220176761E-1  
 1.040510127531883E9     5.280343294143677E-1  -8.469847500239927E-1  
 1.042760690172543E9     5.273125767707825E-1  -8.465302500776364E-1  
 1.045011252813203E9     5.258013010025024E-1  -8.472837507745574E-1  
 1.047261815453864E9     5.238856077194214E-1  -8.485519289677237E-1  
 1.049512378094524E9     5.220335721969605E-1  -8.483492306449485E-1  
 1.051762940735184E9     5.226344466209412E-1  -8.488542878976739E-1  
 1.054013503375844E9     5.209361314773560E-1  -8.541087680677875E-1  
 1.056264066016504E9     5.190165042877197E-1  -8.526048546555287E-1  
 1.058514628657164E9     5.172283053398132E-1  -8.535890140752166E-1  
 1.060765191297825E9     5.175445079803467E-1  -8.546727984720745E-1  
 1.063015753938485E9     5.135329365730286E-1  -8.568126322304471E-1  
 1.065266316579145E9     5.129414796829224E-1  -8.574413584207088E-1  
 1.067516879219805E9     5.106061100959778E-1  -8.580055003705420E-1  
 1.069767441860465E9     5.087090134620667E-1  -8.605413942373819E-1  
 1.072018004501125E9     5.057341456413269E-1  -8.597116103809260E-1  
 1.074268567141785E9     5.037674307823181E-1  -8.634129703562025E-1  
 1.076519129782446E9     5.037237405776978E-1  -8.633481201993656E-1  
 1.078769692423106E9     5.012795925140381E-1  -8.654731804349687E-1  
 1.081020255063766E9     4.986189901828766E-1  -8.653104474246045E-1  
 1.083270817704426E9     4.989655911922455E-1  -8.670600640740558E-1  
 1.085521380345086E9     4.988270401954651E-1  -8.672654158539501E-1  
 1.087771942985746E9     4.963030517101288E-1  -8.685870148325559E-1  
 1.090022505626407E9     4.954020380973816E-1  -8.695164192255636E-1  
 1.092273068267067E9     4.931484162807465E-1  -8.709364269392638E-1  
 1.094523630907727E9     4.901166558265686E-1  -8.713792182468835E-1  
 1.096774193548387E9     4.890043139457703E-1  -8.756239673681820E-1  
 1.099024756189047E9     4.867966175079346E-1  -8.746036983103737E-1  
 1.101275318829707E9     4.837954640388489E-1  -8.770830183428664E-1  
 1.103525881470368E9     4.847722053527832E-1  -8.791897108497323E-1  
 1.105776444111028E9     4.819499850273132E-1  -8.801807173586640E-1  
 1.108027006751688E9     4.770692884922028E-1  -8.787634567130116E-1  
 1.110277569392348E9     4.748368859291077E-1  -8.795370118462325E-1  
 1.112528132033008E9     4.733446240425110E-1  -8.826875738292381E-1  
 1.114778694673668E9     4.728322923183441E-1  -8.844111803625465E-1  
 1.117029257314329E9     4.712726771831513E-1  -8.833409631259241E-1  
 1.119279819954989E9     4.711958765983582E-1  -8.847921369062192E-1  
 1.121530382595649E9     4.657626450061798E-1  -8.859174260971484E-1  
 1.123780945236309E9     4.657837152481079E-1  -8.880474595627167E-1  
 1.126031507876969E9     4.615327417850494E-1  -8.887064025798860E-1  
 1.128282070517629E9     4.615088701248169E-1  -8.899422628763165E-1  
 1.130532633158290E9     4.598632454872131E-1  -8.890339941740351E-1  
 1.132783195798950E9     4.570125937461853E-1  -8.918589666945175E-1  
 1.135033758439610E9     4.564818143844605E-1  -8.908099415464880E-1  
 1.137284321080270E9     4.540557563304901E-1  -8.933779353819401E-1  
 1.139534883720930E9     4.542236328125000E-1  -8.936131611855691E-1  
 1.141785446361590E9     4.501812458038330E-1  -8.931496251073338E-1  
 1.144036009002251E9     4.488709270954132E-1  -8.956231873016330E-1  
 1.146286571642911E9     4.459799826145172E-1  -8.972320702538286E-1  
 1.148537134283571E9     4.444695413112640E-1  -8.973916829976804E-1  
 1.150787696924231E9     4.412407577037811E-1  -8.975765090160391E-1  
 1.153038259564891E9     4.400222897529602E-1  -8.998309285952966E-1  
 1.155288822205551E9     4.387235045433044E-1  -9.007081197001271E-1  
 1.157539384846211E9     4.371951520442963E-1  -9.027862765096913E-1  
 1.159789947486872E9     4.366425275802612E-1  -9.030004095704163E-1  
 1.162040510127532E9     4.330630004405975E-1  -9.054533249234100E-1  
 1.164291072768192E9     4.307850301265717E-1  -9.050070513506100E-1  
 1.166541635408852E9     4.311320185661316E-1  -9.071171713774662E-1  
 1.168792198049512E9     4.257991611957550E-1  -9.074925909321937E-1  
 1.171042760690172E9     4.244437217712402E-1  -9.084261326007499E-1  
 1.173293323330833E9     4.232705533504486E-1  -9.105209380246708E-1  
 1.175543885971493E9     4.193718135356903E-1  -9.122951270635259E-1  
 1.177794448612153E9     4.188902974128723E-1  -9.095890320302574E-1  
 1.180045011252813E9     4.162070155143738E-1  -9.117212140292131E-1  
 1.182295573893473E9     4.158862233161926E-1  -9.139951197528149E-1  
 1.184546136534133E9     4.132082164287567E-1  -9.120724821636423E-1  
 1.186796699174794E9     4.122755825519562E-1  -9.130615793361273E-1  
 1.189047261815454E9     4.073235690593720E-1  -9.142420764495591E-1  
 1.191297824456114E9     4.051508605480194E-1  -9.157076565196534E-1  
 1.193548387096774E9     4.047221541404724E-1  -9.156235727888266E-1  
 1.195798949737434E9     4.043437242507935E-1  -9.172604542051425E-1  
 1.198049512378094E9     4.022490382194519E-1  -9.177463069961667E-1  
 1.200300075018755E9     3.989545702934265E-1  -9.178735113359238E-1  
 1.202550637659415E9     3.950216472148895E-1  -9.194901583952946E-1  
 1.204801200300075E9     3.956620991230011E-1  -9.196909809550021E-1  
 1.207051762940735E9     3.943124413490295E-1  -9.215667018435567E-1  
 1.209302325581395E9     3.923812210559845E-1  -9.228612673135395E-1  
 1.211552888222055E9     3.918969929218292E-1  -9.210499691844390E-1  
 1.213803450862716E9     3.863237202167511E-1  -9.232970271263831E-1  
 1.216054013503376E9     3.847992420196533E-1  -9.244106275683693E-1  
 1.218304576144036E9     3.855476081371307E-1  -9.250800116798169E-1  
 1.220555138784696E9     3.816792666912079E-1  -9.265639143062667E-1  
 1.222805701425356E9     3.795284926891327E-1  -9.274077739699076E-1  
 1.225056264066016E9     3.785418272018433E-1  -9.281547729078320E-1  
 1.227306826706677E9     3.764512240886688E-1  -9.290359073861303E-1  
 1.229557389347337E9     3.745005428791046E-1  -9.298908587777124E-1  
 1.231807951987997E9     3.723299205303192E-1  -9.311667219749301E-1  
 1.234058514628657E9     3.696853518486023E-1  -9.324394732632305E-1  
 1.236309077269317E9     3.670656383037567E-1  -9.330803963799408E-1  
 1.238559639909977E9     3.652752935886383E-1  -9.349024320465651E-1  
 1.240810202550638E9     3.623716235160828E-1  -9.342213312539907E-1  
 1.243060765191298E9     3.611710369586945E-1  -9.351452068634010E-1  
 1.245311327831958E9     3.584689497947693E-1  -9.360611502144103E-1  
 1.247561890472618E9     3.585280776023865E-1  -9.382692791164514E-1  
 1.249812453113278E9     3.554471135139465E-1  -9.381193942210508E-1  
 1.252063015753938E9     3.518949151039124E-1  -9.374328799142443E-1  
 1.254313578394599E9     3.515117466449738E-1  -9.391074382268329E-1  
 1.256564141035259E9     3.489898443222046E-1  -9.406695691328295E-1  
 1.258814703675919E9     3.469425439834595E-1  -9.408318180641461E-1  
 1.261065266316579E9     3.447010517120361E-1  -9.413240321844756E-1  
 1.263315828957239E9     3.426404595375061E-1  -9.428526732382678E-1  
 1.265566391597899E9     3.399642705917358E-1  -9.427902963327152E-1  
 1.267816954238560E9     3.376290500164032E-1  -9.415247127122245E-1  
 1.270067516879220E9     3.363678753376007E-1  -9.444756470204082E-1  
 1.272318079519880E9     3.351474106311798E-1  -9.462710653238541E-1  
 1.274568642160540E9     3.337198793888092E-1  -9.455700829493614E-1  
 1.276819204801200E9     3.308792710304260E-1  -9.463583583809928E-1  
 1.279069767441860E9     3.279305696487427E-1  -9.472999308121318E-1  
 1.281320330082521E9     3.273235559463501E-1  -9.476795362820246E-1  
 1.283570892723181E9     3.240518271923065E-1  -9.478459562026500E-1  
 1.285821455363841E9     3.214032649993897E-1  -9.501490461583839E-1  
 1.288072018004501E9     3.197288811206818E-1  -9.524266781188262E-1  
 1.290322580645161E9     3.173304200172424E-1  -9.509112156044135E-1  
 1.292573143285821E9     3.157869577407837E-1  -9.513609086126604E-1  
 1.294823705926482E9     3.136211335659027E-1  -9.538056264542031E-1  
 1.297074268567142E9     3.101362586021423E-1  -9.514322879765739E-1  
 1.299324831207802E9     3.076499104499817E-1  -9.540213477132142E-1  
 1.301575393848462E9     3.081776499748230E-1  -9.544839329256618E-1  
 1.303825956489122E9     3.048450350761414E-1  -9.562714317713587E-1  
 1.306076519129782E9     3.058914542198181E-1  -9.556047610036518E-1  
 1.308327081770443E9     3.008134067058563E-1  -9.574674648054286E-1  
 1.310577644411103E9     2.984639406204224E-1  -9.588548498149943E-1  
 1.312828207051763E9     2.971301078796387E-1  -9.587584556393964E-1  
 1.315078769692423E9     2.926897108554840E-1  -9.579980258943557E-1  
 1.317329332333083E9     2.932259440422058E-1  -9.592143207473277E-1  
 1.319579894973743E9     2.897149622440338E-1  -9.601681906387491E-1  
 1.321830457614404E9     2.900826632976532E-1  -9.597178408783113E-1  
 1.324081020255064E9     2.867452800273895E-1  -9.602941135680663E-1  
 1.326331582895724E9     2.846148014068604E-1  -9.607215921619841E-1  
 1.328582145536384E9     2.831191420555115E-1  -9.611033510347605E-1  
 1.330832708177044E9     2.818607389926910E-1  -9.622945263164138E-1  
 1.333083270817704E9     2.797787189483643E-1  -9.637714938406580E-1  
 1.335333833458365E9     2.756932079792023E-1  -9.630527805540203E-1  
 1.337584396099025E9     2.774260342121124E-1  -9.628468432440449E-1  
 1.339834958739685E9     2.722761332988739E-1  -9.657535419104110E-1  
 1.342085521380345E9     2.722238898277283E-1  -9.646276887050842E-1  
 1.344336084021005E9     2.675263285636902E-1  -9.675240844775197E-1  
 1.346586646661665E9     2.648132145404816E-1  -9.679652398920089E-1  
 1.348837209302326E9     2.621604502201080E-1  -9.672000185693450E-1  
 1.351087771942986E9     2.625380456447601E-1  -9.689440134124624E-1  
 1.353338334583646E9     2.580702900886536E-1  -9.699673536618331E-1  
 1.355588897224306E9     2.564573585987091E-1  -9.687088730911397E-1  
 1.357839459864966E9     2.544987797737122E-1  -9.707697058769647E-1  
 1.360090022505626E9     2.552303671836853E-1  -9.693283767051114E-1  
 1.362340585146287E9     2.499746233224869E-1  -9.726450542575452E-1  
 1.364591147786947E9     2.512265741825104E-1  -9.727418284042136E-1  
 1.366841710427607E9     2.472998797893524E-1  -9.713320017028186E-1  
 1.369092273068267E9     2.457240819931030E-1  -9.738641484002356E-1  
 1.371342835708927E9     2.430037409067154E-1  -9.725778255134756E-1  
 1.373593398349587E9     2.404152005910873E-1  -9.734957247425042E-1  
 1.375843960990248E9     2.389374524354935E-1  -9.745011142031974E-1  
 1.378094523630908E9     2.383415400981903E-1  -9.739884935300243E-1  
 1.380345086271568E9     2.348995655775070E-1  -9.748606508182676E-1  
 1.382595648912228E9     2.347357124090195E-1  -9.747835455335924E-1  
 1.384846211552888E9     2.306028902530670E-1  -9.766925650917181E-1  
 1.387096774193548E9     2.279881685972214E-1  -9.768333057892313E-1  
 1.389347336834209E9     2.258576005697250E-1  -9.772267058022197E-1  
 1.391597899474869E9     2.230076342821121E-1  -9.778906341744064E-1  
 1.393848462115529E9     2.200218588113785E-1  -9.779652520883633E-1  
 1.396099024756189E9     2.189667373895645E-1  -9.788222794942696E-1  
 1.398349587396849E9     2.176512181758881E-1  -9.788458131369123E-1  
 1.400600150037509E9     2.160751521587372E-1  -9.812052397540301E-1  
 1.402850712678170E9     2.131412178277969E-1  -9.797090964870774E-1  
 1.405101275318830E9     2.117168158292770E-1  -9.808008733297147E-1  
 1.407351837959490E9     2.088196575641632E-1  -9.804636535895548E-1  
 1.409602400600150E9     2.053259462118149E-1  -9.810836131286108E-1  
 1.411852963240810E9     2.048036754131317E-1  -9.817155313580993E-1  
 1.414103525881470E9     2.006348222494125E-1  -9.845134958814911E-1  
 1.416354088522131E9     1.990200728178024E-1  -9.836249696324870E-1  
 1.418604651162791E9     1.995371431112289E-1  -9.842324084822547E-1  
 1.420855213803451E9     1.955187320709229E-1  -9.846864171665835E-1  
 1.423105776444111E9     1.921630054712296E-1  -9.834999043008609E-1  
 1.425356339084771E9     1.897054165601730E-1  -9.856582533995335E-1  
 1.427606901725431E9     1.899778693914414E-1  -9.870212604268415E-1  
 1.429857464366092E9     1.871228069067001E-1  -9.867876198511822E-1  
 1.432108027006752E9     1.845120638608933E-1  -9.855817264029191E-1  
 1.434358589647412E9     1.842314600944519E-1  -9.869034447403120E-1  
 1.436609152288072E9     1.795665472745895E-1  -9.873906869514821E-1  
 1.438859714928732E9     1.797689944505692E-1  -9.861657280381739E-1  
 1.441110277569392E9     1.759368479251862E-1  -9.874257190879822E-1  
 1.443360840210053E9     1.717907935380936E-1  -9.887117214090161E-1  
 1.445611402850713E9     1.727824509143829E-1  -9.884961738062802E-1  
 1.447861965491373E9     1.691530644893646E-1  -9.901149613735142E-1  
 1.450112528132033E9     1.675467789173126E-1  -9.894948608941445E-1  
 1.452363090772693E9     1.640242487192154E-1  -9.868579059900700E-1  
 1.454613653413353E9     1.629125624895096E-1  -9.891748580843506E-1  
 1.456864216054014E9     1.607666015625000E-1  -9.906080023565912E-1  
 1.459114778694674E9     1.598431766033173E-1  -9.895435969311748E-1  
 1.461365341335334E9     1.572837382555008E-1  -9.896928516274576E-1  
 1.463615903975994E9     1.537318080663681E-1  -9.900429943177026E-1  
 1.465866466616654E9     1.511069387197495E-1  -9.899054863885834E-1  
 1.468117029257314E9     1.496998816728592E-1  -9.905358764961002E-1  
 1.470367591897975E9     1.482313871383667E-1  -9.914185160974436E-1  
 1.472618154538635E9     1.481488943099976E-1  -9.917339691855245E-1  
 1.474868717179295E9     1.444241851568222E-1  -9.935358769202207E-1  
 1.477119279819955E9     1.417767107486725E-1  -9.933869579228873E-1  
 1.479369842460615E9     1.408188790082932E-1  -9.936830024070744E-1  
 1.481620405101275E9     1.361031979322434E-1  -9.935254061306800E-1  
 1.483870967741936E9     1.347582638263702E-1  -9.932384357094924E-1  
 1.486121530382596E9     1.364648640155792E-1  -9.937139223478706E-1  
 1.488372093023256E9     1.315355449914932E-1  -9.947992684254584E-1  
 1.490622655663916E9     1.276271343231201E-1  -9.950513539336954E-1  
 1.492873218304576E9     1.283342391252518E-1  -9.943258761435770E-1  
 1.495123780945236E9     1.236548647284508E-1  -9.945606681793611E-1  
 1.497374343585897E9     1.214764490723610E-1  -9.948179870579782E-1  
 1.499624906226557E9     1.206673607230187E-1  -9.964975132601192E-1  
 1.501875468867217E9     1.177428066730499E-1  -9.971649608723937E-1  
 1.504126031507877E9     1.163980662822723E-1  -9.969650484208135E-1  
 1.506376594148537E9     1.130513250827789E-1  -9.965220591974152E-1  
 1.508627156789197E9     1.116061881184578E-1  -9.983927061199087E-1  
 1.510877719429858E9     1.101952642202377E-1  -9.980479168608100E-1  
 1.513128282070518E9     1.063808500766754E-1  -9.989629939356534E-1  
 1.515378844711178E9     1.074617356061935E-1  -9.964223201534493E-1  
 1.517629407351838E9     1.034174114465714E-1  -9.993485634389582E-1  
 1.519879969992498E9     9.896018356084824E-2  -9.962441231884280E-1  
 1.522130532633158E9     9.883558005094528E-2  -9.980075337063038E-1  
 1.524381095273819E9     9.571027010679245E-2  -9.954523579305257E-1  
 1.526631657914479E9     9.387798607349396E-2  -9.983118101603513E-1  
 1.528882220555139E9     9.400679916143417E-2  -9.993388977190963E-1  
 1.531132783195799E9     8.785180002450943E-2  -9.983107802962649E-1  
 1.533383345836459E9     9.023806452751160E-2  -9.989971509531116E-1  
 1.535633908477119E9     8.657690882682800E-2  -9.978296071559888E-1  
 1.537884471117779E9     8.024475723505020E-2  -9.990571165330353E-1  
 1.540135033758440E9     7.822511345148087E-2  -9.989151196900102E-1  
 1.542385596399100E9     7.758287340402603E-2  -9.979978735185784E-1  
 1.544636159039760E9     7.486571371555328E-2  -1.000551317845682  
 1.546886721680420E9     7.337247580289841E-2  -9.994722320916852E-1  
 1.549137284321080E9     7.198797166347504E-2  -9.998985977317144E-1  
 1.551387846961741E9     7.069997489452362E-2  -1.000393085208984  
 1.553638409602401E9     6.748946756124497E-2  -1.001563057244535  
 1.555888972243061E9     6.486465036869049E-2  -1.000485120306768  
 1.558139534883721E9     6.199164316058159E-2  -9.997662007075090E-1  
 1.560390097524381E9     5.988911539316177E-2  -1.000809138606992  
 1.562640660165041E9     5.966523289680481E-2  -1.001361232981232  
 1.564891222805701E9     5.811454728245735E-2  -1.001088739324984  
 1.567141785446362E9     5.569540336728096E-2  -1.001178579039291  
 1.569392348087022E9     5.139648914337158E-2  -1.001005506054049  
 1.571642910727682E9     5.148461461067200E-2  -1.000193302609021  
 1.573893473368342E9     4.422291740775108E-2  -1.001093798747138  
 1.576144036009002E9     4.499537125229836E-2  -1.004098847986494  
 1.578394598649663E9     4.324452951550484E-2  -1.003821984152657  
 1.580645161290323E9     4.002835974097252E-2  -1.000914285021618  
 1.582895723930983E9     3.796085715293884E-2  -1.003455798177537  
 1.585146286571643E9     3.403792530298233E-2  -1.000603752972899  
 1.587396849212303E9     3.466757759451866E-2  -1.001855722152944  
 1.589647411852963E9     3.223641961812973E-2  -1.003578799955859  
 1.591897974493623E9     2.731112577021122E-2  -1.000543533013900  
 1.594148537134284E9     2.884955331683159E-2  -1.002608117117624  
 1.596399099774944E9     2.431130968034267E-2  -1.001124119814038  
 1.598649662415604E9     2.397849410772324E-2  -1.002472498592526  
 1.600900225056264E9     2.168136648833752E-2  -1.001395318592215  
 1.603150787696924E9     1.958566345274448E-2  -1.001676009843756  
 1.605401350337585E9     1.684560999274254E-2  -1.000909705614081  
 1.607651912978245E9     1.405681669712067E-2  -1.001946751553434  
 1.609902475618905E9     1.451192423701286E-2  -1.002744234704407  
 1.612153038259565E9     1.147117558866739E-2  -1.002739376534539  
 1.614403600900225E9     7.993818260729313E-3  -1.001462220321269  
 1.616654163540885E9     6.312127225100994E-3  -1.001668940252433  
 1.618904726181545E9     4.031050018966198E-3  -1.002464464714591  
 1.621155288822206E9     2.224251162260771E-3  -1.003182912010321  
 1.623405851462866E9    -1.052520936354995E-3  -1.002940343198296  
 1.625656414103526E9    -3.343016374856234E-3  -1.000987276376115  
 1.627906976744186E9    -5.600370466709137E-3  -1.002496436055617  
