#  HZ   S   RI   R     50.0 
! Rohde & Schwarz ZVL13 2Ports - Version 3.31 - 1303.6509k13 SN: 101088
! Date: 2023-03-02 16:55:36
! Data & Calibration Information:
! Trc2:S21(Trans Norm)
! 
! 
! 
 1.000000000000000E9     5.716376304626465E-1  -8.348539624254766E-1  
 1.002250562640660E9     5.689153671264648E-1  -8.341467647736712E-1  
 1.004501125281320E9     5.655401945114136E-1  -8.389504713472364E-1  
 1.006751687921981E9     5.622114539146423E-1  -8.387518840422270E-1  
 1.009002250562641E9     5.580461025238037E-1  -8.423996787573508E-1  
 1.011252813203301E9     5.569596886634827E-1  -8.414405476042897E-1  
 1.013503375843961E9     5.527856945991516E-1  -8.424808868063756E-1  
 1.015753938484621E9     5.512222051620483E-1  -8.430351612490937E-1  
 1.018004501125281E9     5.475975871086121E-1  -8.426053467541389E-1  
 1.020255063765942E9     5.453703403472900E-1  -8.428837009702626E-1  
 1.022505626406602E9     5.430412888526917E-1  -8.430535819774323E-1  
 1.024756189047262E9     5.406194925308228E-1  -8.448355984247449E-1  
 1.027006751687922E9     5.389326214790344E-1  -8.455930458889895E-1  
 1.029257314328582E9     5.344798564910889E-1  -8.459827872654450E-1  
 1.031507876969242E9     5.359972119331360E-1  -8.444983856595664E-1  
 1.033758439609903E9     5.321568846702576E-1  -8.467455601555820E-1  
 1.036009002250563E9     5.298588871955872E-1  -8.450625162443664E-1  
 1.038259564891223E9     5.273413658142090E-1  -8.458527633056026E-1  
 1.040510127531883E9     5.249713659286499E-1  -8.453352977589335E-1  
 1.042760690172543E9     5.247754454612732E-1  -8.460256262377701E-1  
 1.045011252813203E9     5.236520767211914E-1  -8.466571440406610E-1  
 1.047261815453864E9     5.213878154754639E-1  -8.485898443217174E-1  
 1.049512378094524E9     5.196364521980286E-1  -8.489575160581679E-1  
 1.051762940735184E9     5.202633142471314E-1  -8.484112466831687E-1  
 1.054013503375844E9     5.175937414169312E-1  -8.518739960878417E-1  
 1.056264066016504E9     5.178530812263489E-1  -8.522730492945496E-1  
 1.058514628657164E9     5.142490863800049E-1  -8.532177201109874E-1  
 1.060765191297825E9     5.157604813575745E-1  -8.527016067800379E-1  
 1.063015753938485E9     5.107358694076538E-1  -8.555446666692727E-1  
 1.065266316579145E9     5.109690427780151E-1  -8.571185266821614E-1  
 1.067516879219805E9     5.079594254493713E-1  -8.578147690324592E-1  
 1.069767441860465E9     5.066439509391785E-1  -8.590636897911830E-1  
 1.072018004501125E9     5.035251975059509E-1  -8.598799839003316E-1  
 1.074268567141785E9     5.018102526664734E-1  -8.614620537145326E-1  
 1.076519129782446E9     5.026191473007202E-1  -8.625963391596176E-1  
 1.078769692423106E9     4.990970194339752E-1  -8.626157490657809E-1  
 1.081020255063766E9     4.989443123340607E-1  -8.639727852408491E-1  
 1.083270817704426E9     4.965711832046509E-1  -8.664449362199839E-1  
 1.085521380345086E9     4.945770800113678E-1  -8.663771705678569E-1  
 1.087771942985746E9     4.937060177326202E-1  -8.681226090588154E-1  
 1.090022505626407E9     4.939163923263550E-1  -8.673404256473513E-1  
 1.092273068267067E9     4.885824322700501E-1  -8.703057933480859E-1  
 1.094523630907727E9     4.882210493087769E-1  -8.695748349254395E-1  
 1.096774193548387E9     4.880747199058533E-1  -8.734294567414168E-1  
 1.099024756189047E9     4.853551387786865E-1  -8.739005382732284E-1  
 1.101275318829707E9     4.809137284755707E-1  -8.757922640823237E-1  
 1.103525881470368E9     4.821470379829407E-1  -8.761661829824683E-1  
 1.105776444111028E9     4.785880744457245E-1  -8.790853396673025E-1  
 1.108027006751688E9     4.769411683082581E-1  -8.793706274552022E-1  
 1.110277569392348E9     4.738070368766785E-1  -8.779511963594221E-1  
 1.112528132033008E9     4.716892242431641E-1  -8.802642522001385E-1  
 1.114778694673668E9     4.710059463977814E-1  -8.834348834240370E-1  
 1.117029257314329E9     4.688749313354492E-1  -8.836759529304646E-1  
 1.119279819954989E9     4.679449796676636E-1  -8.822009872791584E-1  
 1.121530382595649E9     4.644141495227814E-1  -8.842384501741222E-1  
 1.123780945236309E9     4.639347195625305E-1  -8.862971664232174E-1  
 1.126031507876969E9     4.607976675033569E-1  -8.872288867805533E-1  
 1.128282070517629E9     4.596050977706909E-1  -8.875746190053573E-1  
 1.130532633158290E9     4.598748087882996E-1  -8.878555628152304E-1  
 1.132783195798950E9     4.554370939731598E-1  -8.902505756955835E-1  
 1.135033758439610E9     4.539614617824554E-1  -8.897792492755916E-1  
 1.137284321080270E9     4.516601562500000E-1  -8.912868211592185E-1  
 1.139534883720930E9     4.511500895023346E-1  -8.923061257572894E-1  
 1.141785446361590E9     4.479137063026428E-1  -8.913831782894678E-1  
 1.144036009002251E9     4.469839334487915E-1  -8.929732027702824E-1  
 1.146286571642911E9     4.419438242912293E-1  -8.959340702190114E-1  
 1.148537134283571E9     4.437650144100189E-1  -8.944160327773473E-1  
 1.150787696924231E9     4.414598345756531E-1  -8.970888926877182E-1  
 1.153038259564891E9     4.413958489894867E-1  -8.948261393977861E-1  
 1.155288822205551E9     4.367483556270599E-1  -8.976509234841655E-1  
 1.157539384846211E9     4.351786077022553E-1  -9.003853925624155E-1  
 1.159789947486872E9     4.335650503635407E-1  -9.019719679032148E-1  
 1.162040510127532E9     4.320820271968842E-1  -9.040663230865452E-1  
 1.164291072768192E9     4.289484918117523E-1  -9.037496615469468E-1  
 1.166541635408852E9     4.279892742633820E-1  -9.063674015319134E-1  
 1.168792198049512E9     4.241087436676025E-1  -9.056681426880696E-1  
 1.171042760690172E9     4.223706126213074E-1  -9.070617708623250E-1  
 1.173293323330833E9     4.231381416320801E-1  -9.070971509806147E-1  
 1.175543885971493E9     4.203762710094452E-1  -9.081166493344864E-1  
 1.177794448612153E9     4.164875447750092E-1  -9.078483890498067E-1  
 1.180045011252813E9     4.148168563842773E-1  -9.093846600983008E-1  
 1.182295573893473E9     4.142513275146484E-1  -9.110252109305501E-1  
 1.184546136534133E9     4.121265709400177E-1  -9.130974001102673E-1  
 1.186796699174794E9     4.097096323966980E-1  -9.124795064262986E-1  
 1.189047261815454E9     4.068869650363922E-1  -9.122322710350160E-1  
 1.191297824456114E9     4.049039781093597E-1  -9.133412140172565E-1  
 1.193548387096774E9     4.038221240043640E-1  -9.143417308389887E-1  
 1.195798949737434E9     4.002732932567596E-1  -9.175463100890200E-1  
 1.198049512378094E9     3.986597359180450E-1  -9.155932667874135E-1  
 1.200300075018755E9     3.991217613220215E-1  -9.170784009680771E-1  
 1.202550637659415E9     3.952710330486298E-1  -9.186197172690718E-1  
 1.204801200300075E9     3.940710425376892E-1  -9.167087890680374E-1  
 1.207051762940735E9     3.915509581565857E-1  -9.196576132810284E-1  
 1.209302325581395E9     3.905813395977020E-1  -9.210452370752962E-1  
 1.211552888222055E9     3.865072727203369E-1  -9.204792605403795E-1  
 1.213803450862716E9     3.860053718090057E-1  -9.231916617132229E-1  
 1.216054013503376E9     3.824465274810791E-1  -9.232418176174363E-1  
 1.218304576144036E9     3.829182684421539E-1  -9.240446567849495E-1  
 1.220555138784696E9     3.801176548004150E-1  -9.246783785291259E-1  
 1.222805701425356E9     3.782995343208313E-1  -9.254625034300608E-1  
 1.225056264066016E9     3.761281073093414E-1  -9.265981018772027E-1  
 1.227306826706677E9     3.753376305103302E-1  -9.271739772844312E-1  
 1.229557389347337E9     3.722985386848450E-1  -9.286599949258854E-1  
 1.231807951987997E9     3.702048063278198E-1  -9.293534501154973E-1  
 1.234058514628657E9     3.658278882503510E-1  -9.313391739745438E-1  
 1.236309077269317E9     3.657692372798920E-1  -9.298750574882821E-1  
 1.238559639909977E9     3.646798431873322E-1  -9.323833796901353E-1  
 1.240810202550638E9     3.609450161457062E-1  -9.316897267507602E-1  
 1.243060765191298E9     3.593720495700836E-1  -9.334581282735532E-1  
 1.245311327831958E9     3.568010926246643E-1  -9.345240819117416E-1  
 1.247561890472618E9     3.545083403587341E-1  -9.368834601177468E-1  
 1.249812453113278E9     3.547140955924988E-1  -9.348153239341315E-1  
 1.252063015753938E9     3.512146174907684E-1  -9.353658035436816E-1  
 1.254313578394599E9     3.501387834548950E-1  -9.378390461417724E-1  
 1.256564141035259E9     3.478294909000397E-1  -9.376929489337642E-1  
 1.258814703675919E9     3.446229100227356E-1  -9.390771995725425E-1  
 1.261065266316579E9     3.424278497695923E-1  -9.391290974232418E-1  
 1.263315828957239E9     3.403241038322449E-1  -9.404961096064637E-1  
 1.265566391597899E9     3.405206799507141E-1  -9.422205233022916E-1  
 1.267816954238560E9     3.370049595832825E-1  -9.395893020316422E-1  
 1.270067516879220E9     3.375159204006195E-1  -9.419584399524730E-1  
 1.272318079519880E9     3.344884812831879E-1  -9.447971077268357E-1  
 1.274568642160540E9     3.330403268337250E-1  -9.437573886270781E-1  
 1.276819204801200E9     3.295038342475891E-1  -9.442070624979999E-1  
 1.279069767441860E9     3.276479840278626E-1  -9.462319028852710E-1  
 1.281320330082521E9     3.264965116977692E-1  -9.451093284398904E-1  
 1.283570892723181E9     3.223484456539154E-1  -9.467553396314177E-1  
 1.285821455363841E9     3.210695385932922E-1  -9.468925949997205E-1  
 1.288072018004501E9     3.198208212852478E-1  -9.480351304289491E-1  
 1.290322580645161E9     3.162331879138947E-1  -9.498578583239602E-1  
 1.292573143285821E9     3.144826889038086E-1  -9.503053882470460E-1  
 1.294823705926482E9     3.129041790962219E-1  -9.512233619572290E-1  
 1.297074268567142E9     3.106191754341126E-1  -9.498210972585122E-1  
 1.299324831207802E9     3.112134933471680E-1  -9.505973180290115E-1  
 1.301575393848462E9     3.079220354557037E-1  -9.546478955544953E-1  
 1.303825956489122E9     3.041526079177856E-1  -9.536968298911335E-1  
 1.306076519129782E9     3.029078841209412E-1  -9.535425640006101E-1  
 1.308327081770443E9     3.001829981803894E-1  -9.553205902601080E-1  
 1.310577644411103E9     2.985351085662842E-1  -9.564444462006593E-1  
 1.312828207051763E9     2.950344383716583E-1  -9.572567115495836E-1  
 1.315078769692423E9     2.942598760128021E-1  -9.563680576866942E-1  
 1.317329332333083E9     2.921959161758423E-1  -9.557691373474463E-1  
 1.319579894973743E9     2.884902954101563E-1  -9.566056597530692E-1  
 1.321830457614404E9     2.875959873199463E-1  -9.583933550673215E-1  
 1.324081020255064E9     2.844319045543671E-1  -9.590976457639060E-1  
 1.326331582895724E9     2.842450737953186E-1  -9.570629608659793E-1  
 1.328582145536384E9     2.815262079238892E-1  -9.594253518462856E-1  
 1.330832708177044E9     2.787010669708252E-1  -9.604347137215953E-1  
 1.333083270817704E9     2.776797711849213E-1  -9.612763161407588E-1  
 1.335333833458365E9     2.745331227779388E-1  -9.615561512372949E-1  
 1.337584396099025E9     2.742653489112854E-1  -9.611996091960309E-1  
 1.339834958739685E9     2.718378007411957E-1  -9.622991287595490E-1  
 1.342085521380345E9     2.700836062431335E-1  -9.630028720870999E-1  
 1.344336084021005E9     2.665632069110870E-1  -9.656218737584837E-1  
 1.346586646661665E9     2.628395855426788E-1  -9.655138047525040E-1  
 1.348837209302326E9     2.607981860637665E-1  -9.660561314819957E-1  
 1.351087771942986E9     2.615492343902588E-1  -9.672296702267009E-1  
 1.353338334583646E9     2.586288750171661E-1  -9.673858222225523E-1  
 1.355588897224306E9     2.545252740383148E-1  -9.675713901225340E-1  
 1.357839459864966E9     2.529477477073669E-1  -9.678452792358475E-1  
 1.360090022505626E9     2.533908188343048E-1  -9.670583283266746E-1  
 1.362340585146287E9     2.503958940505981E-1  -9.701228919893662E-1  
 1.364591147786947E9     2.485440671443939E-1  -9.698360321069725E-1  
 1.366841710427607E9     2.466343641281128E-1  -9.674947284504043E-1  
 1.369092273068267E9     2.450222671031952E-1  -9.704668939532681E-1  
 1.371342835708927E9     2.418979853391647E-1  -9.701317899093206E-1  
 1.373593398349587E9     2.398494482040405E-1  -9.722764889091058E-1  
 1.375843960990248E9     2.387464195489883E-1  -9.703872524315351E-1  
 1.378094523630908E9     2.367329746484757E-1  -9.730820086051810E-1  
 1.380345086271568E9     2.336683422327042E-1  -9.736021352698659E-1  
 1.382595648912228E9     2.319110184907913E-1  -9.725972552773298E-1  
 1.384846211552888E9     2.295758724212647E-1  -9.740359164079985E-1  
 1.387096774193548E9     2.278163135051727E-1  -9.751897946484048E-1  
 1.389347336834209E9     2.231380194425583E-1  -9.749428853014468E-1  
 1.391597899474869E9     2.230046838521957E-1  -9.749819608552697E-1  
 1.393848462115529E9     2.193884104490280E-1  -9.755994353879426E-1  
 1.396099024756189E9     2.193763852119446E-1  -9.764829383895047E-1  
 1.398349587396849E9     2.176423072814941E-1  -9.775631759606926E-1  
 1.400600150037509E9     2.150284796953201E-1  -9.776708497519862E-1  
 1.402850712678170E9     2.126337885856628E-1  -9.785715055322491E-1  
 1.405101275318830E9     2.111233919858933E-1  -9.783818810355945E-1  
 1.407351837959490E9     2.073369026184082E-1  -9.784546024806762E-1  
 1.409602400600150E9     2.053499817848206E-1  -9.799328265712981E-1  
 1.411852963240810E9     2.030906826257706E-1  -9.800183065432988E-1  
 1.414103525881470E9     2.003394514322281E-1  -9.813999161958268E-1  
 1.416354088522131E9     1.994455903768539E-1  -9.809266145894834E-1  
 1.418604651162791E9     1.996287554502487E-1  -9.813908123355000E-1  
 1.420855213803451E9     1.937262117862701E-1  -9.825773912750897E-1  
 1.423105776444111E9     1.920121610164642E-1  -9.819854143360218E-1  
 1.425356339084771E9     1.904142051935196E-1  -9.827998830381984E-1  
 1.427606901725431E9     1.868018060922623E-1  -9.845971062591246E-1  
 1.429857464366092E9     1.848449409008026E-1  -9.844393874956154E-1  
 1.432108027006752E9     1.835063397884369E-1  -9.835077677989758E-1  
 1.434358589647412E9     1.818317323923111E-1  -9.841492681346779E-1  
 1.436609152288072E9     1.800667941570282E-1  -9.857133200595181E-1  
 1.438859714928732E9     1.792272627353668E-1  -9.833043653003821E-1  
 1.441110277569392E9     1.758436411619186E-1  -9.848513276363481E-1  
 1.443360840210053E9     1.741870939731598E-1  -9.858745482863118E-1  
 1.445611402850713E9     1.720296889543533E-1  -9.855088572986350E-1  
 1.447861965491373E9     1.694227904081345E-1  -9.872263011157136E-1  
 1.450112528132033E9     1.669317036867142E-1  -9.858262665541276E-1  
 1.452363090772693E9     1.657791435718536E-1  -9.857195243757808E-1  
 1.454613653413353E9     1.630963981151581E-1  -9.871606892692018E-1  
 1.456864216054014E9     1.607455015182495E-1  -9.887647247705974E-1  
 1.459114778694674E9     1.578965783119202E-1  -9.881989861299866E-1  
 1.461365341335334E9     1.560851335525513E-1  -9.868866097717023E-1  
 1.463615903975994E9     1.544473320245743E-1  -9.885580796331870E-1  
 1.465866466616654E9     1.509647816419601E-1  -9.877942981205539E-1  
 1.468117029257314E9     1.497015655040741E-1  -9.899030417301611E-1  
 1.470367591897975E9     1.484017670154572E-1  -9.900248333330231E-1  
 1.472618154538635E9     1.475135385990143E-1  -9.883630501102170E-1  
 1.474868717179295E9     1.469419002532959E-1  -9.912661728173604E-1  
 1.477119279819955E9     1.405114978551865E-1  -9.916953158313506E-1  
 1.479369842460615E9     1.407172977924347E-1  -9.917826920613018E-1  
 1.481620405101275E9     1.372806578874588E-1  -9.918248212154448E-1  
 1.483870967741936E9     1.346783787012100E-1  -9.907452573398499E-1  
 1.486121530382596E9     1.344198733568192E-1  -9.926747973228836E-1  
 1.488372093023256E9     1.304729729890823E-1  -9.935873230038562E-1  
 1.490622655663916E9     1.276897788047791E-1  -9.916252829524442E-1  
 1.492873218304576E9     1.278774142265320E-1  -9.926834459675259E-1  
 1.495123780945236E9     1.249488219618797E-1  -9.918114155455700E-1  
 1.497374343585897E9     1.215593069791794E-1  -9.919181718137785E-1  
 1.499624906226557E9     1.213475167751312E-1  -9.940495398806544E-1  
 1.501875468867217E9     1.164225563406944E-1  -9.931667729628941E-1  
 1.504126031507877E9     1.157713085412979E-1  -9.949024394993216E-1  
 1.506376594148537E9     1.128126233816147E-1  -9.944180891733113E-1  
 1.508627156789197E9     1.103336811065674E-1  -9.949822844785555E-1  
 1.510877719429858E9     1.087505742907524E-1  -9.960195532166467E-1  
 1.513128282070518E9     1.054411008954048E-1  -9.956861420014699E-1  
 1.515378844711178E9     1.055546849966049E-1  -9.950099326190935E-1  
 1.517629407351838E9     1.021146029233933E-1  -9.959611439870647E-1  
 1.519879969992498E9     9.840820729732513E-2  -9.936199051589676E-1  
 1.522130532633158E9     9.778691083192825E-2  -9.963459347578995E-1  
 1.524381095273819E9     9.436357021331787E-2  -9.941898489606447E-1  
 1.526631657914479E9     9.466525167226791E-2  -9.962320095432818E-1  
 1.528882220555139E9     9.372021257877350E-2  -9.975206477313766E-1  
 1.531132783195799E9     8.755953609943390E-2  -9.945388745908368E-1  
 1.533383345836459E9     9.002300351858139E-2  -9.984763442703368E-1  
 1.535633908477119E9     8.667045831680298E-2  -9.963594140741579E-1  
 1.537884471117779E9     7.975456863641739E-2  -9.972443114872884E-1  
 1.540135033758440E9     7.875657826662064E-2  -9.957971905742602E-1  
 1.542385596399100E9     7.682526111602783E-2  -9.971998089239270E-1  
 1.544636159039760E9     7.641807943582535E-2  -9.994942189203977E-1  
 1.546886721680420E9     7.361754029989243E-2  -9.973397349463817E-1  
 1.549137284321080E9     7.277260720729828E-2  -9.979926865821027E-1  
 1.551387846961741E9     7.159578800201416E-2  -9.984558733614461E-1  
 1.553638409602401E9     6.632629036903381E-2  -9.983544815696241E-1  
 1.555888972243061E9     6.448107957839966E-2  -9.983797128082427E-1  
 1.558139534883721E9     6.219855323433876E-2  -9.993957401467035E-1  
 1.560390097524381E9     6.050361320376396E-2  -9.996446170841870E-1  
 1.562640660165041E9     6.082439050078392E-2  -9.997552873981350E-1  
 1.564891222805701E9     5.778086185455322E-2  -1.000644052712885  
 1.567141785446362E9     5.377263203263283E-2  -1.000247552571616  
 1.569392348087022E9     5.150561779737473E-2  -9.994183121318631E-1  
 1.571642910727682E9     5.198457837104797E-2  -9.986075349850569E-1  
 1.573893473368342E9     4.535043239593506E-2  -9.997753158941349E-1  
 1.576144036009002E9     4.474741593003273E-2  -1.000326535268760  
 1.578394598649663E9     4.400545358657837E-2  -1.000847237177495  
 1.580645161290323E9     4.083272814750671E-2  -9.988412688435996E-1  
 1.582895723930983E9     3.761651366949081E-2  -1.000070572475444  
 1.585146286571643E9     3.599363565444946E-2  -9.993522623770272E-1  
 1.587396849212303E9     3.466848284006119E-2  -9.996000683508920E-1  
 1.589647411852963E9     3.531476482748985E-2  -1.000765818362701  
 1.591897974493623E9     2.671468816697598E-2  -9.992636345765782E-1  
 1.594148537134284E9     2.732378430664539E-2  -1.000437762321440  
 1.596399099774944E9     2.413155883550644E-2  -9.997743873440039E-1  
 1.598649662415604E9     2.339502610266209E-2  -1.000381609358342  
 1.600900225056264E9     1.962882466614246E-2  -1.000435375482038  
 1.603150787696924E9     2.024065703153610E-2  -1.000392426191237  
 1.605401350337585E9     1.796343363821507E-2  -9.996672945107630E-1  
 1.607651912978245E9     1.396043412387371E-2  -9.994021619780082E-1  
 1.609902475618905E9     1.277744024991989E-2  -1.001373285907175  
 1.612153038259565E9     1.084292866289616E-2  -9.997259906814622E-1  
 1.614403600900225E9     7.702093105763197E-3  -1.000422155855650  
 1.616654163540885E9     5.470743868499994E-3  -1.000804006208774  
 1.618904726181545E9     4.579937085509300E-3  -1.001321873813294  
 1.621155288822206E9     1.506320666521788E-3  -1.000505831058329  
 1.623405851462866E9    -5.349589628167450E-4  -1.000594678692552  
 1.625656414103526E9    -2.855300903320313E-3  -1.001372790486860  
