#  HZ   S   RI   R     50.0 
! Rohde & Schwarz ZVL13 2Ports - Version 3.31 - 1303.6509k13 SN: 101088
! Date: 2023-03-02 17:01:58
! Data & Calibration Information:
! Trc2:S21(Trans Norm)
! 
! 
! 
 1.000000000000000E9     5.796292424201965E-1  -8.318941940845755E-1  
 1.002250562640660E9     5.784417986869812E-1  -8.327935400413487E-1  
 1.004501125281320E9     5.758289694786072E-1  -8.368291882362509E-1  
 1.006751687921981E9     5.711423158645630E-1  -8.361344494424429E-1  
 1.009002250562641E9     5.691571235656738E-1  -8.384683370761377E-1  
 1.011252813203301E9     5.651498436927795E-1  -8.387296566797601E-1  
 1.013503375843961E9     5.624794960021973E-1  -8.390546665197848E-1  
 1.015753938484621E9     5.589172244071960E-1  -8.413585882471133E-1  
 1.018004501125281E9     5.569401979446411E-1  -8.408814005794295E-1  
 1.020255063765942E9     5.554062724113464E-1  -8.411626521926219E-1  
 1.022505626406602E9     5.530804395675659E-1  -8.415133105330889E-1  
 1.024756189047262E9     5.496253967285156E-1  -8.418870689511875E-1  
 1.027006751687922E9     5.471695065498352E-1  -8.437066509150710E-1  
 1.029257314328582E9     5.455655455589294E-1  -8.432724252883120E-1  
 1.031507876969242E9     5.436307191848755E-1  -8.439055142278289E-1  
 1.033758439609903E9     5.396808981895447E-1  -8.452104721353539E-1  
 1.036009002250563E9     5.368303060531616E-1  -8.417860639715730E-1  
 1.038259564891223E9     5.364004969596863E-1  -8.455132871885014E-1  
 1.040510127531883E9     5.328057408332825E-1  -8.445579183160840E-1  
 1.042760690172543E9     5.313853025436401E-1  -8.435919141457001E-1  
 1.045011252813203E9     5.309396386146545E-1  -8.449155140089266E-1  
 1.047261815453864E9     5.307591557502747E-1  -8.459399027457631E-1  
 1.049512378094524E9     5.273821949958801E-1  -8.466887416703230E-1  
 1.051762940735184E9     5.296465754508972E-1  -8.469337650538076E-1  
 1.054013503375844E9     5.256168246269226E-1  -8.508057089249788E-1  
 1.056264066016504E9     5.254501104354858E-1  -8.495450726886874E-1  
 1.058514628657164E9     5.234900116920471E-1  -8.509375967916772E-1  
 1.060765191297825E9     5.245463848114014E-1  -8.518640926801318E-1  
 1.063015753938485E9     5.216128826141357E-1  -8.556020082738524E-1  
 1.065266316579145E9     5.192147493362427E-1  -8.555748145245601E-1  
 1.067516879219805E9     5.168812870979309E-1  -8.565063068182467E-1  
 1.069767441860465E9     5.148102045059204E-1  -8.586793582067359E-1  
 1.072018004501125E9     5.123203396797180E-1  -8.583889292478306E-1  
 1.074268567141785E9     5.108941793441773E-1  -8.607489320994760E-1  
 1.076519129782446E9     5.089926123619080E-1  -8.604522813544620E-1  
 1.078769692423106E9     5.075466632843018E-1  -8.620353996972789E-1  
 1.081020255063766E9     5.054771304130554E-1  -8.632822594440864E-1  
 1.083270817704426E9     5.056514143943787E-1  -8.657623103411843E-1  
 1.085521380345086E9     5.030179619789124E-1  -8.660159754965093E-1  
 1.087771942985746E9     5.016901493072510E-1  -8.669837058383545E-1  
 1.090022505626407E9     5.009363293647766E-1  -8.669472183702456E-1  
 1.092273068267067E9     4.988920986652374E-1  -8.675500955997471E-1  
 1.094523630907727E9     4.970272481441498E-1  -8.686569775884654E-1  
 1.096774193548387E9     4.969464540481567E-1  -8.720115134386377E-1  
 1.099024756189047E9     4.937725663185120E-1  -8.731680508922173E-1  
 1.101275318829707E9     4.893849492073059E-1  -8.752046622278455E-1  
 1.103525881470368E9     4.894511699676514E-1  -8.759322553114761E-1  
 1.105776444111028E9     4.872872829437256E-1  -8.773493056921243E-1  
 1.108027006751688E9     4.852856993675232E-1  -8.768779691316920E-1  
 1.110277569392348E9     4.832738637924194E-1  -8.767887540767547E-1  
 1.112528132033008E9     4.796383976936340E-1  -8.798070130707374E-1  
 1.114778694673668E9     4.792756736278534E-1  -8.815641331666376E-1  
 1.117029257314329E9     4.785263538360596E-1  -8.822352603610995E-1  
 1.119279819954989E9     4.775422513484955E-1  -8.835487439930673E-1  
 1.121530382595649E9     4.728792905807495E-1  -8.839211405766333E-1  
 1.123780945236309E9     4.723336696624756E-1  -8.864098780361046E-1  
 1.126031507876969E9     4.675196111202240E-1  -8.877749172590652E-1  
 1.128282070517629E9     4.675339758396149E-1  -8.883740542253068E-1  
 1.130532633158290E9     4.666353762149811E-1  -8.879931893933168E-1  
 1.132783195798950E9     4.637984037399292E-1  -8.901849997281484E-1  
 1.135033758439610E9     4.617938697338104E-1  -8.901636877910000E-1  
 1.137284321080270E9     4.596572220325470E-1  -8.917513051954269E-1  
 1.139534883720930E9     4.604883193969727E-1  -8.919774305284880E-1  
 1.141785446361590E9     4.564291834831238E-1  -8.929314284342704E-1  
 1.144036009002251E9     4.548691809177399E-1  -8.941574825913392E-1  
 1.146286571642911E9     4.507746994495392E-1  -8.970451260766049E-1  
 1.148537134283571E9     4.509694576263428E-1  -8.965474304404447E-1  
 1.150787696924231E9     4.496620595455170E-1  -8.975622452837366E-1  
 1.153038259564891E9     4.465652406215668E-1  -8.981564038925346E-1  
 1.155288822205551E9     4.448171555995941E-1  -8.984551195803664E-1  
 1.157539384846211E9     4.449762701988220E-1  -9.000113493035507E-1  
 1.159789947486872E9     4.420576989650726E-1  -9.025075097327243E-1  
 1.162040510127532E9     4.403181076049805E-1  -9.021726082592755E-1  
 1.164291072768192E9     4.377683401107788E-1  -9.027021943213637E-1  
 1.166541635408852E9     4.374085664749146E-1  -9.048620684579443E-1  
 1.168792198049512E9     4.321947097778320E-1  -9.065495039629614E-1  
 1.171042760690172E9     4.336186647415161E-1  -9.064474952150539E-1  
 1.173293323330833E9     4.307855665683746E-1  -9.072406689183454E-1  
 1.175543885971493E9     4.282054305076599E-1  -9.092301085529836E-1  
 1.177794448612153E9     4.253536760807037E-1  -9.090947176862484E-1  
 1.180045011252813E9     4.233233630657196E-1  -9.115292831398844E-1  
 1.182295573893473E9     4.219367504119873E-1  -9.113760825440785E-1  
 1.184546136534133E9     4.193978905677795E-1  -9.120187581231378E-1  
 1.186796699174794E9     4.172086715698242E-1  -9.134144894492456E-1  
 1.189047261815454E9     4.155560135841370E-1  -9.146098069726185E-1  
 1.191297824456114E9     4.124197661876679E-1  -9.141820260429481E-1  
 1.193548387096774E9     4.107533991336823E-1  -9.155086835867855E-1  
 1.195798949737434E9     4.078806638717651E-1  -9.168394915840437E-1  
 1.198049512378094E9     4.079664647579193E-1  -9.164013155641729E-1  
 1.200300075018755E9     4.058670699596405E-1  -9.174663805767535E-1  
 1.202550637659415E9     4.026232659816742E-1  -9.184868775809425E-1  
 1.204801200300075E9     4.026789069175720E-1  -9.181310403702498E-1  
 1.207051762940735E9     3.997817337512970E-1  -9.219976657708529E-1  
 1.209302325581395E9     3.981991410255432E-1  -9.215170290484224E-1  
 1.211552888222055E9     3.954603970050812E-1  -9.203405380843913E-1  
 1.213803450862716E9     3.932865262031555E-1  -9.226469032530035E-1  
 1.216054013503376E9     3.904097378253937E-1  -9.246971331672440E-1  
 1.218304576144036E9     3.904627859592438E-1  -9.236011002466906E-1  
 1.220555138784696E9     3.884887695312500E-1  -9.245531883463246E-1  
 1.222805701425356E9     3.863447010517120E-1  -9.258979128712697E-1  
 1.225056264066016E9     3.841497302055359E-1  -9.272396644488026E-1  
 1.227306826706677E9     3.831616640090942E-1  -9.277794098579788E-1  
 1.229557389347337E9     3.808636963367462E-1  -9.292653820067288E-1  
 1.231807951987997E9     3.803172707557678E-1  -9.296483044426499E-1  
 1.234058514628657E9     3.761093318462372E-1  -9.313423974680519E-1  
 1.236309077269317E9     3.736774623394013E-1  -9.324300196530784E-1  
 1.238559639909977E9     3.727580010890961E-1  -9.342195234967768E-1  
 1.240810202550638E9     3.697017133235931E-1  -9.344556105710686E-1  
 1.243060765191298E9     3.673826754093170E-1  -9.365638001198526E-1  
 1.245311327831958E9     3.643030524253845E-1  -9.351538919899333E-1  
 1.247561890472618E9     3.635781407356262E-1  -9.365643205454095E-1  
 1.249812453113278E9     3.628088235855103E-1  -9.381910010844098E-1  
 1.252063015753938E9     3.592329025268555E-1  -9.376934153767209E-1  
 1.254313578394599E9     3.577180206775665E-1  -9.400240445517679E-1  
 1.256564141035259E9     3.543295562267304E-1  -9.394996920102440E-1  
 1.258814703675919E9     3.531958162784576E-1  -9.404196406673643E-1  
 1.261065266316579E9     3.495585322380066E-1  -9.407934998609436E-1  
 1.263315828957239E9     3.478861153125763E-1  -9.415158144008797E-1  
 1.265566391597899E9     3.468836843967438E-1  -9.427520370140675E-1  
 1.267816954238560E9     3.444394171237946E-1  -9.415486475818666E-1  
 1.270067516879220E9     3.419966697692871E-1  -9.422516024400477E-1  
 1.272318079519880E9     3.423898220062256E-1  -9.462838871488868E-1  
 1.274568642160540E9     3.402592539787293E-1  -9.437727631173366E-1  
 1.276819204801200E9     3.366612195968628E-1  -9.470232338415857E-1  
 1.279069767441860E9     3.352816402912140E-1  -9.463304577674477E-1  
 1.281320330082521E9     3.351607322692871E-1  -9.481137441217813E-1  
 1.283570892723181E9     3.316973745822907E-1  -9.475213556854856E-1  
 1.285821455363841E9     3.278818726539612E-1  -9.487330559951284E-1  
 1.288072018004501E9     3.261858820915222E-1  -9.504885173272449E-1  
 1.290322580645161E9     3.248244822025299E-1  -9.508680823639731E-1  
 1.292573143285821E9     3.193303048610687E-1  -9.525448833093516E-1  
 1.294823705926482E9     3.206658959388733E-1  -9.532534324137797E-1  
 1.297074268567142E9     3.181563317775726E-1  -9.523257212951400E-1  
 1.299324831207802E9     3.173120617866516E-1  -9.542524907681731E-1  
 1.301575393848462E9     3.152481317520142E-1  -9.554243660007025E-1  
 1.303825956489122E9     3.102725446224213E-1  -9.563896545216961E-1  
 1.306076519129782E9     3.108126521110535E-1  -9.569590380160153E-1  
 1.308327081770443E9     3.080759346485138E-1  -9.576229514311275E-1  
 1.310577644411103E9     3.053642809391022E-1  -9.592838605295173E-1  
 1.312828207051763E9     3.013834953308106E-1  -9.588764408022292E-1  
 1.315078769692423E9     2.994413971900940E-1  -9.576753944958516E-1  
 1.317329332333083E9     3.006810545921326E-1  -9.592300362763212E-1  
 1.319579894973743E9     2.950649559497833E-1  -9.590978966607990E-1  
 1.321830457614404E9     2.944667339324951E-1  -9.603203097285168E-1  
 1.324081020255064E9     2.915107905864716E-1  -9.604687435435646E-1  
 1.326331582895724E9     2.910289168357849E-1  -9.613767992195732E-1  
 1.328582145536384E9     2.888066768646240E-1  -9.618614854226668E-1  
 1.330832708177044E9     2.866730391979218E-1  -9.627229597522402E-1  
 1.333083270817704E9     2.854308187961578E-1  -9.637916706716311E-1  
 1.335333833458365E9     2.814266681671143E-1  -9.629426740649715E-1  
 1.337584396099025E9     2.803201973438263E-1  -9.634065712547678E-1  
 1.339834958739685E9     2.781732380390167E-1  -9.646417361452655E-1  
 1.342085521380345E9     2.759673297405243E-1  -9.653334491891290E-1  
 1.344336084021005E9     2.726198434829712E-1  -9.679943766248687E-1  
 1.346586646661665E9     2.711852490901947E-1  -9.687257083134899E-1  
 1.348837209302326E9     2.698972821235657E-1  -9.681721678766055E-1  
 1.351087771942986E9     2.685353755950928E-1  -9.697593404544156E-1  
 1.353338334583646E9     2.655247747898102E-1  -9.709574862977932E-1  
 1.355588897224306E9     2.626499831676483E-1  -9.694185546818219E-1  
 1.357839459864966E9     2.607648372650147E-1  -9.691836645115921E-1  
 1.360090022505626E9     2.602583765983582E-1  -9.707235721356078E-1  
 1.362340585146287E9     2.582267820835114E-1  -9.746044411695680E-1  
 1.364591147786947E9     2.558851242065430E-1  -9.732784860364301E-1  
 1.366841710427607E9     2.530426383018494E-1  -9.727967825619680E-1  
 1.369092273068267E9     2.504267394542694E-1  -9.743577855437551E-1  
 1.371342835708927E9     2.500826418399811E-1  -9.724389923686198E-1  
 1.373593398349587E9     2.456418871879578E-1  -9.755519919105292E-1  
 1.375843960990248E9     2.439284324645996E-1  -9.747342542074912E-1  
 1.378094523630908E9     2.438568472862244E-1  -9.748971393544220E-1  
 1.380345086271568E9     2.411071956157684E-1  -9.758460307034955E-1  
 1.382595648912228E9     2.402570396661758E-1  -9.762684813877283E-1  
 1.384846211552888E9     2.362529337406158E-1  -9.774064581256952E-1  
 1.387096774193548E9     2.346581965684891E-1  -9.774610243765209E-1  
 1.389347336834209E9     2.323534786701202E-1  -9.780283994627232E-1  
 1.391597899474869E9     2.301997095346451E-1  -9.784644366766354E-1  
 1.393848462115529E9     2.254210114479065E-1  -9.796572115148151E-1  
 1.396099024756189E9     2.258208990097046E-1  -9.793169585785090E-1  
 1.398349587396849E9     2.230807393789291E-1  -9.801149828431544E-1  
 1.400600150037509E9     2.237663418054581E-1  -9.813438469071659E-1  
 1.402850712678170E9     2.184057682752609E-1  -9.810565281970699E-1  
 1.405101275318830E9     2.173759788274765E-1  -9.822848542023643E-1  
 1.407351837959490E9     2.145913094282150E-1  -9.817915543978200E-1  
 1.409602400600150E9     2.119092643260956E-1  -9.829863334848926E-1  
 1.411852963240810E9     2.106978595256805E-1  -9.831449604207327E-1  
 1.414103525881470E9     2.082359790802002E-1  -9.851236666697579E-1  
 1.416354088522131E9     2.068343758583069E-1  -9.841737688451193E-1  
 1.418604651162791E9     2.052349597215653E-1  -9.845062384845080E-1  
 1.420855213803451E9     2.030253857374191E-1  -9.864557081517935E-1  
 1.423105776444111E9     2.001779228448868E-1  -9.852586696710137E-1  
 1.425356339084771E9     1.959308534860611E-1  -9.874435829280214E-1  
 1.427606901725431E9     1.959592252969742E-1  -9.866848313406664E-1  
 1.429857464366092E9     1.914922446012497E-1  -9.872863813606911E-1  
 1.432108027006752E9     1.904846727848053E-1  -9.868685421055946E-1  
 1.434358589647412E9     1.893022060394287E-1  -9.870207894536390E-1  
 1.436609152288072E9     1.873029619455338E-1  -9.886391498811571E-1  
 1.438859714928732E9     1.839436441659927E-1  -9.883765132402695E-1  
 1.441110277569392E9     1.806463748216629E-1  -9.885928974140418E-1  
 1.443360840210053E9     1.802592128515244E-1  -9.886677784796226E-1  
 1.445611402850713E9     1.771665066480637E-1  -9.890494658752562E-1  
 1.447861965491373E9     1.747996807098389E-1  -9.902370711424164E-1  
 1.450112528132033E9     1.741567999124527E-1  -9.890997195711636E-1  
 1.452363090772693E9     1.703237891197205E-1  -9.880033032654958E-1  
 1.454613653413353E9     1.696735024452210E-1  -9.910913230913264E-1  
 1.456864216054014E9     1.654916554689407E-1  -9.929848939084305E-1  
 1.459114778694674E9     1.651683151721954E-1  -9.918326208754541E-1  
 1.461365341335334E9     1.628023684024811E-1  -9.929413537940424E-1  
 1.463615903975994E9     1.586416810750961E-1  -9.912445934313086E-1  
 1.465866466616654E9     1.574357450008392E-1  -9.911479675493429E-1  
 1.468117029257314E9     1.560033261775971E-1  -9.923089069098019E-1  
 1.470367591897975E9     1.545263677835465E-1  -9.939531069772268E-1  
 1.472618154538635E9     1.494092643260956E-1  -9.923629475175244E-1  
 1.474868717179295E9     1.505846530199051E-1  -9.939034740196383E-1  
 1.477119279819955E9     1.482850015163422E-1  -9.954664523441424E-1  
 1.479369842460615E9     1.472129076719284E-1  -9.956634621344090E-1  
 1.481620405101275E9     1.427860558032990E-1  -9.953943563286737E-1  
 1.483870967741936E9     1.406238377094269E-1  -9.957377418612587E-1  
 1.486121530382596E9     1.403261274099350E-1  -9.945047940810270E-1  
 1.488372093023256E9     1.362344026565552E-1  -9.963255505281521E-1  
 1.490622655663916E9     1.332046687602997E-1  -9.942333192096472E-1  
 1.492873218304576E9     1.325792223215103E-1  -9.960073846039957E-1  
 1.495123780945236E9     1.295435130596161E-1  -9.951427625721435E-1  
 1.497374343585897E9     1.285022497177124E-1  -9.970109408671842E-1  
 1.499624906226557E9     1.259950101375580E-1  -9.963183730957415E-1  
 1.501875468867217E9     1.240673363208771E-1  -9.971716751522860E-1  
 1.504126031507877E9     1.206966117024422E-1  -9.978562958313685E-1  
 1.506376594148537E9     1.192165985703468E-1  -9.979665869265515E-1  
 1.508627156789197E9     1.165700107812882E-1  -9.997394576678704E-1  
 1.510877719429858E9     1.160569116473198E-1  -1.000504521767529  
 1.513128282070518E9     1.124394610524178E-1  -9.997776044472160E-1  
 1.515378844711178E9     1.102042645215988E-1  -9.997016286459266E-1  
 1.517629407351838E9     1.077138632535934E-1  -9.978364406034734E-1  
 1.519879969992498E9     1.053562313318253E-1  -9.981525385547856E-1  
 1.522130532633158E9     1.037916541099548E-1  -1.000246870475731  
 1.524381095273819E9     1.012890562415123E-1  -9.967443495021331E-1  
 1.526631657914479E9     1.006952971220017E-1  -9.994966346699824E-1  
 1.528882220555139E9     9.808382391929627E-2  -9.992910509126783E-1  
 1.531132783195799E9     9.449410438537598E-2  -9.993505499176197E-1  
 1.533383345836459E9     9.473221749067307E-2  -1.001881804067367  
 1.535633908477119E9     9.247731417417526E-2  -1.001533454921335  
 1.537884471117779E9     8.515217155218124E-2  -1.000205149381946  
 1.540135033758440E9     8.328680694103241E-2  -1.000410254946110  
 1.542385596399100E9     8.258756995201111E-2  -1.001633059526779  
 1.544636159039760E9     8.074368536472321E-2  -1.003064516015406  
 1.546886721680420E9     7.942078262567520E-2  -1.002065488357729  
 1.549137284321080E9     7.831068336963654E-2  -1.001989133009552  
 1.551387846961741E9     7.660833746194840E-2  -1.002354865649000  
 1.553638409602401E9     7.233662158250809E-2  -1.001506051546732  
 1.555888972243061E9     7.006818801164627E-2  -1.001470250677570  
 1.558139534883721E9     6.629312783479691E-2  -1.002157964885639  
 1.560390097524381E9     6.506640464067459E-2  -1.002518705875327  
 1.562640660165041E9     6.611662358045578E-2  -1.002749463296302  
 1.564891222805701E9     6.316196173429489E-2  -1.003474775554701  
 1.567141785446362E9     5.943238362669945E-2  -1.004496710837415  
 1.569392348087022E9     5.667604506015778E-2  -1.003366623922489  
 1.571642910727682E9     5.766540393233299E-2  -1.002124536457349  
 1.573893473368342E9     5.030547827482224E-2  -1.002798663602098  
 1.576144036009002E9     4.975246265530586E-2  -1.006053315576543  
 1.578394598649663E9     4.819240048527718E-2  -1.003052196872520  
 1.580645161290323E9     4.555609077215195E-2  -1.001493741474852  
 1.582895723930983E9     3.890111297369003E-2  -1.004223601526252  
 1.585146286571643E9     4.047723859548569E-2  -1.003011927693228  
 1.587396849212303E9     4.028250649571419E-2  -1.003026312405291  
 1.589647411852963E9     3.954547271132469E-2  -1.003311963194291  
 1.591897974493623E9     3.194793313741684E-2  -1.003686573368385  
 1.594148537134284E9     3.310506790876389E-2  -1.005189044825716  
 1.596399099774944E9     2.942219190299511E-2  -1.003930500281173  
 1.598649662415604E9     2.876714803278446E-2  -1.003184891655939  
 1.600900225056264E9     2.414904162287712E-2  -1.005503507570847  
 1.603150787696924E9     2.591626532375813E-2  -1.003006031999881  
 1.605401350337585E9     2.347167208790779E-2  -1.002725832842589  
 1.607651912978245E9     2.000848576426506E-2  -1.003512227697194  
 1.609902475618905E9     1.781067438423634E-2  -1.004378803656883  
 1.612153038259565E9     1.504156086593866E-2  -1.003487254006725  
 1.614403600900225E9     1.407974865287542E-2  -1.003535450437991  
 1.616654163540885E9     1.113815978169441E-2  -1.004989605820730  
 1.618904726181545E9     9.053280577063561E-3  -1.006352203115086  
 1.621155288822206E9     4.267783369868994E-3  -1.007070020858023  
 1.623405851462866E9     5.495771765708923E-3  -1.004192625594916  
 1.625656414103526E9     1.104685361497104E-3  -1.003731245298873  
 1.627906976744186E9     3.851282235700637E-5  -1.003630027534298  
