#  HZ   S   RI   R     50.0 
! Rohde & Schwarz ZVL13 2Ports - Version 3.31 - 1303.6509k13 SN: 101088
! Date: 2023-03-02 16:59:49
! Data & Calibration Information:
! Trc2:S21(Trans Norm)
! 
! 
! 
 1.000000000000000E9     5.777173638343811E-1  -8.343590619124859E-1  
 1.002250562640660E9     5.766310691833496E-1  -8.348505823429753E-1  
 1.004501125281320E9     5.726566910743713E-1  -8.376891439074902E-1  
 1.006751687921981E9     5.688766837120056E-1  -8.381333775794827E-1  
 1.009002250562641E9     5.683383941650391E-1  -8.399309149154696E-1  
 1.011252813203301E9     5.629029870033264E-1  -8.410861498860959E-1  
 1.013503375843961E9     5.585114359855652E-1  -8.402156589755149E-1  
 1.015753938484621E9     5.564111471176148E-1  -8.421819035780900E-1  
 1.018004501125281E9     5.546805858612061E-1  -8.413963775262194E-1  
 1.020255063765942E9     5.512367486953735E-1  -8.429861080910567E-1  
 1.022505626406602E9     5.490808486938477E-1  -8.435674294035631E-1  
 1.024756189047262E9     5.463826656341553E-1  -8.438702969980734E-1  
 1.027006751687922E9     5.443285107612610E-1  -8.444827706928036E-1  
 1.029257314328582E9     5.414410233497620E-1  -8.454660662100135E-1  
 1.031507876969242E9     5.402440428733826E-1  -8.444695551085368E-1  
 1.033758439609903E9     5.385565161705017E-1  -8.449371348755967E-1  
 1.036009002250563E9     5.328179597854614E-1  -8.435423130439623E-1  
 1.038259564891223E9     5.353550910949707E-1  -8.463909631892164E-1  
 1.040510127531883E9     5.309184789657593E-1  -8.448271491900843E-1  
 1.042760690172543E9     5.296439528465271E-1  -8.469523771428641E-1  
 1.045011252813203E9     5.292604565620422E-1  -8.460228531164503E-1  
 1.047261815453864E9     5.279937386512756E-1  -8.477618247025274E-1  
 1.049512378094524E9     5.250160098075867E-1  -8.475860297137127E-1  
 1.051762940735184E9     5.262002348899841E-1  -8.488285688095745E-1  
 1.054013503375844E9     5.235867500305176E-1  -8.518739242893085E-1  
 1.056264066016504E9     5.225254297256470E-1  -8.532865996092953E-1  
 1.058514628657164E9     5.213563442230225E-1  -8.515203972006968E-1  
 1.060765191297825E9     5.216960310935974E-1  -8.526234449086735E-1  
 1.063015753938485E9     5.194291472434998E-1  -8.555733179398706E-1  
 1.065266316579145E9     5.160499215126038E-1  -8.568859287344490E-1  
 1.067516879219805E9     5.143325328826904E-1  -8.575547140903349E-1  
 1.069767441860465E9     5.115069150924683E-1  -8.605978420803078E-1  
 1.072018004501125E9     5.089573860168457E-1  -8.594735709115313E-1  
 1.074268567141785E9     5.077400803565979E-1  -8.617613390068877E-1  
 1.076519129782446E9     5.080238580703735E-1  -8.630239131108457E-1  
 1.078769692423106E9     5.049949884414673E-1  -8.630763219925007E-1  
 1.081020255063766E9     5.036829113960266E-1  -8.630657201369726E-1  
 1.083270817704426E9     5.036113262176514E-1  -8.655656764613396E-1  
 1.085521380345086E9     5.016170740127564E-1  -8.684994936794575E-1  
 1.087771942985746E9     4.996288418769836E-1  -8.677634698877642E-1  
 1.090022505626407E9     4.996646940708160E-1  -8.689303330646288E-1  
 1.092273068267067E9     4.958502948284149E-1  -8.711566005355611E-1  
 1.094523630907727E9     4.924884438514710E-1  -8.700219913232160E-1  
 1.096774193548387E9     4.930403232574463E-1  -8.735064965013467E-1  
 1.099024756189047E9     4.907659292221069E-1  -8.752110611692712E-1  
 1.101275318829707E9     4.852558672428131E-1  -8.763303435825858E-1  
 1.103525881470368E9     4.875953793525696E-1  -8.770816978765824E-1  
 1.105776444111028E9     4.853768050670624E-1  -8.789566826797350E-1  
 1.108027006751688E9     4.826146662235260E-1  -8.793422094899565E-1  
 1.110277569392348E9     4.807451665401459E-1  -8.769569719248802E-1  
 1.112528132033008E9     4.784821569919586E-1  -8.807437800126965E-1  
 1.114778694673668E9     4.772586226463318E-1  -8.819533147100443E-1  
 1.117029257314329E9     4.759123623371124E-1  -8.830228720439505E-1  
 1.119279819954989E9     4.743576943874359E-1  -8.837153975170051E-1  
 1.121530382595649E9     4.693157076835632E-1  -8.851161996389805E-1  
 1.123780945236309E9     4.696216583251953E-1  -8.876343045021171E-1  
 1.126031507876969E9     4.664696455001831E-1  -8.871222723102024E-1  
 1.128282070517629E9     4.646556973457336E-1  -8.894847632205134E-1  
 1.130532633158290E9     4.637926518917084E-1  -8.902410168571816E-1  
 1.132783195798950E9     4.608132541179657E-1  -8.913923228364196E-1  
 1.135033758439610E9     4.600583314895630E-1  -8.902999711205426E-1  
 1.137284321080270E9     4.570679366588593E-1  -8.934930849308529E-1  
 1.139534883720930E9     4.570087194442749E-1  -8.934495632096919E-1  
 1.141785446361590E9     4.536487758159638E-1  -8.944561362817278E-1  
 1.144036009002251E9     4.521105885505676E-1  -8.934759815538861E-1  
 1.146286571642911E9     4.499832987785339E-1  -8.969615767013568E-1  
 1.148537134283571E9     4.464670717716217E-1  -8.979412236108173E-1  
 1.150787696924231E9     4.468411803245544E-1  -8.981806166705060E-1  
 1.153038259564891E9     4.460710883140564E-1  -8.968624970287797E-1  
 1.155288822205551E9     4.414215087890625E-1  -8.988081728030772E-1  
 1.157539384846211E9     4.416618645191193E-1  -8.995952560250671E-1  
 1.159789947486872E9     4.394868612289429E-1  -9.029780587147993E-1  
 1.162040510127532E9     4.376135766506195E-1  -9.044424124019481E-1  
 1.164291072768192E9     4.331987202167511E-1  -9.057571430644222E-1  
 1.166541635408852E9     4.338441491127014E-1  -9.064349216451660E-1  
 1.168792198049512E9     4.307227134704590E-1  -9.063114905740438E-1  
 1.171042760690172E9     4.286296367645264E-1  -9.079625996022314E-1  
 1.173293323330833E9     4.272911846637726E-1  -9.095978607300126E-1  
 1.175543885971493E9     4.253116250038147E-1  -9.094355453636899E-1  
 1.177794448612153E9     4.216540753841400E-1  -9.100191376646355E-1  
 1.180045011252813E9     4.188724756240845E-1  -9.118720741638546E-1  
 1.182295573893473E9     4.202522337436676E-1  -9.133509006220765E-1  
 1.184546136534133E9     4.180892109870911E-1  -9.128020535891058E-1  
 1.186796699174794E9     4.156194925308228E-1  -9.131925130164619E-1  
 1.189047261815454E9     4.105593264102936E-1  -9.139678807784988E-1  
 1.191297824456114E9     4.091803133487701E-1  -9.143846515573160E-1  
 1.193548387096774E9     4.089547097682953E-1  -9.162381609261514E-1  
 1.195798949737434E9     4.064651131629944E-1  -9.175552719660025E-1  
 1.198049512378094E9     4.045525789260864E-1  -9.174260097102619E-1  
 1.200300075018755E9     4.044113755226135E-1  -9.188212470789540E-1  
 1.202550637659415E9     4.005132317543030E-1  -9.211814451908271E-1  
 1.204801200300075E9     3.991990983486176E-1  -9.195558300482472E-1  
 1.207051762940735E9     3.959242105484009E-1  -9.231446699231830E-1  
 1.209302325581395E9     3.958613872528076E-1  -9.223918818595375E-1  
 1.211552888222055E9     3.928015232086182E-1  -9.218973194653323E-1  
 1.213803450862716E9     3.920173645019531E-1  -9.227748371928749E-1  
 1.216054013503376E9     3.889807462692261E-1  -9.235758714373449E-1  
 1.218304576144036E9     3.870352208614349E-1  -9.254940534816785E-1  
 1.220555138784696E9     3.866987526416779E-1  -9.243851617834755E-1  
 1.222805701425356E9     3.825587928295136E-1  -9.273674288260865E-1  
 1.225056264066016E9     3.818101882934570E-1  -9.286240711485871E-1  
 1.227306826706677E9     3.797193467617035E-1  -9.287819811395076E-1  
 1.229557389347337E9     3.771708905696869E-1  -9.294722562083653E-1  
 1.231807951987997E9     3.762749731540680E-1  -9.299845524811450E-1  
 1.234058514628657E9     3.723964393138886E-1  -9.311527385758174E-1  
 1.236309077269317E9     3.711484670639038E-1  -9.321090969059688E-1  
 1.238559639909977E9     3.705732524394989E-1  -9.343918985440657E-1  
 1.240810202550638E9     3.677362501621246E-1  -9.349819918649756E-1  
 1.243060765191298E9     3.651448786258698E-1  -9.356895935349416E-1  
 1.245311327831958E9     3.623873889446259E-1  -9.359619356209894E-1  
 1.247561890472618E9     3.593679964542389E-1  -9.381627999153012E-1  
 1.249812453113278E9     3.583688139915466E-1  -9.378211406012560E-1  
 1.252063015753938E9     3.563493192195892E-1  -9.372423559604686E-1  
 1.254313578394599E9     3.557085692882538E-1  -9.410618108276879E-1  
 1.256564141035259E9     3.521974384784699E-1  -9.402974178403247E-1  
 1.258814703675919E9     3.506754338741303E-1  -9.396497604325879E-1  
 1.261065266316579E9     3.472400605678558E-1  -9.414423786185062E-1  
 1.263315828957239E9     3.458710014820099E-1  -9.408588874143984E-1  
 1.265566391597899E9     3.464007079601288E-1  -9.431290244830960E-1  
 1.267816954238560E9     3.420001268386841E-1  -9.402975757571443E-1  
 1.270067516879220E9     3.405769169330597E-1  -9.436387964295119E-1  
 1.272318079519880E9     3.386246263980866E-1  -9.465825745155125E-1  
 1.274568642160540E9     3.373301029205322E-1  -9.451839065536035E-1  
 1.276819204801200E9     3.355519473552704E-1  -9.452983059229442E-1  
 1.279069767441860E9     3.323017060756683E-1  -9.468199422326695E-1  
 1.281320330082521E9     3.311980962753296E-1  -9.477615023407002E-1  
 1.283570892723181E9     3.279012739658356E-1  -9.481350484176471E-1  
 1.285821455363841E9     3.269421756267548E-1  -9.491832549978536E-1  
 1.288072018004501E9     3.242748677730560E-1  -9.503189302714971E-1  
 1.290322580645161E9     3.221171498298645E-1  -9.510252169711431E-1  
 1.292573143285821E9     3.184789121150971E-1  -9.528336149292557E-1  
 1.294823705926482E9     3.186235427856445E-1  -9.545126194222561E-1  
 1.297074268567142E9     3.168707787990570E-1  -9.518118839237144E-1  
 1.299324831207802E9     3.132273852825165E-1  -9.529238869101374E-1  
 1.301575393848462E9     3.122043609619141E-1  -9.553007135355388E-1  
 1.303825956489122E9     3.095280528068543E-1  -9.567279740531508E-1  
 1.306076519129782E9     3.105821609497070E-1  -9.545895613862677E-1  
 1.308327081770443E9     3.040630817413330E-1  -9.582310849675113E-1  
 1.310577644411103E9     3.034176528453827E-1  -9.593642496257934E-1  
 1.312828207051763E9     3.003576695919037E-1  -9.596193977642538E-1  
 1.315078769692423E9     2.981420457363129E-1  -9.581877983402573E-1  
 1.317329332333083E9     2.966345846652985E-1  -9.594101185150142E-1  
 1.319579894973743E9     2.929754853248596E-1  -9.578967327264188E-1  
 1.321830457614404E9     2.925394475460053E-1  -9.602104901360132E-1  
 1.324081020255064E9     2.899728715419769E-1  -9.593787591204017E-1  
 1.326331582895724E9     2.883193492889404E-1  -9.601457832054197E-1  
 1.328582145536384E9     2.859267294406891E-1  -9.609578713441226E-1  
 1.330832708177044E9     2.852451801300049E-1  -9.628743503146615E-1  
 1.333083270817704E9     2.820378243923187E-1  -9.624291950220940E-1  
 1.335333833458365E9     2.793901860713959E-1  -9.624411387540675E-1  
 1.337584396099025E9     2.777490913867950E-1  -9.636315600232338E-1  
 1.339834958739685E9     2.758316099643707E-1  -9.648982251576144E-1  
 1.342085521380345E9     2.733538746833801E-1  -9.655941389202295E-1  
 1.344336084021005E9     2.712977230548859E-1  -9.672526785186574E-1  
 1.346586646661665E9     2.687919437885284E-1  -9.687112151976081E-1  
 1.348837209302326E9     2.662734389305115E-1  -9.681454101635065E-1  
 1.351087771942986E9     2.666112482547760E-1  -9.678392541684804E-1  
 1.353338334583646E9     2.634568810462952E-1  -9.708673025326724E-1  
 1.355588897224306E9     2.598864436149597E-1  -9.682046904457649E-1  
 1.357839459864966E9     2.574137747287750E-1  -9.708138392094877E-1  
 1.360090022505626E9     2.581080794334412E-1  -9.717266884400568E-1  
 1.362340585146287E9     2.553494870662689E-1  -9.745184487252941E-1  
 1.364591147786947E9     2.539263069629669E-1  -9.726864608159126E-1  
 1.366841710427607E9     2.518270313739777E-1  -9.712412720329043E-1  
 1.369092273068267E9     2.479984611272812E-1  -9.733772412507963E-1  
 1.371342835708927E9     2.475332319736481E-1  -9.736951928711977E-1  
 1.373593398349587E9     2.439344823360443E-1  -9.739497240209369E-1  
 1.375843960990248E9     2.425292283296585E-1  -9.756019623298333E-1  
 1.378094523630908E9     2.405023425817490E-1  -9.756435939749349E-1  
 1.380345086271568E9     2.389362603425980E-1  -9.757796756371576E-1  
 1.382595648912228E9     2.365658283233643E-1  -9.759559272580055E-1  
 1.384846211552888E9     2.345373481512070E-1  -9.771070436620466E-1  
 1.387096774193548E9     2.314086705446243E-1  -9.770098297982111E-1  
 1.389347336834209E9     2.286389321088791E-1  -9.775703881084445E-1  
 1.391597899474869E9     2.261974811553955E-1  -9.775391246669559E-1  
 1.393848462115529E9     2.223173677921295E-1  -9.784236305309141E-1  
 1.396099024756189E9     2.237366735935211E-1  -9.793638337365201E-1  
 1.398349587396849E9     2.181184291839600E-1  -9.807255395219086E-1  
 1.400600150037509E9     2.213645875453949E-1  -9.799183399936481E-1  
 1.402850712678170E9     2.161563336849213E-1  -9.798521380301034E-1  
 1.405101275318830E9     2.142464518547058E-1  -9.826555332754426E-1  
 1.407351837959490E9     2.122361063957214E-1  -9.816137824330360E-1  
 1.409602400600150E9     2.095522284507752E-1  -9.830119920940588E-1  
 1.411852963240810E9     2.082960158586502E-1  -9.826553348377189E-1  
 1.414103525881470E9     2.060052603483200E-1  -9.848051887100169E-1  
 1.416354088522131E9     2.023117691278458E-1  -9.835620103719133E-1  
 1.418604651162791E9     2.017728537321091E-1  -9.845918437150507E-1  
 1.420855213803451E9     1.984736770391464E-1  -9.855376862296065E-1  
 1.423105776444111E9     1.948382109403610E-1  -9.855189530349334E-1  
 1.425356339084771E9     1.936289817094803E-1  -9.860414023634064E-1  
 1.427606901725431E9     1.913237422704697E-1  -9.858480168231439E-1  
 1.429857464366092E9     1.880402415990830E-1  -9.870191343512904E-1  
 1.432108027006752E9     1.878617852926254E-1  -9.875949820542501E-1  
 1.434358589647412E9     1.868720799684525E-1  -9.880144865260548E-1  
 1.436609152288072E9     1.837996542453766E-1  -9.881976503662846E-1  
 1.438859714928732E9     1.817904710769653E-1  -9.878304436519447E-1  
 1.441110277569392E9     1.778418421745300E-1  -9.882467786587522E-1  
 1.443360840210053E9     1.770460605621338E-1  -9.887389368487922E-1  
 1.445611402850713E9     1.762103140354157E-1  -9.888512218610572E-1  
 1.447861965491373E9     1.720981150865555E-1  -9.902926461757970E-1  
 1.450112528132033E9     1.721155941486359E-1  -9.901796306288568E-1  
 1.452363090772693E9     1.680448353290558E-1  -9.890746769749469E-1  
 1.454613653413353E9     1.670908778905869E-1  -9.894599962470381E-1  
 1.456864216054014E9     1.634059250354767E-1  -9.917380508840655E-1  
 1.459114778694674E9     1.612179726362228E-1  -9.914688786996414E-1  
 1.461365341335334E9     1.597911864519119E-1  -9.911134535748348E-1  
 1.463615903975994E9     1.573486775159836E-1  -9.907127565262837E-1  
 1.465866466616654E9     1.546002179384232E-1  -9.917689604083274E-1  
 1.468117029257314E9     1.539285033941269E-1  -9.912550071041518E-1  
 1.470367591897975E9     1.510700434446335E-1  -9.926438361263348E-1  
 1.472618154538635E9     1.492439806461334E-1  -9.915962247650273E-1  
 1.474868717179295E9     1.473223865032196E-1  -9.944225768818390E-1  
 1.477119279819955E9     1.455474942922592E-1  -9.958578203104824E-1  
 1.479369842460615E9     1.430841684341431E-1  -9.940933341456303E-1  
 1.481620405101275E9     1.415327042341232E-1  -9.943629984440374E-1  
 1.483870967741936E9     1.368218958377838E-1  -9.932053568183843E-1  
 1.486121530382596E9     1.393237560987473E-1  -9.948665703393188E-1  
 1.488372093023256E9     1.348571032285690E-1  -9.953294946124383E-1  
 1.490622655663916E9     1.312859952449799E-1  -9.958400179162964E-1  
 1.492873218304576E9     1.303167492151260E-1  -9.951445771802675E-1  
 1.495123780945236E9     1.269157677888870E-1  -9.956196618415659E-1  
 1.497374343585897E9     1.253436952829361E-1  -9.964123920896446E-1  
 1.499624906226557E9     1.240504756569862E-1  -9.957147294049354E-1  
 1.501875468867217E9     1.204545944929123E-1  -9.968766929991467E-1  
 1.504126031507877E9     1.195615530014038E-1  -9.974152585474622E-1  
 1.506376594148537E9     1.160700172185898E-1  -9.972883304330578E-1  
 1.508627156789197E9     1.133946776390076E-1  -9.981335488648204E-1  
 1.510877719429858E9     1.127887293696404E-1  -9.993023900496661E-1  
 1.513128282070518E9     1.092755198478699E-1  -9.994447340481236E-1  
 1.515378844711178E9     1.080057397484779E-1  -9.992324516616543E-1  
 1.517629407351838E9     1.051695570349693E-1  -9.974039238611743E-1  
 1.519879969992498E9     1.016117781400681E-1  -9.967579998203328E-1  
 1.522130532633158E9     1.007656976580620E-1  -1.000713093540510  
 1.524381095273819E9     9.876876324415207E-2  -9.970179116543080E-1  
 1.526631657914479E9     9.810203313827515E-2  -1.000010088232947  
 1.528882220555139E9     9.672328084707260E-2  -1.000034131195683  
 1.531132783195799E9     9.001851081848145E-2  -9.985022406535711E-1  
 1.533383345836459E9     9.226538985967636E-2  -1.001040889813544  
 1.535633908477119E9     8.925633877515793E-2  -1.000074237762715  
 1.537884471117779E9     8.134680241346359E-2  -9.987605496265276E-1  
 1.540135033758440E9     8.067370951175690E-2  -9.998827277824358E-1  
 1.542385596399100E9     8.037392795085907E-2  -1.000003132734051  
 1.544636159039760E9     7.847049087285996E-2  -1.001527170090380  
 1.546886721680420E9     7.669934630393982E-2  -9.999199631421113E-1  
 1.549137284321080E9     7.622195035219193E-2  -1.000250617749229  
 1.551387846961741E9     7.446348667144775E-2  -1.002191973605954  
 1.553638409602401E9     7.034730911254883E-2  -1.000721126787084  
 1.555888972243061E9     6.919945031404495E-2  -1.002513659743270  
 1.558139534883721E9     6.477497518062592E-2  -1.001513129493372  
 1.560390097524381E9     6.297600269317627E-2  -1.001793628181786  
 1.562640660165041E9     6.180177256464958E-2  -1.002391762773532  
 1.564891222805701E9     6.078336387872696E-2  -1.002691081839827  
 1.567141785446362E9     5.802845582365990E-2  -1.004347215683277  
 1.569392348087022E9     5.377855151891708E-2  -1.003126114039398  
 1.571642910727682E9     5.406844988465309E-2  -1.000846037881284  
 1.573893473368342E9     4.710459336638451E-2  -1.004175498728002  
 1.576144036009002E9     4.803392291069031E-2  -1.004243483862247  
 1.578394598649663E9     4.559013247489929E-2  -1.003367775361377  
 1.580645161290323E9     4.336856678128243E-2  -1.002468859823036  
 1.582895723930983E9     4.042477533221245E-2  -1.003104743160187  
 1.585146286571643E9     3.951520100235939E-2  -1.001638349379763  
 1.587396849212303E9     3.830519318580627E-2  -1.003407918257234  
 1.589647411852963E9     3.598558902740479E-2  -1.003938798391485  
 1.591897974493623E9     3.029039315879345E-2  -1.002370194003839  
 1.594148537134284E9     2.974088676273823E-2  -1.003535493815699  
 1.596399099774944E9     2.720930799841881E-2  -1.001745951439829  
 1.598649662415604E9     2.731524035334587E-2  -1.004206292202293  
 1.600900225056264E9     2.370327711105347E-2  -1.004589109090948  
 1.603150787696924E9     2.316793985664845E-2  -1.002303695567923  
 1.605401350337585E9     2.035089209675789E-2  -1.002381186842726  
 1.607651912978245E9     1.680136099457741E-2  -1.003214192675079  
 1.609902475618905E9     1.548162288963795E-2  -1.003358360110095  
 1.612153038259565E9     1.368552073836327E-2  -1.001956651084157  
 1.614403600900225E9     1.044850796461105E-2  -1.001993439068506  
 1.616654163540885E9     7.553275674581528E-3  -1.003963290825780  
 1.618904726181545E9     6.791446823626757E-3  -1.003865222055584  
 1.621155288822206E9    -5.569068016484380E-4  -1.003946150164398  
 1.623405851462866E9     3.694195533171296E-3  -1.003285913884729  
 1.625656414103526E9    -4.395315889269114E-3  -1.002078511392704  
 1.627906976744186E9    -8.539395639672875E-4  -1.002560581041324  
