#  HZ   S   RI   R     50.0 
! Rohde & Schwarz ZVL13 2Ports - Version 3.31 - 1303.6509k13 SN: 101088
! Date: 2023-03-02 17:00:27
! Data & Calibration Information:
! Trc2:S21(Trans Norm)
! 
! 
! 
 1.000000000000000E9     5.781434178352356E-1  -8.334146133899179E-1  
 1.002250562640660E9     5.763053297996521E-1  -8.342638381230241E-1  
 1.004501125281320E9     5.735949873924255E-1  -8.368401382578907E-1  
 1.006751687921981E9     5.701431035995483E-1  -8.364080104255705E-1  
 1.009002250562641E9     5.668847560882568E-1  -8.390722228317554E-1  
 1.011252813203301E9     5.639806389808655E-1  -8.407203003489755E-1  
 1.013503375843961E9     5.592655539512634E-1  -8.410368946051248E-1  
 1.015753938484621E9     5.555627346038818E-1  -8.427156026434113E-1  
 1.018004501125281E9     5.550522804260254E-1  -8.409898427996907E-1  
 1.020255063765942E9     5.529370903968811E-1  -8.420041493263594E-1  
 1.022505626406602E9     5.510384440422058E-1  -8.433417664378664E-1  
 1.024756189047262E9     5.474247932434082E-1  -8.426855916205966E-1  
 1.027006751687922E9     5.446383357048035E-1  -8.438803611466400E-1  
 1.029257314328582E9     5.431250333786011E-1  -8.453224088079911E-1  
 1.031507876969242E9     5.422073006629944E-1  -8.449254858771820E-1  
 1.033758439609903E9     5.379157662391663E-1  -8.453760308992169E-1  
 1.036009002250563E9     5.337686538696289E-1  -8.450753074497186E-1  
 1.038259564891223E9     5.337228775024414E-1  -8.458990972023798E-1  
 1.040510127531883E9     5.314848423004150E-1  -8.455788147845721E-1  
 1.042760690172543E9     5.320126414299011E-1  -8.449994227765972E-1  
 1.045011252813203E9     5.312212109565735E-1  -8.452948704359355E-1  
 1.047261815453864E9     5.282410383224487E-1  -8.467931369722557E-1  
 1.049512378094524E9     5.266757607460022E-1  -8.456939885554072E-1  
 1.051762940735184E9     5.281755328178406E-1  -8.478893456944502E-1  
 1.054013503375844E9     5.237404704093933E-1  -8.516064861918946E-1  
 1.056264066016504E9     5.231092572212219E-1  -8.511502420333561E-1  
 1.058514628657164E9     5.239988565444946E-1  -8.519726209586881E-1  
 1.060765191297825E9     5.213621854782105E-1  -8.531568565582722E-1  
 1.063015753938485E9     5.194856524467468E-1  -8.560668597183473E-1  
 1.065266316579145E9     5.171633362770081E-1  -8.561958083814703E-1  
 1.067516879219805E9     5.156579613685608E-1  -8.574411244463939E-1  
 1.069767441860465E9     5.139808654785156E-1  -8.603689574123677E-1  
 1.072018004501125E9     5.102567672729492E-1  -8.590721242219445E-1  
 1.074268567141785E9     5.079086422920227E-1  -8.614409906698355E-1  
 1.076519129782446E9     5.082469582557678E-1  -8.629641727821451E-1  
 1.078769692423106E9     5.053610801696777E-1  -8.644208956674849E-1  
 1.081020255063766E9     5.037946105003357E-1  -8.627412798298668E-1  
 1.083270817704426E9     5.031756162643433E-1  -8.651717729698689E-1  
 1.085521380345086E9     5.011707544326782E-1  -8.677624070523221E-1  
 1.087771942985746E9     4.998728930950165E-1  -8.675086646704360E-1  
 1.090022505626407E9     4.990992546081543E-1  -8.680932550068106E-1  
 1.092273068267067E9     4.968532323837280E-1  -8.716364264025545E-1  
 1.094523630907727E9     4.943872392177582E-1  -8.691388913187781E-1  
 1.096774193548387E9     4.933856129646301E-1  -8.730940336691133E-1  
 1.099024756189047E9     4.919590950012207E-1  -8.742788583769896E-1  
 1.101275318829707E9     4.867684245109558E-1  -8.760304629076278E-1  
 1.103525881470368E9     4.901680052280426E-1  -8.781423055727878E-1  
 1.105776444111028E9     4.854487478733063E-1  -8.791155549700156E-1  
 1.108027006751688E9     4.834075570106506E-1  -8.794289316258234E-1  
 1.110277569392348E9     4.818378984928131E-1  -8.783435162271253E-1  
 1.112528132033008E9     4.787489473819733E-1  -8.807525012812061E-1  
 1.114778694673668E9     4.769485890865326E-1  -8.832511782036995E-1  
 1.117029257314329E9     4.755109548568726E-1  -8.826646515927199E-1  
 1.119279819954989E9     4.745283126831055E-1  -8.838900460764281E-1  
 1.121530382595649E9     4.717495143413544E-1  -8.844432209054204E-1  
 1.123780945236309E9     4.701224267482758E-1  -8.870537210735012E-1  
 1.126031507876969E9     4.679292142391205E-1  -8.872625848436706E-1  
 1.128282070517629E9     4.653179645538330E-1  -8.885072838215413E-1  
 1.130532633158290E9     4.645632803440094E-1  -8.889295758514528E-1  
 1.132783195798950E9     4.624166488647461E-1  -8.915049868646159E-1  
 1.135033758439610E9     4.588984847068787E-1  -8.917006385294891E-1  
 1.137284321080270E9     4.587177038192749E-1  -8.937588751185711E-1  
 1.139534883720930E9     4.586561620235443E-1  -8.926679978967802E-1  
 1.141785446361590E9     4.548899829387665E-1  -8.918053430260867E-1  
 1.144036009002251E9     4.535773396492004E-1  -8.936154421458452E-1  
 1.146286571642911E9     4.493786990642548E-1  -8.971681891100735E-1  
 1.148537134283571E9     4.494563937187195E-1  -8.958041459318181E-1  
 1.150787696924231E9     4.464706778526306E-1  -8.992248409481742E-1  
 1.153038259564891E9     4.470633864402771E-1  -8.979263203805419E-1  
 1.155288822205551E9     4.419987201690674E-1  -8.988546852576654E-1  
 1.157539384846211E9     4.429318606853485E-1  -8.995454748175953E-1  
 1.159789947486872E9     4.429217875003815E-1  -9.027676714537505E-1  
 1.162040510127532E9     4.383036196231842E-1  -9.049840430010490E-1  
 1.164291072768192E9     4.364088773727417E-1  -9.038046500932596E-1  
 1.166541635408852E9     4.354482591152191E-1  -9.054829846531441E-1  
 1.168792198049512E9     4.311659932136536E-1  -9.058414945545190E-1  
 1.171042760690172E9     4.294278919696808E-1  -9.067869719830095E-1  
 1.173293323330833E9     4.296555817127228E-1  -9.081354018990220E-1  
 1.175543885971493E9     4.267917871475220E-1  -9.106163306819973E-1  
 1.177794448612153E9     4.233896434307098E-1  -9.089691287434487E-1  
 1.180045011252813E9     4.190746545791626E-1  -9.130463439118862E-1  
 1.182295573893473E9     4.205381274223328E-1  -9.131217270210934E-1  
 1.184546136534133E9     4.199002385139465E-1  -9.136074862771233E-1  
 1.186796699174794E9     4.160006344318390E-1  -9.134130671304797E-1  
 1.189047261815454E9     4.131199717521668E-1  -9.139754809654342E-1  
 1.191297824456114E9     4.098224341869354E-1  -9.150681126229896E-1  
 1.193548387096774E9     4.095407724380493E-1  -9.154654862524139E-1  
 1.195798949737434E9     4.076642394065857E-1  -9.173260685274369E-1  
 1.198049512378094E9     4.072805643081665E-1  -9.160471716113645E-1  
 1.200300075018755E9     4.035073220729828E-1  -9.191449662372886E-1  
 1.202550637659415E9     4.010400772094727E-1  -9.196171451390741E-1  
 1.204801200300075E9     4.005464017391205E-1  -9.193727265824067E-1  
 1.207051762940735E9     3.970572054386139E-1  -9.199168228475096E-1  
 1.209302325581395E9     3.961147665977478E-1  -9.220678655166982E-1  
 1.211552888222055E9     3.939278423786163E-1  -9.222826020603641E-1  
 1.213803450862716E9     3.922341465950012E-1  -9.237856407766438E-1  
 1.216054013503376E9     3.889924287796021E-1  -9.240899443773628E-1  
 1.218304576144036E9     3.898034989833832E-1  -9.240817320124147E-1  
 1.220555138784696E9     3.860721290111542E-1  -9.249454322267507E-1  
 1.222805701425356E9     3.844117522239685E-1  -9.270220160134015E-1  
 1.225056264066016E9     3.809733986854553E-1  -9.293026020536283E-1  
 1.227306826706677E9     3.813243508338928E-1  -9.287829028609818E-1  
 1.229557389347337E9     3.796347379684448E-1  -9.303984245265115E-1  
 1.231807951987997E9     3.764396011829376E-1  -9.303742113352990E-1  
 1.234058514628657E9     3.738071620464325E-1  -9.313150727270461E-1  
 1.236309077269317E9     3.729359805583954E-1  -9.323485733849937E-1  
 1.238559639909977E9     3.716520071029663E-1  -9.344523333450372E-1  
 1.240810202550638E9     3.685358464717865E-1  -9.349050950969207E-1  
 1.243060765191298E9     3.653006553649902E-1  -9.365987704959381E-1  
 1.245311327831958E9     3.632934987545013E-1  -9.347680434191400E-1  
 1.247561890472618E9     3.609347343444824E-1  -9.382442182295123E-1  
 1.249812453113278E9     3.613820374011993E-1  -9.378158920027561E-1  
 1.252063015753938E9     3.580926358699799E-1  -9.387315150753657E-1  
 1.254313578394599E9     3.557401299476624E-1  -9.401701309992453E-1  
 1.256564141035259E9     3.538424670696259E-1  -9.414756418694817E-1  
 1.258814703675919E9     3.516465425491333E-1  -9.402760386041507E-1  
 1.261065266316579E9     3.484985828399658E-1  -9.409794666837517E-1  
 1.263315828957239E9     3.461116254329681E-1  -9.428046640024301E-1  
 1.265566391597899E9     3.455346524715424E-1  -9.414120848812980E-1  
 1.267816954238560E9     3.435390591621399E-1  -9.422089619544339E-1  
 1.270067516879220E9     3.423562049865723E-1  -9.448569522166026E-1  
 1.272318079519880E9     3.398738801479340E-1  -9.466763302785579E-1  
 1.274568642160540E9     3.399391174316406E-1  -9.453382921557860E-1  
 1.276819204801200E9     3.350625932216644E-1  -9.460736094109599E-1  
 1.279069767441860E9     3.334801793098450E-1  -9.464337208094372E-1  
 1.281320330082521E9     3.330124616622925E-1  -9.477159261285644E-1  
 1.283570892723181E9     3.282141387462616E-1  -9.488811882420120E-1  
 1.285821455363841E9     3.267549276351929E-1  -9.499961193429296E-1  
 1.288072018004501E9     3.245335817337036E-1  -9.514731458791933E-1  
 1.290322580645161E9     3.232724666595459E-1  -9.511738624542444E-1  
 1.292573143285821E9     3.195383250713348E-1  -9.535086881296507E-1  
 1.294823705926482E9     3.187361955642700E-1  -9.534270522299626E-1  
 1.297074268567142E9     3.156365156173706E-1  -9.531291598539560E-1  
 1.299324831207802E9     3.161660432815552E-1  -9.527342104808311E-1  
 1.301575393848462E9     3.132992386817932E-1  -9.551052103079522E-1  
 1.303825956489122E9     3.100714981555939E-1  -9.560046400661534E-1  
 1.306076519129782E9     3.092949092388153E-1  -9.558963886461541E-1  
 1.308327081770443E9     3.061122000217438E-1  -9.587326248565209E-1  
 1.310577644411103E9     3.044821619987488E-1  -9.596575865571664E-1  
 1.312828207051763E9     3.008888363838196E-1  -9.606797891236484E-1  
 1.315078769692423E9     2.996153831481934E-1  -9.598073152943110E-1  
 1.317329332333083E9     2.980620265007019E-1  -9.601707108523979E-1  
 1.319579894973743E9     2.953994572162628E-1  -9.599524289150835E-1  
 1.321830457614404E9     2.924438118934631E-1  -9.600026091713894E-1  
 1.324081020255064E9     2.898603379726410E-1  -9.616535206947880E-1  
 1.326331582895724E9     2.875374555587769E-1  -9.605484481777386E-1  
 1.328582145536384E9     2.875466644763947E-1  -9.623452421087546E-1  
 1.330832708177044E9     2.844283282756805E-1  -9.638058748835086E-1  
 1.333083270817704E9     2.836206853389740E-1  -9.634794472827646E-1  
 1.335333833458365E9     2.790975868701935E-1  -9.638640441532885E-1  
 1.337584396099025E9     2.796626389026642E-1  -9.637411708467414E-1  
 1.339834958739685E9     2.770016789436340E-1  -9.664015519117074E-1  
 1.342085521380345E9     2.744665741920471E-1  -9.657479388445942E-1  
 1.344336084021005E9     2.728621959686279E-1  -9.672593888244885E-1  
 1.346586646661665E9     2.693207859992981E-1  -9.685388873208156E-1  
 1.348837209302326E9     2.663727700710297E-1  -9.684086889099171E-1  
 1.351087771942986E9     2.677722573280335E-1  -9.695586801620488E-1  
 1.353338334583646E9     2.633675932884216E-1  -9.694523276011354E-1  
 1.355588897224306E9     2.600493729114533E-1  -9.706344266807470E-1  
 1.357839459864966E9     2.594585418701172E-1  -9.709307297603536E-1  
 1.360090022505626E9     2.582810819149017E-1  -9.714210501869873E-1  
 1.362340585146287E9     2.543762028217316E-1  -9.725496314001748E-1  
 1.364591147786947E9     2.552891969680786E-1  -9.738817460424298E-1  
 1.366841710427607E9     2.516341209411621E-1  -9.728860923166853E-1  
 1.369092273068267E9     2.486955374479294E-1  -9.747287238554461E-1  
 1.371342835708927E9     2.462485134601593E-1  -9.729307644603470E-1  
 1.373593398349587E9     2.454150617122650E-1  -9.753493628678509E-1  
 1.375843960990248E9     2.427244037389755E-1  -9.751491424843484E-1  
 1.378094523630908E9     2.400243580341339E-1  -9.747684572812672E-1  
 1.380345086271568E9     2.390809655189514E-1  -9.749995196447182E-1  
 1.382595648912228E9     2.375031113624573E-1  -9.767087254564478E-1  
 1.384846211552888E9     2.342149913311005E-1  -9.771263636544059E-1  
 1.387096774193548E9     2.328616082668304E-1  -9.768852640287615E-1  
 1.389347336834209E9     2.290447056293488E-1  -9.770487799973551E-1  
 1.391597899474869E9     2.271462231874466E-1  -9.780586930543902E-1  
 1.393848462115529E9     2.249407768249512E-1  -9.790006917689956E-1  
 1.396099024756189E9     2.237537801265717E-1  -9.804100844058440E-1  
 1.398349587396849E9     2.214615941047669E-1  -9.801614196405724E-1  
 1.400600150037509E9     2.212017327547073E-1  -9.811440051737868E-1  
 1.402850712678170E9     2.165796160697937E-1  -9.811174028034467E-1  
 1.405101275318830E9     2.152658700942993E-1  -9.823754210934088E-1  
 1.407351837959490E9     2.121447771787643E-1  -9.830422772446502E-1  
 1.409602400600150E9     2.089419066905975E-1  -9.811090174472318E-1  
 1.411852963240810E9     2.079120278358460E-1  -9.830781414465259E-1  
 1.414103525881470E9     2.058887630701065E-1  -9.852556806796360E-1  
 1.416354088522131E9     2.052655816078186E-1  -9.839593466277947E-1  
 1.418604651162791E9     2.052016407251358E-1  -9.850743033859941E-1  
 1.420855213803451E9     1.993804574012756E-1  -9.849483835511597E-1  
 1.423105776444111E9     1.980350613594055E-1  -9.855900195008274E-1  
 1.425356339084771E9     1.957088708877564E-1  -9.865182014631014E-1  
 1.427606901725431E9     1.933022737503052E-1  -9.870958186527346E-1  
 1.429857464366092E9     1.861199289560318E-1  -9.885332736021174E-1  
 1.432108027006752E9     1.911924630403519E-1  -9.867856269514830E-1  
 1.434358589647412E9     1.877096891403198E-1  -9.872340669464513E-1  
 1.436609152288072E9     1.848239749670029E-1  -9.886018869923691E-1  
 1.438859714928732E9     1.840285509824753E-1  -9.872782301316851E-1  
 1.441110277569392E9     1.791345328092575E-1  -9.893780649245180E-1  
 1.443360840210053E9     1.790573298931122E-1  -9.896360852675886E-1  
 1.445611402850713E9     1.771046221256256E-1  -9.889155881813134E-1  
 1.447861965491373E9     1.732606440782547E-1  -9.888966644788967E-1  
 1.450112528132033E9     1.715402901172638E-1  -9.887556292366746E-1  
 1.452363090772693E9     1.689341664314270E-1  -9.886631370637660E-1  
 1.454613653413353E9     1.677901744842529E-1  -9.915002536776915E-1  
 1.456864216054014E9     1.640608161687851E-1  -9.929846656643333E-1  
 1.459114778694674E9     1.635208576917648E-1  -9.893048867202018E-1  
 1.461365341335334E9     1.612085998058319E-1  -9.907744572181828E-1  
 1.463615903975994E9     1.569183766841888E-1  -9.913478455534944E-1  
 1.465866466616654E9     1.551802158355713E-1  -9.916158070585152E-1  
 1.468117029257314E9     1.539032310247421E-1  -9.920955028651339E-1  
 1.470367591897975E9     1.516074389219284E-1  -9.914466754499937E-1  
 1.472618154538635E9     1.507788598537445E-1  -9.923940305625650E-1  
 1.474868717179295E9     1.488541364669800E-1  -9.917003080121504E-1  
 1.477119279819955E9     1.435183733701706E-1  -9.965134313942099E-1  
 1.479369842460615E9     1.424008756875992E-1  -9.938685316802726E-1  
 1.481620405101275E9     1.412117332220078E-1  -9.953384968788501E-1  
 1.483870967741936E9     1.393328756093979E-1  -9.938095095587697E-1  
 1.486121530382596E9     1.379517167806625E-1  -9.962064327719516E-1  
 1.488372093023256E9     1.356510668992996E-1  -9.952928207066063E-1  
 1.490622655663916E9     1.311691403388977E-1  -9.956588365496514E-1  
 1.492873218304576E9     1.308702379465103E-1  -9.957421501580878E-1  
 1.495123780945236E9     1.288252919912338E-1  -9.950051920855652E-1  
 1.497374343585897E9     1.262673586606979E-1  -9.967115557235204E-1  
 1.499624906226557E9     1.244409903883934E-1  -9.977127294274680E-1  
 1.501875468867217E9     1.219888255000114E-1  -9.982598322711076E-1  
 1.504126031507877E9     1.208195537328720E-1  -9.975586662721507E-1  
 1.506376594148537E9     1.179745271801949E-1  -9.979421066582972E-1  
 1.508627156789197E9     1.153735518455505E-1  -9.984123823802036E-1  
 1.510877719429858E9     1.113381832838059E-1  -1.000048926951392  
 1.513128282070518E9     1.121699139475822E-1  -1.000107345811152  
 1.515378844711178E9     1.092588678002358E-1  -9.970741443648894E-1  
 1.517629407351838E9     1.056104749441147E-1  -9.996463139557660E-1  
 1.519879969992498E9     1.028827205300331E-1  -9.983014025218996E-1  
 1.522130532633158E9     1.024475917220116E-1  -9.999810300265040E-1  
 1.524381095273819E9     9.994094073772430E-2  -9.976972344372883E-1  
 1.526631657914479E9     9.770348668098450E-2  -9.992716687409747E-1  
 1.528882220555139E9     9.702803939580917E-2  -1.000179355255473  
 1.531132783195799E9     9.158179163932800E-2  -9.986431539007128E-1  
 1.533383345836459E9     9.293783456087112E-2  -1.000386706653994  
 1.535633908477119E9     9.108608961105347E-2  -1.000594605994542  
 1.537884471117779E9     8.413703739643097E-2  -1.001337607834218  
 1.540135033758440E9     8.171846717596054E-2  -9.999116339984587E-1  
 1.542385596399100E9     8.152523636817932E-2  -1.000514756883549  
 1.544636159039760E9     7.920058816671372E-2  -1.002876395648521  
 1.546886721680420E9     7.787153869867325E-2  -1.000255109587998  
 1.549137284321080E9     7.570870965719223E-2  -1.000118353236751  
 1.551387846961741E9     7.464019954204559E-2  -1.001188850313908  
 1.553638409602401E9     7.027316838502884E-2  -1.001779393641215  
 1.555888972243061E9     6.858356297016144E-2  -1.001224695025240  
 1.558139534883721E9     6.518483161926270E-2  -1.000720909469872  
 1.560390097524381E9     6.390163302421570E-2  -1.001482662325478  
 1.562640660165041E9     6.355635821819305E-2  -1.001998694905476  
 1.564891222805701E9     6.272227317094803E-2  -1.002671930631759  
 1.567141785446362E9     5.957797169685364E-2  -1.003644803939225  
 1.569392348087022E9     5.452596396207809E-2  -1.002873553251084  
 1.571642910727682E9     5.569775030016899E-2  -1.002603012119283  
 1.573893473368342E9     4.795477166771889E-2  -1.003445427737157  
 1.576144036009002E9     4.924903437495232E-2  -1.005756864928089  
 1.578394598649663E9     4.729606583714485E-2  -1.005185470969160  
 1.580645161290323E9     4.236203804612160E-2  -1.002543112310487  
 1.582895723930983E9     4.106610640883446E-2  -1.003182111625132  
 1.585146286571643E9     3.937579318881035E-2  -1.002554881436822  
 1.587396849212303E9     3.858627378940582E-2  -1.003460924786101  
 1.589647411852963E9     3.747545927762985E-2  -1.002983177828526  
 1.591897974493623E9     3.079798817634583E-2  -1.002403991704525  
 1.594148537134284E9     3.051418438553810E-2  -1.003468416195069  
 1.596399099774944E9     2.804748527705669E-2  -1.003169373542586  
 1.598649662415604E9     2.613130584359169E-2  -1.003087721414036  
 1.600900225056264E9     2.422641403973103E-2  -1.004656037763673  
 1.603150787696924E9     2.381211705505848E-2  -1.004289125613190  
 1.605401350337585E9     2.102501131594181E-2  -1.002790732509370  
 1.607651912978245E9     1.656834967434406E-2  -1.004094113671907  
 1.609902475618905E9     1.596403494477272E-2  -1.003192798154816  
 1.612153038259565E9     1.425214670598507E-2  -1.004259988526437  
 1.614403600900225E9     1.204352639615536E-2  -1.003733906126029  
 1.616654163540885E9     8.813942782580853E-3  -1.003664492824397  
 1.618904726181545E9     9.131162427365780E-3  -1.004608548026667  
 1.621155288822206E9     3.180476836860180E-3  -1.005129745119741  
 1.623405851462866E9     4.268309101462364E-3  -1.005029426516737  
 1.625656414103526E9     1.006593811325729E-3  -1.002933872804226  
 1.627906976744186E9    -9.954844135791063E-4  -1.004335418997229  
