#  HZ   S   RI   R     50.0 
! Rohde & Schwarz ZVL13 2Ports - Version 3.31 - 1303.6509k13 SN: 101088
! Date: 2023-03-06 15:26:01
! Data & Calibration Information:
! Trc4:S11(TOSM) Trc2:S21(TOSM) Trc3:S12(TOSM) Trc5:S22(TOSM)
! 
! 
! 
 7.000000000000000E9     3.457069374620915E-2   1.577913720196668E-1  -8.090298359644698E-1  -4.986770075559617E-1  -7.695276089285239E-1  -5.390001362562180E-1  -1.254653411917388E-2   1.625429506453158E-1  
 7.000750187546886E9     3.586450118571520E-2   1.553077722178181E-1  -8.098966360759414E-1  -4.953193137049676E-1  -7.728224929442974E-1  -5.376471865177155E-1  -1.444800650700927E-2   1.589981458570708E-1  
 7.001500375093774E9     3.385863557457924E-2   1.516631061726470E-1  -8.110509722690817E-1  -4.905895957350732E-1  -7.750614305180813E-1  -5.368371170759201E-1  -1.262915735132992E-2   1.592381912410425E-1  
 7.002250562640660E9     3.546979729086161E-2   1.507818208721775E-1  -8.091943741671991E-1  -4.881942901015283E-1  -7.772894343523233E-1  -5.352789998054505E-1  -1.795380812138319E-2   1.525652777861132E-1  
 7.003000750187547E9     3.351557392627002E-2   1.488948332976260E-1  -8.085620841952740E-1  -4.832607561349869E-1  -7.804317824152783E-1  -5.335276013612749E-1  -1.269086226820946E-2   1.519937777033924E-1  
 7.003750937734433E9     3.334349937736988E-2   1.474092253175494E-1  -8.084349018674002E-1  -4.786240872740746E-1  -7.829692023901642E-1  -5.325401645898820E-1  -1.555947709828616E-2   1.529104749340168E-1  
 7.004501125281321E9     3.510411273688078E-2   1.453511580831611E-1  -8.079296356458263E-1  -4.758070269227029E-1  -7.855428763464960E-1  -5.315765231847766E-1  -1.588466647081077E-2   1.492230190418294E-1  
 7.005251312828207E9     3.710227150470019E-2   1.501846613343163E-1  -8.046637718928950E-1  -4.730108568072320E-1  -7.872821228202783E-1  -5.292642182111741E-1  -1.176261290907860E-2   1.439951039402195E-1  
 7.006001500375094E9     3.457367882132531E-2   1.458474968524511E-1  -8.040852997945613E-1  -4.689100179076195E-1  -7.892527548373229E-1  -5.271484851837158E-1  -1.457287861965597E-2   1.447406695972443E-1  
 7.006751687921981E9     3.477946128696204E-2   1.492404283266362E-1  -8.024909019566342E-1  -4.671701210737229E-1  -7.904854294676784E-1  -5.265180879831315E-1  -1.381369573995471E-2   1.417030696978999E-1  
 7.007501875468867E9     3.425843715667724E-2   1.448313829463810E-1  -8.007413532522013E-1  -4.633989605307580E-1  -7.935813421889203E-1  -5.233991521596909E-1  -1.408304780721665E-2   1.390297960327992E-1  
 7.008252063015754E9     3.418061867356301E-2   1.418232305061549E-1  -7.994273108537822E-1  -4.611187618970872E-1  -7.944065282353907E-1  -5.208495712280273E-1  -1.483481496572495E-2   1.353617628488191E-1  
 7.009002250562640E9     2.943409081548452E-2   1.431641386824245E-1  -7.976445541024040E-1  -4.580638182163239E-1  -7.975434749478866E-1  -5.157651388645175E-1  -1.309799666516483E-2   1.353414422048149E-1  
 7.009752438109528E9     3.033192578703166E-2   1.426629464588999E-1  -7.952409809302373E-1  -4.560471820831299E-1  -7.979254005216745E-1  -5.155473548173905E-1  -1.362038939259947E-2   1.358251117334681E-1  
 7.010502625656414E9     2.975495098158718E-2   1.409847377565408E-1  -7.947413724481013E-1  -4.554966294765472E-1  -7.998581397564430E-1  -5.126598143577574E-1  -1.397681615315378E-2   1.292327073918793E-1  
 7.011252813203301E9     2.732004459947348E-2   1.388227331132505E-1  -7.929164309361438E-1  -4.533262252807618E-1  -8.016952289678752E-1  -5.098801088333133E-1  -1.329122011549771E-2   1.287198063149645E-1  
 7.012003000750188E9     2.957893177866936E-2   1.380691072188819E-1  -7.900677168288499E-1  -4.529035553336144E-1  -8.026651745221752E-1  -5.074790209531784E-1  -1.330172917805613E-2   1.237368477689149E-1  
 7.012753188297074E9     2.772214401513338E-2   1.415586133122441E-1  -7.883214267903814E-1  -4.502849560976029E-1  -8.039047974096640E-1  -5.045042783021927E-1  -1.264693422242999E-2   1.274439199702273E-1  
 7.013503375843961E9     2.607968900352717E-2   1.379535943918985E-1  -7.864026673545418E-1  -4.491461861133576E-1  -8.044258643072273E-1  -5.010422500967980E-1  -1.070299068465829E-2   1.239360326118449E-1  
 7.014253563390848E9     2.469489922747017E-2   1.379627881275243E-1  -7.863873347084980E-1  -4.480885010957719E-1  -8.052834529889884E-1  -4.990864473581315E-1  -1.150273047387600E-2   1.257767548671070E-1  
 7.015003750937735E9     2.407404813915491E-2   1.368583907713243E-1  -7.832938837591620E-1  -4.474114808440208E-1  -8.053251870289229E-1  -4.969958269596100E-1  -1.110968423075974E-2   1.254882412730339E-1  
 7.015753938484621E9     2.257157253101468E-2   1.330334108519872E-1  -7.818938947481269E-1  -4.455645221471787E-1  -8.060390077561854E-1  -4.938452288508415E-1  -9.348258506506682E-3   1.254515872126593E-1  
 7.016504126031508E9     1.974331099539995E-2   1.337855262589970E-1  -7.801638414253603E-1  -4.456155180931092E-1  -8.061438890810528E-1  -4.912135216593743E-1  -4.388557346537710E-3   1.219793950174145E-1  
 7.017254313578395E9     2.231392232701182E-2   1.340963112279874E-1  -7.789751175922441E-1  -4.460232418775558E-1  -8.073847461870539E-1  -4.875904977321626E-1  -7.667726725339891E-3   1.243846757474666E-1  
 7.018004501125281E9     2.223331429064274E-2   1.340330570074157E-1  -7.778027501296942E-1  -4.464711350202561E-1  -8.079890506173360E-1  -4.854437011480333E-1  -5.944920158945024E-3   1.219744642296804E-1  
 7.018754688672168E9     2.265998266637325E-2   1.343970329809128E-1  -7.756358973652433E-1  -4.474091926217080E-1  -8.072351561800290E-1  -4.838096636533737E-1  -3.854857238911792E-4   1.200390333356493E-1  
 7.019504876219055E9     2.668557872995735E-2   1.298183916019676E-1  -7.755138535906834E-1  -4.484234106540681E-1  -8.079855476674224E-1  -4.803246763348579E-1   1.256590820994461E-3   1.231400365010376E-1  
 7.020255063765942E9     2.138457747176290E-2   1.346508497515480E-1  -7.730070611228368E-1  -4.478284803032876E-1  -8.077035144322800E-1  -4.788280948996544E-1   3.942962572909892E-3   1.212679259951919E-1  
 7.021005251312828E9     2.372973473742605E-2   1.309316293671692E-1  -7.728009410490949E-1  -4.486019775271416E-1  -8.065497856467689E-1  -4.752507603168488E-1   3.085389025509358E-3   1.240328855164104E-1  
 7.021755438859715E9     2.171076232567430E-2   1.318433070352552E-1  -7.719183607055781E-1  -4.488492667675019E-1  -8.074441291577692E-1  -4.736537209153175E-1   7.203015605919063E-3   1.248608689821835E-1  
 7.022505626406602E9     2.222833791747689E-2   1.296052302028918E-1  -7.724649970044819E-1  -4.494803774356843E-1  -8.075680269851806E-1  -4.712506234645844E-1   7.535727079957724E-3   1.196741086159375E-1  
 7.023255813953488E9     2.244615253061056E-2   1.274281549077766E-1  -7.709291183376540E-1  -4.506453916430473E-1  -8.071247764419509E-1  -4.688740178942681E-1   1.374042360112071E-2   1.253355610565700E-1  
 7.024006001500375E9     2.066463073715568E-2   1.296505408803348E-1  -7.716713841335172E-1  -4.524222397804260E-1  -8.062494776186366E-1  -4.671661275625230E-1   1.322782694362104E-2   1.227475607252990E-1  
 7.024756189047262E9     2.199125619605184E-2   1.260531090651497E-1  -7.706766771474830E-1  -4.547068071365357E-1  -8.035192430801856E-1  -4.680569291114807E-1   1.529682657681406E-2   1.265344237239313E-1  
 7.025506376594149E9     2.097449434921146E-2   1.277239746179854E-1  -7.710638387714053E-1  -4.554779165983200E-1  -8.067066423472994E-1  -4.637555563449859E-1   1.791124142706394E-2   1.224256322577892E-1  
 7.026256564141035E9     2.165808953344823E-2   1.293502433029888E-1  -7.723995371049831E-1  -4.556083354353905E-1  -8.062751914151221E-1  -4.607085296511651E-1   2.135662106797099E-2   1.272543427309786E-1  
 7.027006751687922E9     2.433802161365747E-2   1.264838581150088E-1  -7.722486136550194E-1  -4.597756958007812E-1  -8.033849472061403E-1  -4.600126174092293E-1   2.578736266121268E-2   1.271538206059699E-1  
 7.027756939234809E9     2.313928380608559E-2   1.267576463065150E-1  -7.739586606433938E-1  -4.590309086441993E-1  -8.033729414540217E-1  -4.608315148949623E-1   2.475545952096582E-2   1.284983527026400E-1  
 7.028507126781695E9     2.373768726363779E-2   1.247510399531033E-1  -7.767607207496053E-1  -4.588971123099328E-1  -8.032074498640759E-1  -4.596993219852449E-1   2.690383767709136E-2   1.270503185156742E-1  
 7.029257314328582E9     2.375070080161095E-2   1.242466852027572E-1  -7.776714856392342E-1  -4.625013318657876E-1  -8.039803165105295E-1  -4.569786924123765E-1   3.098900208249688E-2   1.257710712472629E-1  
 7.030007501875469E9     2.413570987060666E-2   1.262563358479054E-1  -7.794115454071644E-1  -4.617211249470711E-1  -8.033744125517055E-1  -4.556619694828988E-1   3.206314988434315E-2   1.256595134336750E-1  
 7.030757689422356E9     2.367988653481007E-2   1.263368083805143E-1  -7.807213493530505E-1  -4.648868516087532E-1  -8.033208265242933E-1  -4.528911292552948E-1   3.352726969867945E-2   1.309735844357801E-1  
 7.031507876969242E9     2.367782641202211E-2   1.230900409352920E-1  -7.843689410888501E-1  -4.645885384082795E-1  -8.020714761660468E-1  -4.540024054050446E-1   3.719989746809006E-2   1.317920809975877E-1  
 7.032258064516130E9     2.356764836236835E-2   1.244954958448836E-1  -7.863146333675295E-1  -4.656652599573136E-1  -8.019291900195606E-1  -4.525771594047546E-1   3.449033036828042E-2   1.326275937081261E-1  
 7.033008252063016E9     2.571207784116268E-2   1.244074759425604E-1  -7.904944633959412E-1  -4.666292175650597E-1  -8.016284083810172E-1  -4.514828637242317E-1   3.995650496333837E-2   1.326010433880396E-1  
 7.033758439609902E9     2.153493830934167E-2   1.243685377874393E-1  -7.932526317584538E-1  -4.672963893413544E-1  -8.012695492893058E-1  -4.514252403378487E-1   3.913832366466522E-2   1.310108252760466E-1  
 7.034508627156789E9     2.402469391003251E-2   1.238555902229847E-1  -7.969757329380960E-1  -4.667407146096231E-1  -8.010154845843672E-1  -4.520710209012032E-1   4.247869446873666E-2   1.349997187420313E-1  
 7.035258814703676E9     2.468672836199403E-2   1.239412294034715E-1  -7.994095663960350E-1  -4.660403266549111E-1  -8.009195248556641E-1  -4.505119499564171E-1   4.181126732379199E-2   1.367751388391369E-1  
 7.036009002250563E9     2.434779226779938E-2   1.244134743121337E-1  -8.034742722694918E-1  -4.660352882742883E-1  -8.009714546820552E-1  -4.503523960709572E-1   4.650737810879946E-2   1.388924080945925E-1  
 7.036759189797449E9     2.338017100468278E-2   1.260750514382928E-1  -8.060322760431578E-1  -4.657634553313256E-1  -8.014839486195196E-1  -4.513407447934151E-1   4.729319278150797E-2   1.368589675202528E-1  
 7.037509377344337E9     2.493870025500656E-2   1.275606990515930E-1  -8.105928918263861E-1  -4.645188593864442E-1  -8.007280420350060E-1  -4.509197911620140E-1   4.548503953963519E-2   1.422469292963103E-1  
 7.038259564891223E9     2.588414074853063E-2   1.244475561204906E-1  -8.153178219380622E-1  -4.625177094340325E-1  -8.023419191494480E-1  -4.498920503258705E-1   4.267190031707287E-2   1.419767581715293E-1  
 7.039009752438109E9     2.621620943769813E-2   1.247450029807121E-1  -8.181998829709809E-1  -4.598813346028328E-1  -8.024802926792580E-1  -4.494600039720536E-1   4.265211019665003E-2   1.436254229804744E-1  
 7.039759939984996E9     2.827841108664871E-2   1.265398223900424E-1  -8.221362739193914E-1  -4.603812631964684E-1  -8.039734468823929E-1  -4.469810700416566E-1   4.277022086083889E-2   1.443578450458200E-1  
 7.040510127531883E9     2.787078153342008E-2   1.285442639128114E-1  -8.266176611031204E-1  -4.550828588008881E-1  -8.048787456284001E-1  -4.492370519042016E-1   4.643782801926136E-2   1.468128308750897E-1  
 7.041260315078770E9     2.772349413484335E-2   1.287726985225963E-1  -8.304423078600486E-1  -4.526705956459046E-1  -8.064746344408489E-1  -4.461312544345856E-1   4.103913057595492E-2   1.484666667746812E-1  
 7.042010502625656E9     3.165348129346968E-2   1.299815663328221E-1  -8.325000337510751E-1  -4.509500297904015E-1  -8.054741060915601E-1  -4.479603466391563E-1   4.039383679628373E-2   1.523726097476132E-1  
 7.042760690172544E9     3.305429976433515E-2   1.330611306396457E-1  -8.361326148052979E-1  -4.496314629912377E-1  -8.056528277856870E-1  -4.489970037341117E-1   4.093844503164291E-2   1.543865006161070E-1  
 7.043510877719430E9     3.197377961128951E-2   1.290742251345484E-1  -8.397800595634798E-1  -4.449030235409738E-1  -8.079517078731010E-1  -4.488604238629342E-1   4.265426997095346E-2   1.554528282336023E-1  
 7.044261065266316E9     3.408792607486248E-2   1.296185389788720E-1  -8.420722277049111E-1  -4.414844569563866E-1  -8.106424635629236E-1  -4.480037340521813E-1   4.133854266256094E-2   1.539389520108422E-1  
 7.045011252813203E9     3.561295535415411E-2   1.331628762316700E-1  -8.443756851426312E-1  -4.391727048158646E-1  -8.100004481314839E-1  -4.483208212256432E-1   3.969254788011312E-2   1.587225150324124E-1  
 7.045761440360090E9     3.667064268141985E-2   1.336904095475965E-1  -8.474745081733115E-1  -4.349813660979272E-1  -8.121279372802411E-1  -4.474394157528878E-1   3.684727340936662E-2   1.595257170700507E-1  
 7.046511627906977E9     3.635184798389674E-2   1.330067011840515E-1  -8.505210652205300E-1  -4.295967695116997E-1  -8.134156387782835E-1  -4.478876027464867E-1   3.728389110416175E-2   1.607828654782452E-1  
 7.047261815453863E9     3.532742455601692E-2   1.331860498609409E-1  -8.519507551773309E-1  -4.253296947479248E-1  -8.166820157019037E-1  -4.462426409125329E-1   3.654088582843543E-2   1.595555477459656E-1  
 7.048012003000751E9     3.993048898875714E-2   1.335001374137043E-1  -8.544676360540369E-1  -4.230022856593132E-1  -8.164792744846412E-1  -4.464800786972046E-1   3.401561573147774E-2   1.641824050154343E-1  
 7.048762190547637E9     4.237530346959829E-2   1.345941371043692E-1  -8.559303545774645E-1  -4.180182516574860E-1  -8.202528453059674E-1  -4.462616732716561E-1   3.414212584495545E-2   1.638067396016882E-1  
 7.049512378094523E9     3.949913464486599E-2   1.314010663995903E-1  -8.577112676363263E-1  -4.129587444663048E-1  -8.209104748723104E-1  -4.461388912796975E-1   3.070669293403626E-2   1.645229839472136E-1  
 7.050262565641411E9     4.263331063091756E-2   1.327046851586523E-1  -8.591720703943085E-1  -4.072518593072892E-1  -8.230007817054001E-1  -4.442093235254289E-1   3.322532482445240E-2   1.646350229068265E-1  
 7.051012753188297E9     4.311302844434976E-2   1.346377669187478E-1  -8.584833057825202E-1  -4.048146256804467E-1  -8.246065964560400E-1  -4.428329998254776E-1   2.654306136071682E-2   1.677064303390679E-1  
 7.051762940735184E9     4.508343819528818E-2   1.302289591809933E-1  -8.603832374473289E-1  -3.984491345286370E-1  -8.293131306586978E-1  -4.430140763521195E-1   3.218551853671670E-2   1.658950220177310E-1  
 7.052513128282070E9     4.621815580874682E-2   1.328169048596832E-1  -8.600496806384848E-1  -3.937332299351692E-1  -8.302580652144573E-1  -4.417826819419861E-1   3.257876459509135E-2   1.685914294744210E-1  
 7.053263315828958E9     4.645466316491365E-2   1.339762115226459E-1  -8.583123006532013E-1  -3.909917721152306E-1  -8.316179674535345E-1  -4.386568170785904E-1   2.551770465448499E-2   1.651531419853290E-1  
 7.054013503375844E9     4.796401388943197E-2   1.316599365178495E-1  -8.579767279244320E-1  -3.868895643949510E-1  -8.332282888731717E-1  -4.389596906304361E-1   2.576591903343797E-2   1.681349979985567E-1  
 7.054763690922730E9     5.029696550220252E-2   1.336061108602528E-1  -8.569026083910888E-1  -3.827118715643883E-1  -8.352764938379002E-1  -4.363318330049515E-1   2.680516891181469E-2   1.665237981801018E-1  
 7.055513878469618E9     4.900228343904019E-2   1.320455331532941E-1  -8.557496410287563E-1  -3.791340991854668E-1  -8.376576674765428E-1  -4.347903218865395E-1   2.100929027423263E-2   1.637950561146493E-1  
 7.056264066016504E9     4.955667510628701E-2   1.320181486356345E-1  -8.551260770154376E-1  -3.750314635038377E-1  -8.395997215639039E-1  -4.336608573794365E-1   2.229292089119554E-2   1.621860827899521E-1  
 7.057014253563391E9     5.096887178719044E-2   1.326486706547474E-1  -8.526805011637363E-1  -3.719388520717621E-1  -8.407921317732563E-1  -4.310978746414185E-1   2.022277519106865E-2   1.642845625780561E-1  
 7.057764441110277E9     5.024561416357756E-2   1.294467451761872E-1  -8.533543589105355E-1  -3.684678623080255E-1  -8.424191822082715E-1  -4.299050730466844E-1   1.479169742204249E-2   1.598618347057198E-1  
 7.058514628657165E9     4.950052350759507E-2   1.311301862864155E-1  -8.499648699126366E-1  -3.646761861443520E-1  -8.450174952212852E-1  -4.258836534619332E-1   1.691553156822920E-2   1.609447974351647E-1  
 7.059264816204051E9     5.201876174658537E-2   1.285782250626488E-1  -8.502082626964036E-1  -3.624323683977127E-1  -8.461311841789825E-1  -4.239600905776024E-1   1.099653782323003E-2   1.610004170553348E-1  
 7.060015003750938E9     5.123624481260777E-2   1.300157040399762E-1  -8.472805547627342E-1  -3.602738431096078E-1  -8.474180640804134E-1  -4.210426491498948E-1   1.031366769224405E-2   1.593927579788898E-1  
 7.060765191297825E9     5.002767294645311E-2   1.287239186742751E-1  -8.445090696905376E-1  -3.580088591575623E-1  -8.487205179390034E-1  -4.184630286693574E-1   1.093915722332895E-2   1.566084967913375E-1  
 7.061515378844711E9     4.991404470056297E-2   1.278364033122985E-1  -8.419083909671654E-1  -3.557988730072975E-1  -8.498914354054548E-1  -4.157941406965257E-1   7.237025937065483E-3   1.545102634431095E-1  
 7.062265566391598E9     5.056420940905810E-2   1.313398137639668E-1  -8.392019451353744E-1  -3.548483896255493E-1  -8.507141116374820E-1  -4.148456007242203E-1   6.154238898307086E-3   1.514788926276110E-1  
 7.063015753938484E9     4.938791424036027E-2   1.300316965953532E-1  -8.380960787863512E-1  -3.528976058959961E-1  -8.507483695234227E-1  -4.108867397904396E-1   4.484931096667423E-3   1.506242623225199E-1  
 7.063765941485372E9     4.829979881644248E-2   1.310497710139540E-1  -8.359683470195154E-1  -3.512353301048279E-1  -8.520325126614325E-1  -4.079995763301849E-1   2.226280025206506E-3   1.486327604947677E-1  
 7.064516129032258E9     4.921407897025347E-2   1.306336260495841E-1  -8.335786638503406E-1  -3.498383125662804E-1  -8.511527720013713E-1  -4.062369722127915E-1  -1.182715950562852E-3   1.498735894857315E-1  
 7.065266316579145E9     4.660558708012104E-2   1.278533183616902E-1  -8.317264238110694E-1  -3.489056602120400E-1  -8.521430817728557E-1  -4.034663969278335E-1  -2.141107693605591E-3   1.466823526948601E-1  
 7.066016504126032E9     4.852334439754487E-2   1.307288490277319E-1  -8.292850376975377E-1  -3.487610667943955E-1  -8.523126227343056E-1  -4.017978575825691E-1  -4.170779401902109E-3   1.460047937653153E-1  
 7.066766691672918E9     4.903793983161450E-2   1.306756910762147E-1  -8.267921366331755E-1  -3.481293392181397E-1  -8.530789364682687E-1  -3.985431832075120E-1  -6.187683539465071E-3   1.418952051558639E-1  
 7.067516879219805E9     4.625937484204769E-2   1.292740117454733E-1  -8.249937970729174E-1  -3.472331023216247E-1  -8.526707575837722E-1  -3.970528393983841E-1  -6.228002565912903E-3   1.410418670147093E-1  
 7.068267066766691E9     4.689894661307335E-2   1.293900464043980E-1  -8.228840899143221E-1  -3.484912633895874E-1  -8.531644319835425E-1  -3.940221840143204E-1  -7.221314078196883E-3   1.377772983568855E-1  
 7.069017254313579E9     4.684025365859271E-2   1.292417343255898E-1  -8.211133808510336E-1  -3.486505734920502E-1  -8.532861604245259E-1  -3.928466889262200E-1  -6.669178530573846E-3   1.395858504389428E-1  
 7.069767441860465E9     4.624449323862791E-2   1.317940817582567E-1  -8.193039510942264E-1  -3.489658614993095E-1  -8.525216117781878E-1  -3.889431017637253E-1  -7.861009119078517E-3   1.371786552878934E-1  
