#  HZ   S   RI   R     50.0 
! Rohde & Schwarz ZVL13 2Ports - Version 3.31 - 1303.6509k13 SN: 101088
! Date: 2023-03-06 15:24:12
! Data & Calibration Information:
! Trc4:S11(TOSM) Trc2:S21(TOSM) Trc3:S12(TOSM) Trc5:S22(TOSM)
! 
! 
! 
 7.000000000000000E9     3.162427479401232E-2   1.498037364584038E-1  -8.130100529072529E-1  -4.921531483530999E-1  -7.752482769486074E-1  -5.309987890720367E-1  -9.670962532982231E-3   1.549050926200392E-1  
 7.000750187546886E9     3.318278431892396E-2   1.470378607159769E-1  -8.138646179852622E-1  -4.889112019538880E-1  -7.786577770056938E-1  -5.293676096200944E-1  -1.111044255085290E-2   1.513157777578101E-1  
 7.001500375093774E9     3.104327196255327E-2   1.434621014675077E-1  -8.150461478593165E-1  -4.843414035439492E-1  -7.810646879613302E-1  -5.285278248786928E-1  -8.771046381443741E-3   1.509013316946479E-1  
 7.002250562640660E9     3.201927963644267E-2   1.425922455369636E-1  -8.134953665879250E-1  -4.816665071249008E-1  -7.830826687935584E-1  -5.270036470890045E-1  -1.476151774637401E-2   1.448336245333184E-1  
 7.003000750187547E9     3.053840581327677E-2   1.399998556305837E-1  -8.128725516639582E-1  -4.771349570155143E-1  -7.857049813963728E-1  -5.252723449468613E-1  -9.767224853858354E-3   1.436445563199605E-1  
 7.003750937734433E9     3.008798291906715E-2   1.389674856020265E-1  -8.125600476539230E-1  -4.725037583708763E-1  -7.883252455479761E-1  -5.241884112358094E-1  -1.233990880660713E-2   1.446846348584784E-1  
 7.004501125281321E9     3.156930249184371E-2   1.374811560960433E-1  -8.123071189421535E-1  -4.694276234507561E-1  -7.907535114826756E-1  -5.227187973260880E-1  -1.253393033519388E-2   1.399305149498815E-1  
 7.005251312828207E9     3.403362795710564E-2   1.422285766821273E-1  -8.094772594160679E-1  -4.672818514704705E-1  -7.926577649002979E-1  -5.206430673599244E-1  -1.011194719932974E-2   1.359926772368466E-1  
 7.006001500375094E9     3.141083495691419E-2   1.379713745074611E-1  -8.083270285663675E-1  -4.628938549757005E-1  -7.947842257571761E-1  -5.183813899755478E-1  -1.101024919189513E-2   1.357122668555812E-1  
 7.006751687921981E9     3.219297744333744E-2   1.411077438262468E-1  -8.066021433561575E-1  -4.613243791460991E-1  -7.960496613448181E-1  -5.173731368780136E-1  -1.048661128617823E-2   1.323774322159896E-1  
 7.007501875468867E9     3.067314852029085E-2   1.368453639406491E-1  -8.054031434500080E-1  -4.571267938613891E-1  -7.989376415678401E-1  -5.146906930208207E-1  -1.160890076309443E-2   1.300746992238143E-1  
 7.008252063015754E9     3.043500080704689E-2   1.337430871876679E-1  -8.043535111222706E-1  -4.546541115641595E-1  -7.999917087948976E-1  -5.115367662906647E-1  -1.150892821140587E-2   1.271150141254684E-1  
 7.009002250562640E9     2.583354122936726E-2   1.358918636881473E-1  -8.024584820887336E-1  -4.518901863694191E-1  -8.019454488076399E-1  -5.069722610712052E-1  -1.082171121612191E-2   1.262523849493761E-1  
 7.009752438109528E9     2.697163997218013E-2   1.343811294291704E-1  -7.996991140492699E-1  -4.501867893338204E-1  -8.025036714328272E-1  -5.072638016939163E-1  -1.058658944442868E-2   1.272161235116569E-1  
 7.010502625656414E9     2.601843094453216E-2   1.332740329921313E-1  -7.990105458135161E-1  -4.495632490515710E-1  -8.044523905754522E-1  -5.037800383567811E-1  -1.100653046742082E-2   1.194795934178661E-1  
 7.011252813203301E9     2.360082942992450E-2   1.307001232738254E-1  -7.978851029509786E-1  -4.473013305664063E-1  -8.061321235682654E-1  -5.012241476774217E-1  -1.046069605275989E-2   1.197200894055212E-1  
 7.012003000750188E9     2.566048556938767E-2   1.303542726365468E-1  -7.950377349159881E-1  -4.468939039111137E-1  -8.074527395681530E-1  -4.991851675510408E-1  -1.057744857855141E-2   1.149115557429491E-1  
 7.012753188297074E9     2.398677395656705E-2   1.341994857084706E-1  -7.933401465202336E-1  -4.443992677330972E-1  -8.086623174647897E-1  -4.961816045641900E-1  -9.560019695200027E-3   1.186011996234439E-1  
 7.013503375843961E9     2.275013279169798E-2   1.306073207259004E-1  -7.916348183472488E-1  -4.430186298489570E-1  -8.092644308653481E-1  -4.928323739767075E-1  -7.419373383745551E-3   1.155772437080349E-1  
 7.014253563390848E9     2.145353771746159E-2   1.304685082753337E-1  -7.911609911956692E-1  -4.425033766031266E-1  -8.099100185283764E-1  -4.910714912414551E-1  -8.599186409264804E-3   1.167366984778617E-1  
 7.015003750937735E9     2.063187127932906E-2   1.292632953145667E-1  -7.883193650548760E-1  -4.418869358301163E-1  -8.100013701921394E-1  -4.884974968433379E-1  -8.015788281336426E-3   1.159764750748229E-1  
 7.015753938484621E9     1.877925878390670E-2   1.259421895201159E-1  -7.875033598661664E-1  -4.402264428138734E-1  -8.106787943445319E-1  -4.856350731849671E-1  -5.697542577981948E-3   1.166127413476137E-1  
 7.016504126031508E9     1.602197535336018E-2   1.257524745229872E-1  -7.858461657806176E-1  -4.398857763409614E-1  -8.113153176375461E-1  -4.825398823618889E-1  -1.098034464521334E-3   1.133704111577182E-1  
 7.017254313578395E9     1.874472945928574E-2   1.262359976655301E-1  -7.852754494811804E-1  -4.403460392355919E-1  -8.122773324364783E-1  -4.796841990947725E-1  -4.088151250034571E-3   1.143446951665047E-1  
 7.018004501125281E9     1.811855765059590E-2   1.262181141930306E-1  -7.837605257853351E-1  -4.410662752389908E-1  -8.126381226265100E-1  -4.775701043009759E-1  -1.862879436812364E-3   1.126965386294517E-1  
 7.018754688672168E9     1.853759435936809E-2   1.261848637448974E-1  -7.818274772080990E-1  -4.419227695465088E-1  -8.119697582756593E-1  -4.753964388370515E-1   3.287181493360550E-3   1.103310251700563E-1  
 7.019504876219055E9     2.204803807660937E-2   1.219127424290402E-1  -7.820920976844775E-1  -4.425033929944038E-1  -8.125901382660470E-1  -4.725455543398858E-1   5.170288025401534E-3   1.132800573973041E-1  
 7.020255063765942E9     1.734547205269337E-2   1.265218230004387E-1  -7.802066591531263E-1  -4.416410472989083E-1  -8.125475042736259E-1  -4.709293630719186E-1   7.346601379103960E-3   1.106026740602047E-1  
 7.021005251312828E9     1.913329882547260E-2   1.227779829313663E-1  -7.797603076439430E-1  -4.426206237077713E-1  -8.116305597862412E-1  -4.677676501870156E-1   6.401503747329116E-3   1.141679011452853E-1  
 7.021755438859715E9     1.689254947006703E-2   1.240661394397091E-1  -7.788162597651378E-1  -4.424495998024942E-1  -8.127347919317614E-1  -4.655602142214776E-1   1.093689253553748E-2   1.145407491291434E-1  
 7.022505626406602E9     1.791143663227558E-2   1.215552685682703E-1  -7.796002514803737E-1  -4.431103768944740E-1  -8.126821621509444E-1  -4.630702367424966E-1   1.090379864908755E-2   1.087425044957991E-1  
 7.023255813953488E9     1.771770488470793E-2   1.181748134316748E-1  -7.776904950228682E-1  -4.437530425190926E-1  -8.116540094701966E-1  -4.611912956833840E-1   1.737112889066339E-2   1.142224541010038E-1  
 7.024006001500375E9     1.529688417911530E-2   1.204784500139409E-1  -7.785193583235421E-1  -4.444870755076408E-1  -8.114074824822046E-1  -4.598523235321045E-1   1.616250308230519E-2   1.129511451920048E-1  
 7.024756189047262E9     1.670155952684582E-2   1.176432138413986E-1  -7.780392037071366E-1  -4.471454676985741E-1  -8.091793683831244E-1  -4.604322335124016E-1   1.811480866745114E-2   1.160368280088154E-1  
 7.025506376594149E9     1.537190248258412E-2   1.197531002036988E-1  -7.782233964085781E-1  -4.478816610574722E-1  -8.124280368207091E-1  -4.554736578464509E-1   2.143703646957875E-2   1.119303512535536E-1  
 7.026256564141035E9     1.615080796182156E-2   1.213685068580759E-1  -7.792797751720788E-1  -4.487370091676713E-1  -8.122415053324448E-1  -4.530679699778558E-1   2.533187745139003E-2   1.163298434824529E-1  
 7.027006751687922E9     1.916544891893864E-2   1.184892639996272E-1  -7.792675304123612E-1  -4.521737220883370E-1  -8.089729703572182E-1  -4.525640872120857E-1   2.964860057458282E-2   1.164208328211524E-1  
 7.027756939234809E9     1.800623858347535E-2   1.192243391213856E-1  -7.807850073146931E-1  -4.512444669008255E-1  -8.090885651138132E-1  -4.525438266992569E-1   2.761973798274994E-2   1.182954700435233E-1  
 7.028507126781695E9     1.885352918878198E-2   1.170225190759420E-1  -7.838660005797902E-1  -4.512295630574227E-1  -8.093952272059731E-1  -4.516638696193696E-1   3.006521429866553E-2   1.162738208876937E-1  
 7.029257314328582E9     1.811664284206927E-2   1.160247089851546E-1  -7.849976108528340E-1  -4.544279000163079E-1  -8.102510293141627E-1  -4.490414130687714E-1   3.355225764214993E-2   1.153733860399571E-1  
 7.030007501875469E9     1.876763753592968E-2   1.179512399096974E-1  -7.868452906650597E-1  -4.539537286758423E-1  -8.099748415156806E-1  -4.476739126443864E-1   3.495637305080891E-2   1.146927603451472E-1  
 7.030757689422356E9     1.819248529151082E-2   1.174156674188295E-1  -7.883031013292354E-1  -4.566734293103219E-1  -8.099819560633037E-1  -4.444659051299096E-1   3.744150094687938E-2   1.195528671252546E-1  
 7.031507876969242E9     1.797815617173910E-2   1.151482335428419E-1  -7.918965353075662E-1  -4.567870786786080E-1  -8.089519098916993E-1  -4.457940727472306E-1   4.096439611166716E-2   1.211467879657343E-1  
 7.032258064516130E9     1.810241268947721E-2   1.160390875240816E-1  -7.940503029917913E-1  -4.569508540630340E-1  -8.086850791712149E-1  -4.437513643503190E-1   3.781539697200061E-2   1.215421356354613E-1  
 7.033008252063016E9     2.002035440877080E-2   1.151727286588800E-1  -7.979802379132653E-1  -4.576412057876588E-1  -8.084922850695248E-1  -4.423615071177482E-1   4.352210551500321E-2   1.206008989405286E-1  
 7.033758439609902E9     1.620420560240746E-2   1.153836342180055E-1  -8.007261972659580E-1  -4.580226930975915E-1  -8.085108934119253E-1  -4.422843596339226E-1   4.219017606228590E-2   1.191353417340986E-1  
 7.034508627156789E9     1.846621057018638E-2   1.149588485721494E-1  -8.044686864408180E-1  -4.569302693009377E-1  -8.080168435877297E-1  -4.426621145009996E-1   4.638696867972613E-2   1.233581614930313E-1  
 7.035258814703676E9     1.859254185110331E-2   1.151846767784041E-1  -8.068443427526226E-1  -4.561359333992004E-1  -8.076890312629961E-1  -4.410092103481293E-1   4.549480020999910E-2   1.254893220185060E-1  
 7.036009002250563E9     1.828385049477220E-2   1.153703922561927E-1  -8.109161423460363E-1  -4.561344853043557E-1  -8.081732701362355E-1  -4.412260749936104E-1   4.965985994786024E-2   1.262005653683076E-1  
 7.036759189797449E9     1.699244468472898E-2   1.176219613216263E-1  -8.126814597818465E-1  -4.555987021327019E-1  -8.086453489194825E-1  -4.418185359239579E-1   4.963869437575340E-2   1.252898227352290E-1  
 7.037509377344337E9     1.890599137172104E-2   1.188724319478899E-1  -8.173586253605909E-1  -4.537726548314094E-1  -8.078670101928227E-1  -4.416153600811958E-1   4.723630879074336E-2   1.310555129160098E-1  
 7.038259564891223E9     2.007892075926065E-2   1.163352526776127E-1  -8.220646748747340E-1  -4.512916952371598E-1  -8.095180023182024E-1  -4.400623533129693E-1   4.524533741176129E-2   1.302743210989091E-1  
 7.039009752438109E9     2.020265804603696E-2   1.149574354265196E-1  -8.240962620911162E-1  -4.491366642713547E-1  -8.097311703671819E-1  -4.392026287317277E-1   4.505059346556663E-2   1.312015748479359E-1  
 7.039759939984996E9     2.190195972099900E-2   1.180348067833737E-1  -8.284112713379710E-1  -4.493649336695672E-1  -8.111382027894373E-1  -4.367095759510994E-1   4.575846526771785E-2   1.329999629392861E-1  
 7.040510127531883E9     2.214171977713705E-2   1.203406976872915E-1  -8.324734199079714E-1  -4.444482332468033E-1  -8.115997728569303E-1  -4.395546475052833E-1   4.910168729722500E-2   1.366697655003011E-1  
 7.041260315078770E9     2.225219508633018E-2   1.193025677663806E-1  -8.360364361568253E-1  -4.415451774001122E-1  -8.137583809085759E-1  -4.362511831521988E-1   4.395476441830398E-2   1.371934684969492E-1  
 7.042010502625656E9     2.583404619246722E-2   1.209325790553042E-1  -8.376029313195077E-1  -4.403773349523544E-1  -8.132479732451505E-1  -4.369323259592056E-1   4.291889257729054E-2   1.409310322192056E-1  
 7.042760690172544E9     2.732367958873511E-2   1.239895960855744E-1  -8.412017797239539E-1  -4.389937973022461E-1  -8.131564094680338E-1  -4.382455727458000E-1   4.394388798624278E-2   1.427981099247699E-1  
 7.043510877719430E9     2.623622264713049E-2   1.201056981820372E-1  -8.447385619347693E-1  -4.345310944318772E-1  -8.152458773885053E-1  -4.385844904184341E-1   4.591841261833907E-2   1.441858044801934E-1  
 7.044261065266316E9     2.849751599133015E-2   1.201789618079912E-1  -8.473349704516819E-1  -4.308069992065431E-1  -8.176900308623595E-1  -4.377879434823990E-1   4.453574407845736E-2   1.420239646893981E-1  
 7.045011252813203E9     2.989037187770009E-2   1.232589330621925E-1  -8.498112104568427E-1  -4.281692731380463E-1  -8.181127269675821E-1  -4.372753024101258E-1   4.255493402481080E-2   1.471834561692927E-1  
 7.045761440360090E9     3.125880481675267E-2   1.232226969280813E-1  -8.524698888390226E-1  -4.248510909080506E-1  -8.197756235881588E-1  -4.359037631750108E-1   4.021150626242162E-2   1.478242927619103E-1  
 7.046511627906977E9     3.017332712188363E-2   1.221485658863750E-1  -8.553878225237551E-1  -4.189195188879967E-1  -8.207249671157133E-1  -4.365779834985733E-1   4.071856621652842E-2   1.484962010173945E-1  
 7.047261815453863E9     2.991309301927686E-2   1.233774528350581E-1  -8.566878032716676E-1  -4.146787425875664E-1  -8.240860500148233E-1  -4.348564597964288E-1   4.004079110920430E-2   1.475643760180983E-1  
 7.048012003000751E9     3.384302981197834E-2   1.227777300976011E-1  -8.593473153220110E-1  -4.121437799930574E-1  -8.244558885591551E-1  -4.337835949659348E-1   3.809096630662681E-2   1.514831499459504E-1  
 7.048762190547637E9     3.578988324850799E-2   1.243833070137934E-1  -8.607876648416502E-1  -4.073953101038934E-1  -8.276585514054962E-1  -4.334496656060219E-1   3.868853688240051E-2   1.513576920972813E-1  
 7.049512378094523E9     3.315112926065922E-2   1.208227565771155E-1  -8.624534525923329E-1  -4.018985560536385E-1  -8.280308322225400E-1  -4.335186335444451E-1   3.478925164788962E-2   1.516230817127454E-1  
 7.050262565641411E9     3.629812866449356E-2   1.220706249896322E-1  -8.640191375617949E-1  -3.966120305657388E-1  -8.302681639974275E-1  -4.311567851901055E-1   3.668721228837967E-2   1.508309851425576E-1  
 7.051012753188297E9     3.683081805706024E-2   1.232542217995410E-1  -8.630749247474385E-1  -3.942371991276741E-1  -8.318973816794275E-1  -4.297202560305596E-1   3.088850304484368E-2   1.538670850982616E-1  
 7.051762940735184E9     3.798279512673617E-2   1.193146713022060E-1  -8.652950029110991E-1  -3.869887965917588E-1  -8.360167522861897E-1  -4.298364618420602E-1   3.533698398619890E-2   1.529457226556775E-1  
 7.052513128282070E9     4.027505639940501E-2   1.222261540272308E-1  -8.638305840804933E-1  -3.837016257643700E-1  -8.366843147330590E-1  -4.289888802170754E-1   3.465622670948506E-2   1.552869992253320E-1  
 7.053263315828958E9     3.979342468082905E-2   1.230783282726290E-1  -8.627038411944025E-1  -3.803088063001633E-1  -8.378676302493642E-1  -4.258002272248269E-1   2.799504538998008E-2   1.524737351190395E-1  
 7.054013503375844E9     4.110545914620162E-2   1.212194172420643E-1  -8.618981823508402E-1  -3.763623180985452E-1  -8.392627683011148E-1  -4.252667564153671E-1   2.783401457592846E-2   1.559136884420370E-1  
 7.054763690922730E9     4.356037478893996E-2   1.244260419231428E-1  -8.604644897138343E-1  -3.730987900495529E-1  -8.411318790777513E-1  -4.230386289954186E-1   2.857563570141793E-2   1.540769188817643E-1  
 7.055513878469618E9     4.225685477256775E-2   1.220534281086814E-1  -8.594346267361374E-1  -3.692359676957131E-1  -8.430991354244891E-1  -4.221137207746507E-1   2.307167833670974E-2   1.508747570712875E-1  
 7.056264066016504E9     4.276645779609681E-2   1.223592000358162E-1  -8.589376547001180E-1  -3.652496385574341E-1  -8.454688591988437E-1  -4.202024033665658E-1   2.513041604310274E-2   1.501809088932180E-1  
 7.057014253563391E9     4.419412143528462E-2   1.224508983600189E-1  -8.571948943640122E-1  -3.629435685276985E-1  -8.465648784082794E-1  -4.181711941957474E-1   2.296269025653601E-2   1.519661981519750E-1  
 7.057764441110277E9     4.428711071610451E-2   1.192762452563907E-1  -8.579849259902437E-1  -3.590302687883378E-1  -8.484585646665316E-1  -4.173882481455803E-1   1.702949393540621E-2   1.485908315236119E-1  
 7.058514628657165E9     4.310817971825600E-2   1.204873350195435E-1  -8.548567975420179E-1  -3.554145556688310E-1  -8.507252141699172E-1  -4.128492912650109E-1   1.959706490859390E-2   1.489681952307310E-1  
 7.059264816204051E9     4.568683825433255E-2   1.180224466469732E-1  -8.551076966022402E-1  -3.533416149020195E-1  -8.517982630635783E-1  -4.106544813513756E-1   1.415360771119595E-2   1.481445761691503E-1  
 7.060015003750938E9     4.522295489907266E-2   1.191581053438533E-1  -8.520065321665372E-1  -3.518641266226769E-1  -8.530187391242853E-1  -4.085180884599686E-1   1.319988402538002E-2   1.460562419642889E-1  
 7.060765191297825E9     4.425553746521473E-2   1.178169940190807E-1  -8.500664811345737E-1  -3.488874450325966E-1  -8.546039120426896E-1  -4.053676900267602E-1   1.531480679288506E-2   1.438284179048738E-1  
 7.061515378844711E9     4.393789436668159E-2   1.163890052485295E-1  -8.477661909311994E-1  -3.466821229457856E-1  -8.553728869647493E-1  -4.028738453984261E-1   9.847343405708670E-3   1.412993701158763E-1  
 7.062265566391598E9     4.461107861250638E-2   1.190932448665157E-1  -8.450823689982929E-1  -3.458185106515885E-1  -8.561978637738517E-1  -4.012278735637666E-1   8.987250402569771E-3   1.371253674566634E-1  
 7.063015753938484E9     4.341873195022345E-2   1.180914143688715E-1  -8.443026248286707E-1  -3.436253184080125E-1  -8.561917567859688E-1  -3.978080320358276E-1   8.120364169590173E-3   1.377799172158760E-1  
 7.063765941485372E9     4.206766784191132E-2   1.191315976988461E-1  -8.424633224585681E-1  -3.419170048832894E-1  -8.573728130982233E-1  -3.951088094711304E-1   5.626116911880673E-3   1.354106503879713E-1  
 7.064516129032258E9     4.245921961963176E-2   1.195588093702485E-1  -8.399138985387804E-1  -3.405331063270570E-1  -8.571806162404836E-1  -3.923361343145371E-1   2.973245558096096E-3   1.357766601470737E-1  
 7.065266316579145E9     4.036039497703314E-2   1.161684371134555E-1  -8.385990140940336E-1  -3.396464896202087E-1  -8.578147055642399E-1  -3.900317126512528E-1   5.144086989457719E-4   1.328621218381851E-1  
 7.066016504126032E9     4.145091168582440E-2   1.187820641681162E-1  -8.361608882180041E-1  -3.393677988648414E-1  -8.581777083590840E-1  -3.884984523057938E-1  -1.043990375183057E-3   1.308797999804646E-1  
 7.066766691672918E9     4.232310377061368E-2   1.187217700410352E-1  -8.339551036655455E-1  -3.380148121714592E-1  -8.585249765883495E-1  -3.852505123615265E-1  -3.198269120184705E-3   1.281034426822038E-1  
 7.067516879219805E9     3.920857291668653E-2   1.179003147644972E-1  -8.327029123953055E-1  -3.372569298744202E-1  -8.585010058867011E-1  -3.841944396495819E-1  -4.051356976851821E-3   1.268305729734416E-1  
 7.068267066766691E9     3.932192411273718E-2   1.179422971342218E-1  -8.303673944881663E-1  -3.375910693407059E-1  -8.590016331824817E-1  -3.804564109444618E-1  -4.875131279695779E-3   1.235456758791997E-1  
 7.069017254313579E9     4.002473697066307E-2   1.184376561333829E-1  -8.283681231258016E-1  -3.380087205767632E-1  -8.584881224493247E-1  -3.794075131416321E-1  -3.971170342992991E-3   1.247013109830597E-1  
 7.069767441860465E9     3.890679288655519E-2   1.208405766130130E-1  -8.263008508250949E-1  -3.383993196487428E-1  -8.578265521254156E-1  -3.760162031650544E-1  -5.992247052490712E-3   1.231657286315453E-1  
