#  HZ   S   RI   R     50.0 
! Rohde & Schwarz ZVL13 2Ports - Version 3.31 - 1303.6509k13 SN: 101088
! Date: 2023-03-06 15:26:52
! Data & Calibration Information:
! Trc4:S11(TOSM) Trc2:S21(TOSM) Trc3:S12(TOSM) Trc5:S22(TOSM)
! 
! 
! 
 7.000000000000000E9     3.518633224070072E-2   1.585196517568427E-1  -8.101776129708046E-1  -4.970892849564553E-1  -7.702449461765654E-1  -5.381167483329773E-1  -1.260096308775246E-2   1.641120299795367E-1  
 7.000750187546886E9     3.678001947700978E-2   1.560690400719711E-1  -8.110411084686520E-1  -4.934759527444841E-1  -7.738294893364918E-1  -5.362843632698059E-1  -1.449526997283101E-2   1.602961135914080E-1  
 7.001500375093774E9     3.499353326857090E-2   1.529625799698620E-1  -8.115413036649324E-1  -4.891825744509697E-1  -7.760499459605939E-1  -5.360009688138964E-1  -1.281939036212862E-2   1.603300404248614E-1  
 7.002250562640660E9     3.600784234702587E-2   1.513924619862791E-1  -8.104297528226907E-1  -4.860572472214699E-1  -7.786278791347290E-1  -5.336704266071320E-1  -1.782534530386329E-2   1.539421737924615E-1  
 7.003000750187547E9     3.454267103224994E-2   1.493550220997071E-1  -8.096589270457333E-1  -4.816073897480965E-1  -7.812391181414345E-1  -5.324832153320311E-1  -1.309428629465401E-2   1.537439150264715E-1  
 7.003750937734433E9     3.433198735117912E-2   1.478823896989121E-1  -8.093169174586540E-1  -4.766384214162827E-1  -7.841210286606015E-1  -5.312156021595001E-1  -1.564870954491198E-2   1.542950885701736E-1  
 7.004501125281321E9     3.584275428205729E-2   1.463261450156973E-1  -8.088060347464390E-1  -4.740966224670410E-1  -7.862532465381990E-1  -5.302707648277283E-1  -1.633880456909537E-2   1.502081039539762E-1  
 7.005251312828207E9     3.776366215199232E-2   1.512783867100691E-1  -8.061659916210284E-1  -4.709529146552086E-1  -7.884354496923405E-1  -5.278536349534988E-1  -1.250900150276721E-2   1.457389757189253E-1  
 7.006001500375094E9     3.591715380549431E-2   1.471165317817395E-1  -8.049392006913286E-1  -4.672741040587425E-1  -7.905347791524845E-1  -5.258726435899735E-1  -1.463949037715793E-2   1.458996480056690E-1  
 7.006751687921981E9     3.646961349993944E-2   1.497022905190956E-1  -8.032858222819839E-1  -4.654584088921547E-1  -7.916863352040102E-1  -5.254539567232133E-1  -1.412614718079567E-2   1.433842904601170E-1  
 7.007501875468867E9     3.482099283486605E-2   1.459811080982722E-1  -8.019298449033526E-1  -4.613871967792511E-1  -7.949317333528367E-1  -5.221994179487227E-1  -1.486456265673041E-2   1.407993106603064E-1  
 7.008252063015754E9     3.483551807701588E-2   1.424168356582577E-1  -8.003230083687322E-1  -4.593981182575226E-1  -7.954178378611504E-1  -5.197715371847153E-1  -1.435615120455623E-2   1.370446556378043E-1  
 7.009002250562640E9     3.032321179285646E-2   1.444102158115187E-1  -7.986626078143639E-1  -4.562396311759949E-1  -7.982162889653315E-1  -5.144169610738755E-1  -1.387566007673741E-2   1.363800852677301E-1  
 7.009752438109528E9     3.120462628081441E-2   1.433265771487138E-1  -7.958885350884055E-1  -4.543064588308334E-1  -7.993879467896476E-1  -5.139711135625841E-1  -1.339286079630256E-2   1.374407393823578E-1  
 7.010502625656414E9     3.052716072648764E-2   1.418889228223874E-1  -7.952638207669353E-1  -4.536177983880043E-1  -8.009118282360039E-1  -5.116782331466676E-1  -1.406684622168541E-2   1.296644971875129E-1  
 7.011252813203301E9     2.806131890043617E-2   1.398266257329576E-1  -7.936748219136314E-1  -4.516571086645126E-1  -8.028305690421520E-1  -5.079744964838028E-1  -1.383207899518311E-2   1.298456674468111E-1  
 7.012003000750188E9     3.037047924473882E-2   1.390288282506851E-1  -7.909125515506505E-1  -4.509253853559494E-1  -8.039153281946447E-1  -5.061931693553925E-1  -1.352948735468090E-2   1.252772215262040E-1  
 7.012753188297074E9     2.826283019036055E-2   1.424636616737958E-1  -7.890486261505941E-1  -4.486382436752320E-1  -8.048524759607743E-1  -5.028943794965745E-1  -1.253636261448264E-2   1.285543125381412E-1  
 7.013503375843961E9     2.770014693960548E-2   1.397367618864635E-1  -7.871323396061352E-1  -4.474015784263611E-1  -8.055390834329476E-1  -4.998160725831986E-1  -1.053580805659294E-2   1.256943027164107E-1  
 7.014253563390848E9     2.520827708765865E-2   1.387867470352189E-1  -7.868948580282346E-1  -4.463014471530915E-1  -8.064757414934793E-1  -4.975531542301178E-1  -1.223363089375198E-2   1.264883244100525E-1  
 7.015003750937735E9     2.408463425934316E-2   1.378768126603456E-1  -7.839085116151801E-1  -4.459416076540949E-1  -8.067574134797906E-1  -4.950298023223878E-1  -1.170465514995158E-2   1.268423409884042E-1  
 7.015753938484621E9     2.385083552449942E-2   1.338180478772318E-1  -7.824730638673357E-1  -4.437586584687234E-1  -8.066882547190599E-1  -4.925355628132820E-1  -9.559540986083449E-3   1.274369919500069E-1  
 7.016504126031508E9     2.066803526133299E-2   1.341193943442093E-1  -7.808969953910758E-1  -4.435651680827141E-1  -8.072218712135660E-1  -4.898313799500466E-1  -5.061410567723215E-3   1.235498995767576E-1  
 7.017254313578395E9     2.301419103518128E-2   1.347876502817633E-1  -7.793639930327356E-1  -4.441782012581826E-1  -8.084112102868077E-1  -4.862662512063981E-1  -8.232290544547140E-3   1.253606707031702E-1  
 7.018004501125281E9     2.315527884289623E-2   1.347978270857573E-1  -7.783014378321509E-1  -4.451236233115196E-1  -8.088417246182942E-1  -4.840631100535393E-1  -6.454497356899083E-3   1.233212657622118E-1  
 7.018754688672168E9     2.348830584436655E-2   1.354174859149680E-1  -7.762061676419079E-1  -4.460070776939393E-1  -8.082987552168488E-1  -4.822836890816689E-1  -7.605519352364354E-4   1.207881349398077E-1  
 7.019504876219055E9     2.689765969291330E-2   1.302411689655531E-1  -7.760352345526081E-1  -4.468294405937195E-1  -8.086204965574889E-1  -4.791339418292046E-1   1.252304636582267E-3   1.247070600727381E-1  
 7.020255063765942E9     2.240600664168596E-2   1.360185940003413E-1  -7.737255953114459E-1  -4.461812010407448E-1  -8.093940827204427E-1  -4.768513894081116E-1   4.252197111491114E-3   1.227405847400335E-1  
 7.021005251312828E9     2.446337858214974E-2   1.319189701308153E-1  -7.735688761884217E-1  -4.468676924705507E-1  -8.078975814526535E-1  -4.735466730594636E-1   3.162729894975201E-3   1.258636166916554E-1  
 7.021755438859715E9     2.260253282263875E-2   1.332746341670056E-1  -7.725630134298354E-1  -4.481226116418839E-1  -8.083501065485444E-1  -4.717893859744072E-1   7.638630056753756E-3   1.252062958215088E-1  
 7.022505626406602E9     2.370049478486180E-2   1.303457041098378E-1  -7.732019102655624E-1  -4.483734789490701E-1  -8.085006271864896E-1  -4.698135891556741E-1   7.012497498653830E-3   1.209487657392397E-1  
 7.023255813953488E9     2.377993145957590E-2   1.275691950714514E-1  -7.712327205568432E-1  -4.493966788053513E-1  -8.073842357362661E-1  -4.677070337533951E-1   1.422616465948522E-2   1.258546502551074E-1  
 7.024006001500375E9     2.141236081719399E-2   1.298347873939504E-1  -7.721906903128012E-1  -4.500019544363023E-1  -8.065732732277713E-1  -4.663079819083214E-1   1.360368116758764E-2   1.249208807034122E-1  
 7.024756189047262E9     2.254220183938742E-2   1.263836978545793E-1  -7.713416253450542E-1  -4.532337215542793E-1  -8.042010377393616E-1  -4.666702720522881E-1   1.546442128717900E-2   1.277418261364289E-1  
 7.025506376594149E9     2.169414468109608E-2   1.286597164932327E-1  -7.716344928306702E-1  -4.539562240242958E-1  -8.077627885946862E-1  -4.621824240684510E-1   1.816180067136884E-2   1.241006915785941E-1  
 7.026256564141035E9     2.264148015528918E-2   1.302730974554195E-1  -7.732304064209891E-1  -4.540404701232911E-1  -8.069566101857658E-1  -4.592174941301346E-1   2.143193455412984E-2   1.290773162287655E-1  
 7.027006751687922E9     2.512956701219082E-2   1.269314982787486E-1  -7.727578897041787E-1  -4.582335096597672E-1  -8.036389028204840E-1  -4.586605462431909E-1   2.638552416116000E-2   1.282426296277241E-1  
 7.027756939234809E9     2.396319976076484E-2   1.280655815359091E-1  -7.744617984894483E-1  -4.575539085268975E-1  -8.040936224522062E-1  -4.594032195210457E-1   2.447394482791424E-2   1.302547056613666E-1  
 7.028507126781695E9     2.466365024447442E-2   1.255117744224759E-1  -7.769490371884555E-1  -4.579950773715973E-1  -8.037129220422570E-1  -4.579238808155062E-1   2.693015992641450E-2   1.284778093153079E-1  
 7.029257314328582E9     2.454036768525839E-2   1.250746357017007E-1  -7.779423794584359E-1  -4.608808708190918E-1  -8.048998916228147E-1  -4.556869727373124E-1   3.081036379560828E-2   1.274907866160715E-1  
 7.030007501875469E9     2.558873500674963E-2   1.269666658985117E-1  -7.801265042706526E-1  -4.602120605111122E-1  -8.045461817176416E-1  -4.537905171513558E-1   3.109283797442914E-2   1.266491412911571E-1  
 7.030757689422356E9     2.459182627499103E-2   1.275432865784211E-1  -7.814982050660945E-1  -4.637917345762253E-1  -8.039756379436842E-1  -4.514973101019860E-1   3.450463891029359E-2   1.316276123233048E-1  
 7.031507876969242E9     2.452043035998940E-2   1.243875581756010E-1  -7.847992652451145E-1  -4.638294067978859E-1  -8.026943598534673E-1  -4.526570171117783E-1   3.815387446433307E-2   1.326906687129533E-1  
 7.032258064516130E9     2.436068365350366E-2   1.261732593112195E-1  -7.871534759167295E-1  -4.648329401016237E-1  -8.027322442374465E-1  -4.510502183437349E-1   3.474284075200558E-2   1.337510500172683E-1  
 7.033008252063016E9     2.621807299554348E-2   1.251659068202614E-1  -7.905431729918602E-1  -4.655868166685105E-1  -8.020053210883507E-1  -4.502236875891685E-1   3.983121536672116E-2   1.343429230568803E-1  
 7.033758439609902E9     2.260409612208605E-2   1.256332637749610E-1  -7.938434207052663E-1  -4.662083169817926E-1  -8.021149720700471E-1  -4.499456313252450E-1   3.908082392066718E-2   1.327203884904076E-1  
 7.034508627156789E9     2.464921262115240E-2   1.245980475009505E-1  -7.973842527829668E-1  -4.655096861720086E-1  -8.016076210895480E-1  -4.502769237756730E-1   4.262465737760068E-2   1.365377808779321E-1  
 7.035258814703676E9     2.516362283378840E-2   1.250950091601289E-1  -8.000298198054403E-1  -4.652799725532532E-1  -8.012000545394943E-1  -4.491600745916367E-1   4.235683694481850E-2   1.382739346520367E-1  
 7.036009002250563E9     2.595175771042705E-2   1.254840465467197E-1  -8.043816663396441E-1  -4.644986355304718E-1  -8.017223724964966E-1  -4.491603752970696E-1   4.675972398370505E-2   1.400273387649689E-1  
 7.036759189797449E9     2.413465417921544E-2   1.276437720382019E-1  -8.068212711621973E-1  -4.644644600152970E-1  -8.023307197684543E-1  -4.495685344934464E-1   4.700500678271056E-2   1.389024617475298E-1  
 7.037509377344337E9     2.652856189757586E-2   1.282234540957933E-1  -8.110225295259621E-1  -4.630641654133798E-1  -8.015603116760359E-1  -4.497716826200485E-1   4.466623790562153E-2   1.442496831044192E-1  
 7.038259564891223E9     2.741306576877833E-2   1.261449713389441E-1  -8.160341841756601E-1  -4.609059593081475E-1  -8.029812130896793E-1  -4.486222600936891E-1   4.300569728016853E-2   1.431818782136641E-1  
 7.039009752438109E9     2.710004482418299E-2   1.257547233925767E-1  -8.189412981797322E-1  -4.581710040569306E-1  -8.031080579550609E-1  -4.483432984352112E-1   4.247545130550862E-2   1.440906338895875E-1  
 7.039759939984996E9     2.935987252742052E-2   1.276869785422878E-1  -8.232046296898028E-1  -4.585894775390625E-1  -8.046767741038851E-1  -4.456982579827309E-1   4.236430231481791E-2   1.453882211290842E-1  
 7.040510127531883E9     2.937793621793390E-2   1.302133289550291E-1  -8.274956034035284E-1  -4.535323214530945E-1  -8.050290678010307E-1  -4.482034134864807E-1   4.643444664776326E-2   1.492378973419848E-1  
 7.041260315078770E9     2.917112644761801E-2   1.295302608602023E-1  -8.311263423532284E-1  -4.515059369802474E-1  -8.068700657143789E-1  -4.451025837659836E-1   4.137999489903450E-2   1.497485033697568E-1  
 7.042010502625656E9     3.279344905167818E-2   1.309224901482077E-1  -8.333656935350173E-1  -4.494393676519394E-1  -8.060865887817480E-1  -4.465353152155877E-1   4.004003748297692E-2   1.542342323097441E-1  
 7.042760690172544E9     3.418190870434046E-2   1.341028919994829E-1  -8.370898992289199E-1  -4.480004665255547E-1  -8.062954784221872E-1  -4.474681299924851E-1   4.165811374783517E-2   1.558972390659918E-1  
 7.043510877719430E9     3.291599731892347E-2   1.302701289095832E-1  -8.403455577526608E-1  -4.440777239203454E-1  -8.084873445628695E-1  -4.478832647204400E-1   4.248581141233445E-2   1.571593414907851E-1  
 7.044261065266316E9     3.517873968929053E-2   1.309247649889106E-1  -8.429108908812114E-1  -4.397395879030228E-1  -8.106596689047189E-1  -4.474586004018784E-1   4.116012547165156E-2   1.546147400226109E-1  
 7.045011252813203E9     3.706034362316131E-2   1.342382800262529E-1  -8.452774458390364E-1  -4.377954488992691E-1  -8.108616472329393E-1  -4.471335247159005E-1   3.903552185744048E-2   1.598053374845539E-1  
 7.045761440360090E9     3.758189219981433E-2   1.346462828334355E-1  -8.482039907220598E-1  -4.336713448166847E-1  -8.124938290798111E-1  -4.463262978196144E-1   3.678245965391399E-2   1.607344110121369E-1  
 7.046511627906977E9     3.684782013297081E-2   1.337910766159224E-1  -8.513964106276448E-1  -4.282026803493501E-1  -8.133816298053986E-1  -4.465875336527825E-1   3.725882567465305E-2   1.615872446343590E-1  
 7.047261815453863E9     3.674757461994887E-2   1.348040744321116E-1  -8.524983012876983E-1  -4.234684723615647E-1  -8.173044705747168E-1  -4.453611841797829E-1   3.638470754027368E-2   1.609948783051281E-1  
 7.048012003000751E9     4.075210604816676E-2   1.342759118263207E-1  -8.553471380213585E-1  -4.211197847127916E-1  -8.171706495212188E-1  -4.451574623584748E-1   3.412623412907125E-2   1.651352587713344E-1  
 7.048762190547637E9     4.296271607279778E-2   1.353129249405448E-1  -8.568799096037423E-1  -4.165616425871849E-1  -8.207628480924374E-1  -4.449887034296990E-1   3.540727578103542E-2   1.658912131352843E-1  
 7.049512378094523E9     4.052040334790946E-2   1.321513542396710E-1  -8.581890659047086E-1  -4.116701355576515E-1  -8.218052916245681E-1  -4.445914083719254E-1   3.113907866179944E-2   1.659877680529137E-1  
 7.050262565641411E9     4.428725145757199E-2   1.339440028171043E-1  -8.599859840923959E-1  -4.053193187713623E-1  -8.238257690094983E-1  -4.428875648975372E-1   3.358387432992458E-2   1.653413699041663E-1  
 7.051012753188297E9     4.453467015177012E-2   1.349781436453550E-1  -8.595220847438992E-1  -4.028371739387513E-1  -8.256324586648449E-1  -4.415852442383766E-1   2.746365632861853E-2   1.692868917781767E-1  
 7.051762940735184E9     4.602676838636399E-2   1.312377638441682E-1  -8.608583252900246E-1  -3.968751531839372E-1  -8.298625737232585E-1  -4.418237891793252E-1   3.242318293079734E-2   1.672798179580974E-1  
 7.052513128282070E9     4.813262652605772E-2   1.335485439663495E-1  -8.604025670541433E-1  -3.926545840501786E-1  -8.306236278470405E-1  -4.412474343180656E-1   3.220459658652544E-2   1.701600390502677E-1  
 7.053263315828958E9     4.778710272163153E-2   1.352337026250549E-1  -8.591442005680934E-1  -3.892616701126099E-1  -8.323590170866639E-1  -4.378706565499306E-1   2.528110509738326E-2   1.670721158586227E-1  
 7.054013503375844E9     4.936773993074894E-2   1.329018932687479E-1  -8.583717452983071E-1  -3.852613538503648E-1  -8.339941481850153E-1  -4.373834437131882E-1   2.523661253973842E-2   1.703140272733881E-1  
 7.054763690922730E9     5.143680308014155E-2   1.351497916732141E-1  -8.572536402613813E-1  -3.811692339181900E-1  -8.362049128823987E-1  -4.349910348653794E-1   2.722552182152867E-2   1.676385737955125E-1  
 7.055513878469618E9     4.998900163918734E-2   1.330322005253721E-1  -8.561301645011722E-1  -3.772408545017242E-1  -8.381614483086055E-1  -4.336103212833404E-1   2.082870297133923E-2   1.651218883869209E-1  
 7.056264066016504E9     5.037029549479485E-2   1.333901777518088E-1  -8.558957857243736E-1  -3.727859932184220E-1  -8.409306093491791E-1  -4.318422353267670E-1   2.295411720871926E-2   1.633299450760399E-1  
 7.057014253563391E9     5.189279507845641E-2   1.334527445810604E-1  -8.533916923682052E-1  -3.704338148236275E-1  -8.415258958159892E-1  -4.297425231337548E-1   1.987397601827979E-2   1.651631146783544E-1  
 7.057764441110277E9     5.171931300312280E-2   1.307312605017652E-1  -8.539117285349132E-1  -3.665512165427208E-1  -8.429761951983793E-1  -4.291476276516915E-1   1.445000916719437E-2   1.615821643557893E-1  
 7.058514628657165E9     5.055849466472865E-2   1.317189956543059E-1  -8.508753640082387E-1  -3.623745355010033E-1  -8.455960567636623E-1  -4.245082166790963E-1   1.698108794167638E-2   1.625343400447027E-1  
 7.059264816204051E9     5.316197816282511E-2   1.293971765541209E-1  -8.510624947488080E-1  -3.607491698861122E-1  -8.466726030999883E-1  -4.224043151736260E-1   1.055674114264548E-2   1.617347460564737E-1  
 7.060015003750938E9     5.213514331728220E-2   1.309945530476381E-1  -8.473138166864918E-1  -3.591771987080575E-1  -8.479265129348573E-1  -4.201593396067619E-1   1.072403786703944E-2   1.601458185743966E-1  
 7.060765191297825E9     5.126143019646407E-2   1.301070144897228E-1  -8.445828563346004E-1  -3.566663110256195E-1  -8.493323980013972E-1  -4.177080351114274E-1   1.179282226599753E-2   1.570597668755747E-1  
 7.061515378844711E9     5.034931026399137E-2   1.286644768741369E-1  -8.424449132639237E-1  -3.539111298322678E-1  -8.507936005307479E-1  -4.145857405662536E-1   6.860941764898599E-3   1.554034445206809E-1  
 7.062265566391598E9     5.165619056671858E-2   1.316872223534389E-1  -8.397966034175551E-1  -3.534140235185624E-1  -8.513240918412273E-1  -4.135003218054771E-1   5.434411831665783E-3   1.523637769644988E-1  
 7.063015753938484E9     5.042256969958543E-2   1.308420990446090E-1  -8.389172914897431E-1  -3.509042358398438E-1  -8.514471311295314E-1  -4.098450887203217E-1   4.499651307705789E-3   1.527832686350470E-1  
 7.063765941485372E9     4.924681596457958E-2   1.320365447325748E-1  -8.363865605588692E-1  -3.494758012890816E-1  -8.526375297130313E-1  -4.067140150070191E-1   2.342272924724966E-3   1.505378488548438E-1  
 7.064516129032258E9     5.004829306155444E-2   1.320655342465719E-1  -8.335843603279033E-1  -3.484117209911347E-1  -8.522848553700470E-1  -4.041905707120896E-1  -3.660296859015944E-4   1.515467544708759E-1  
 7.065266316579145E9     4.749257672578097E-2   1.286164900814983E-1  -8.318625731387885E-1  -3.478567913174629E-1  -8.530724613039905E-1  -4.017190948128701E-1  -1.810073801170802E-3   1.477616394871736E-1  
 7.066016504126032E9     4.905184071511031E-2   1.313484719270853E-1  -8.296492240474530E-1  -3.470012506842614E-1  -8.531178627722970E-1  -4.005405545234680E-1  -4.101020821835846E-3   1.471292475431955E-1  
 7.066766691672918E9     5.040973264724017E-2   1.314780708683710E-1  -8.269880489052250E-1  -3.463068664073944E-1  -8.536817716842012E-1  -3.970027008652687E-1  -5.962069565430285E-3   1.433651232525115E-1  
 7.067516879219805E9     4.727910358458758E-2   1.299368887840589E-1  -8.255810293360731E-1  -3.456855455040932E-1  -8.534256606314526E-1  -3.958692979812622E-1  -7.102077589370311E-3   1.420404417580152E-1  
 7.068267066766691E9     4.793575614690781E-2   1.306745140408642E-1  -8.232882973189584E-1  -3.468352365493774E-1  -8.541275945383837E-1  -3.921487671136856E-1  -6.870820457115769E-3   1.394817788156214E-1  
 7.069017254313579E9     4.823199227452279E-2   1.303916210553992E-1  -8.215970282860070E-1  -3.470693290233612E-1  -8.539239064017465E-1  -3.910453435778618E-1  -6.163691254332662E-3   1.410280453390409E-1  
 7.069767441860465E9     4.716519210487605E-2   1.327249575309538E-1  -8.194277387833014E-1  -3.474690622091294E-1  -8.532121770866632E-1  -3.876507258415223E-1  -7.442879616282881E-3   1.384615969835661E-1  
