#  HZ   S   RI   R     50.0 
! Rohde & Schwarz ZVL13 2Ports - Version 3.31 - 1303.6509k13 SN: 101088
! Date: 2023-03-06 15:35:13
! Data & Calibration Information:
! Trc4:S11(TOSM) Trc2:S21(TOSM) Trc3:S12(TOSM) Trc5:S22(TOSM)
! 
! 
! 
 7.000000000000000E9     3.452303525060416E-2   1.609469436075564E-1  -8.037899366683381E-1  -5.088944524526599E-1  -7.625434524432520E-1  -5.490445089340210E-1  -1.657233922742307E-2   1.645952630355856E-1  
 7.000750187546886E9     3.655830446630716E-2   1.578246292711509E-1  -8.042899904981541E-1  -5.055903768539429E-1  -7.657642262943054E-1  -5.477807909250260E-1  -1.802011789754033E-2   1.615029837554622E-1  
 7.001500375093774E9     3.416887689381838E-2   1.548288088581046E-1  -8.058394988410981E-1  -5.005367881059646E-1  -7.682206270646123E-1  -5.472080814838410E-1  -1.540879388339818E-2   1.607358164301345E-1  
 7.002250562640660E9     3.553338307887315E-2   1.536028438429422E-1  -8.045869914211651E-1  -4.973038011789323E-1  -7.710237686013890E-1  -5.451579695940019E-1  -2.050208123400808E-2   1.554269731243341E-1  
 7.003000750187547E9     3.394649785012006E-2   1.518798257918247E-1  -8.035553170940635E-1  -4.929999044537544E-1  -7.736650433575066E-1  -5.436627972126008E-1  -1.655340761877596E-2   1.540636050316439E-1  
 7.003750937734433E9     3.402210384607315E-2   1.502775319239048E-1  -8.030444653888441E-1  -4.886752372980118E-1  -7.759846709911710E-1  -5.429499942064286E-1  -1.893037412315607E-2   1.549986079146906E-1  
 7.004501125281321E9     3.559590332210064E-2   1.484414995526900E-1  -8.027744585591194E-1  -4.855831918120384E-1  -7.786700756581830E-1  -5.419273668527604E-1  -1.843321731314063E-2   1.509366459802789E-1  
 7.005251312828207E9     3.728797141462564E-2   1.530343222680652E-1  -8.002225342108845E-1  -4.828794866800308E-1  -7.811613858620795E-1  -5.391976100206376E-1  -1.572360017336905E-2   1.466355954521399E-1  
 7.006001500375094E9     3.479652132838965E-2   1.492518901529586E-1  -7.990413888718428E-1  -4.787865340709687E-1  -7.833639690529146E-1  -5.375330042839051E-1  -1.772278973832726E-2   1.471362488360330E-1  
 7.006751687921981E9     3.556775156408549E-2   1.519447055846814E-1  -7.974306749208165E-1  -4.767326951026917E-1  -7.839615907307015E-1  -5.371585983037950E-1  -1.664183203130961E-2   1.443679150817614E-1  
 7.007501875468867E9     3.437028609216213E-2   1.478299651682395E-1  -7.961541166225548E-1  -4.726713153719902E-1  -7.872810921046191E-1  -5.338785421848297E-1  -1.754871042445302E-2   1.412064638797839E-1  
 7.008252063015754E9     3.444260265678167E-2   1.449239171632502E-1  -7.946410667928291E-1  -4.704601895809174E-1  -7.885530951036329E-1  -5.306771093606949E-1  -1.780952926725149E-2   1.383784090835114E-1  
 7.009002250562640E9     2.984822506085038E-2   1.459345930240740E-1  -7.925062385444904E-1  -4.675602504611016E-1  -7.909892947908046E-1  -5.261098557710648E-1  -1.553243558853865E-2   1.377214935665986E-1  
 7.009752438109528E9     3.098243068903685E-2   1.452320383736821E-1  -7.903957214865064E-1  -4.653424203395844E-1  -7.923690861257375E-1  -5.252754712104797E-1  -1.619884060695768E-2   1.387464981846471E-1  
 7.010502625656414E9     3.001204822212459E-2   1.435603353427124E-1  -7.896617030979092E-1  -4.647786599397660E-1  -7.937962305028393E-1  -5.229783582687380E-1  -1.751437648199499E-2   1.312127825271388E-1  
 7.011252813203301E9     2.741392549127341E-2   1.419799751534929E-1  -7.882639528278400E-1  -4.621946591138840E-1  -7.957839168793323E-1  -5.196899503469468E-1  -1.645401280373335E-2   1.313829940971226E-1  
 7.012003000750188E9     3.011061623692513E-2   1.407641342940544E-1  -7.851170646971304E-1  -4.619052210450172E-1  -7.966626735141120E-1  -5.181589609384537E-1  -1.549590472131968E-2   1.260989309134331E-1  
 7.012753188297074E9     2.793904522433878E-2   1.441911252362852E-1  -7.832289176658799E-1  -4.589637720584870E-1  -7.979355840578262E-1  -5.151447916030884E-1  -1.578821699135006E-2   1.299350725819188E-1  
 7.013503375843961E9     2.699848692864180E-2   1.407910478679618E-1  -7.812993094171632E-1  -4.578288874030114E-1  -7.989172320694458E-1  -5.111638367176056E-1  -1.323768934234977E-2   1.270446635530543E-1  
 7.014253563390848E9     2.522206308320165E-2   1.407551482194205E-1  -7.813700983602493E-1  -4.573659932613373E-1  -7.995024565786459E-1  -5.097486019134522E-1  -1.493934085592628E-2   1.274150431809441E-1  
 7.015003750937735E9     2.412663627415896E-2   1.400084823133321E-1  -7.781739312956870E-1  -4.561469748616220E-1  -7.995362711196887E-1  -5.069650429487228E-1  -1.422471988946200E-2   1.277471576961515E-1  
 7.015753938484621E9     2.313293606042862E-2   1.358921691103072E-1  -7.769930424161953E-1  -4.542868664860725E-1  -8.000016077304101E-1  -5.039060539007186E-1  -1.187188178300858E-2   1.281914043505229E-1  
 7.016504126031508E9     2.034679941833020E-2   1.365543096636800E-1  -7.748981434864426E-1  -4.542012408375741E-1  -8.005121691931143E-1  -5.010962766408923E-1  -7.827354022301733E-3   1.252956194675071E-1  
 7.017254313578395E9     2.286758409813047E-2   1.365667084668992E-1  -7.739332618836151E-1  -4.545732840895654E-1  -8.014034074825917E-1  -4.984319484233857E-1  -1.152368348091841E-2   1.266485762301617E-1  
 7.018004501125281E9     2.255578136071563E-2   1.369053941582728E-1  -7.726441535614466E-1  -4.551927745342256E-1  -8.021636974604589E-1  -4.958074891567230E-1  -8.842263356782497E-3   1.251203310332353E-1  
 7.018754688672168E9     2.301262486726046E-2   1.373009970484151E-1  -7.704779112714176E-1  -4.562206548452378E-1  -8.013770134094631E-1  -4.937797084450723E-1  -3.700467445887625E-3   1.225359838582000E-1  
 7.019504876219055E9     2.756822539493442E-2   1.330746790878127E-1  -7.702119686880929E-1  -4.570605233311654E-1  -8.023362833416924E-1  -4.905195298790932E-1  -1.409571729309391E-3   1.263254640598800E-1  
 7.020255063765942E9     2.215629514306784E-2   1.375223365754222E-1  -7.676460334304394E-1  -4.564758107066155E-1  -8.021617560954523E-1  -4.890760904550552E-1   3.909644901796128E-4   1.236443591207555E-1  
 7.021005251312828E9     2.395146857947111E-2   1.338538487157970E-1  -7.674482356547453E-1  -4.573802989721298E-1  -8.014134668754964E-1  -4.853282824158670E-1  -1.675133470780567E-4   1.271205266655505E-1  
 7.021755438859715E9     2.178599229082466E-2   1.346338719223914E-1  -7.661452292476897E-1  -4.581656873226166E-1  -8.020938699721862E-1  -4.833372852206231E-1   3.567769593792036E-3   1.276006748820852E-1  
 7.022505626406602E9     2.280614923685789E-2   1.321841382587253E-1  -7.668851621720998E-1  -4.585715502500534E-1  -8.021463702311729E-1  -4.812818443775178E-1   3.353788665845060E-3   1.224845814431002E-1  
 7.023255813953488E9     2.323665458709001E-2   1.299105446268173E-1  -7.649773057759914E-1  -4.595762148499489E-1  -8.010975492998480E-1  -4.793881034851075E-1   1.053675366565585E-2   1.275258459977502E-1  
 7.024006001500375E9     2.120190713554621E-2   1.321533696848442E-1  -7.658878915151965E-1  -4.604546806216240E-1  -8.007782663694729E-1  -4.775200411677361E-1   9.700545868836345E-3   1.261353945995375E-1  
 7.024756189047262E9     2.274526920169592E-2   1.288290143109300E-1  -7.650754793409880E-1  -4.631627166271209E-1  -7.977060652530696E-1  -4.781910419464112E-1   1.120019146241248E-2   1.294751229751624E-1  
 7.025506376594149E9     2.071167087182403E-2   1.301503847804265E-1  -7.648401621992103E-1  -4.640024179220200E-1  -8.012760051540222E-1  -4.737307190895081E-1   1.482897321693599E-2   1.263444291783936E-1  
 7.026256564141035E9     2.216980459168554E-2   1.319994392098228E-1  -7.663369586071869E-1  -4.645368134975433E-1  -8.005085974922567E-1  -4.705864089727402E-1   1.782871806994081E-2   1.302318731906413E-1  
 7.027006751687922E9     2.485751688480377E-2   1.290805530190557E-1  -7.661378039818818E-1  -4.681474792957307E-1  -7.974016919762087E-1  -4.699643784761429E-1   2.269915375858546E-2   1.298244969173739E-1  
 7.027756939234809E9     2.383108621463180E-2   1.297622634047015E-1  -7.677743848388723E-1  -4.677700877189636E-1  -7.974383855635765E-1  -4.706604120135308E-1   2.085409777238965E-2   1.312092443387978E-1  
 7.028507126781695E9     2.462464060634375E-2   1.278446479039972E-1  -7.706160755460519E-1  -4.680671891570092E-1  -7.976258291003381E-1  -4.690198659896852E-1   2.335262013599277E-2   1.303780152753750E-1  
 7.029257314328582E9     2.372306400910020E-2   1.268772152875657E-1  -7.711860216220859E-1  -4.715395191311836E-1  -7.983853363910028E-1  -4.667113769054413E-1   2.720050632953644E-2   1.295080912972391E-1  
 7.030007501875469E9     2.408241540193558E-2   1.287517859464769E-1  -7.732198907279627E-1  -4.711071562767030E-1  -7.977535248954121E-1  -4.657598301768303E-1   2.785729682072997E-2   1.289802105053007E-1  
 7.030757689422356E9     2.429035667330027E-2   1.289170133699883E-1  -7.740183345236706E-1  -4.745356783270836E-1  -7.973158966625882E-1  -4.627433356642724E-1   3.023883175104857E-2   1.338903110758558E-1  
 7.031507876969242E9     2.389404542744160E-2   1.257952548880913E-1  -7.777289001990285E-1  -4.742671629786492E-1  -7.960989144561926E-1  -4.644729891419411E-1   3.358169551938772E-2   1.352048360345210E-1  
 7.032258064516130E9     2.404447844251991E-2   1.270712178957288E-1  -7.797062130353387E-1  -4.755099451541901E-1  -7.959225207884791E-1  -4.627898389101028E-1   3.139152428135276E-2   1.362741190879656E-1  
 7.033008252063016E9     2.621849449351430E-2   1.274710699160035E-1  -7.839388991667244E-1  -4.760968667268753E-1  -7.957970017828040E-1  -4.608972057700158E-1   3.647829998284579E-2   1.356334302570753E-1  
 7.033758439609902E9     2.246637078002095E-2   1.264858556259649E-1  -7.862543715861124E-1  -4.769188058376312E-1  -7.952097234093267E-1  -4.613702595233917E-1   3.520680628716946E-2   1.348468680941688E-1  
 7.034508627156789E9     2.482035132125020E-2   1.265136579289700E-1  -7.901497168101007E-1  -4.763786303997041E-1  -7.949378932290023E-1  -4.618343067169190E-1   3.927690379321576E-2   1.395840631567494E-1  
 7.035258814703676E9     2.474577629938721E-2   1.264406451138099E-1  -7.929003346088787E-1  -4.767099240422249E-1  -7.950636436219252E-1  -4.605384260416031E-1   3.894743315875530E-2   1.406038695168250E-1  
 7.036009002250563E9     2.504799639806151E-2   1.271760845251572E-1  -7.972214258925134E-1  -4.760065317153930E-1  -7.952390424535085E-1  -4.607173934578896E-1   4.303388878703117E-2   1.419910183962034E-1  
 7.036759189797449E9     2.363813394680620E-2   1.286102941810691E-1  -7.992615266439604E-1  -4.759469795227052E-1  -7.957140898870480E-1  -4.612949165701866E-1   4.332830559462309E-2   1.400464519440335E-1  
 7.037509377344337E9     2.574549473822117E-2   1.298535130931893E-1  -8.039540534975844E-1  -4.746191805601120E-1  -7.948225266143520E-1  -4.611186549067498E-1   4.103450413793326E-2   1.462785204164619E-1  
 7.038259564891223E9     2.663867909461260E-2   1.271115465893784E-1  -8.090689548797653E-1  -4.727645429968835E-1  -7.961434746002412E-1  -4.597047063708306E-1   3.893388915807010E-2   1.455437036524937E-1  
 7.039009752438109E9     2.648242250084877E-2   1.269837468744313E-1  -8.120207144043273E-1  -4.706632509827615E-1  -7.965631079815133E-1  -4.595923477411271E-1   3.888358697295190E-2   1.466240670946676E-1  
 7.039759939984996E9     2.841347387060523E-2   1.290022206851099E-1  -8.161503047062488E-1  -4.708898061513901E-1  -7.977802525490015E-1  -4.575466251373292E-1   3.869169451296330E-2   1.481014476554672E-1  
 7.040510127531883E9     2.853567482903600E-2   1.315647759897618E-1  -8.203447400619535E-1  -4.659339845180512E-1  -7.986040960389544E-1  -4.595804613828659E-1   4.210319068282843E-2   1.515567038345604E-1  
 7.041260315078770E9     2.806702369824052E-2   1.306544126056137E-1  -8.244344538418833E-1  -4.640564370155335E-1  -8.004306570769136E-1  -4.568941482901574E-1   3.807704519480468E-2   1.522756991620899E-1  
 7.042010502625656E9     3.198645032942295E-2   1.328603670940093E-1  -8.267051590020824E-1  -4.618775743246080E-1  -7.996750566178269E-1  -4.576986956596375E-1   3.639241013675928E-2   1.560173243864432E-1  
 7.042760690172544E9     3.376856438815594E-2   1.355796224085494E-1  -8.307307521867778E-1  -4.603346428275109E-1  -7.995906271033084E-1  -4.589286562800408E-1   3.718190900981426E-2   1.573376608365690E-1  
 7.043510877719430E9     3.218873398378491E-2   1.319452331984441E-1  -8.339798747646587E-1  -4.562313193082810E-1  -8.018594423277485E-1  -4.596229645609856E-1   3.895278207957744E-2   1.589081823986349E-1  
 7.044261065266316E9     3.442520346492529E-2   1.325594858691032E-1  -8.369680815627758E-1  -4.526760193705559E-1  -8.040834869651103E-1  -4.594232353568078E-1   3.754678152501583E-2   1.575744257896439E-1  
 7.045011252813203E9     3.604066301137209E-2   1.359824113760870E-1  -8.395468975537200E-1  -4.499997189641000E-1  -8.041238019014814E-1  -4.587003114819527E-1   3.543294288218021E-2   1.624453817506019E-1  
 7.045761440360090E9     3.658039044588805E-2   1.361269574704887E-1  -8.425566330967078E-1  -4.464360529184341E-1  -8.059770493575714E-1  -4.582354295253754E-1   3.278239116072655E-2   1.628979304737516E-1  
 7.046511627906977E9     3.633648797869683E-2   1.353195873685931E-1  -8.454744557815079E-1  -4.410146671533585E-1  -8.069188882783385E-1  -4.585790151357652E-1   3.318447735160589E-2   1.642112499407849E-1  
 7.047261815453863E9     3.596776813268661E-2   1.363270946909379E-1  -8.470927760164271E-1  -4.365240988135339E-1  -8.100988664281035E-1  -4.576143461465836E-1   3.277257572859527E-2   1.635612383687289E-1  
 7.048012003000751E9     4.036047354340554E-2   1.362131387026470E-1  -8.498137856235863E-1  -4.338211339712144E-1  -8.107952037655685E-1  -4.570642447471619E-1   3.007986150681972E-2   1.672819285132455E-1  
 7.048762190547637E9     4.221967332065106E-2   1.377488520507643E-1  -8.510533631079732E-1  -4.295318463444711E-1  -8.139017675125206E-1  -4.568851986527444E-1   3.089203547686339E-2   1.679874025347596E-1  
 7.049512378094523E9     4.027687732130290E-2   1.332867345513636E-1  -8.529589694459230E-1  -4.242768859863281E-1  -8.150505960564880E-1  -4.570667028427125E-1   2.771480573341250E-2   1.674308335864168E-1  
 7.050262565641411E9     4.328245863318445E-2   1.357134903421774E-1  -8.546671501167542E-1  -4.188373383879662E-1  -8.171485631036010E-1  -4.548667213320733E-1   2.950413469225168E-2   1.678164375592338E-1  
 7.051012753188297E9     4.372306756675243E-2   1.365692686769484E-1  -8.543507911995365E-1  -4.158760526776315E-1  -8.189791800842353E-1  -4.538265681266785E-1   2.305070860311390E-2   1.714137162396660E-1  
 7.051762940735184E9     4.559058710932733E-2   1.329640659809258E-1  -8.563013390934013E-1  -4.093428692221642E-1  -8.230891383629595E-1  -4.538531395792962E-1   2.895024457946420E-2   1.692443448214837E-1  
 7.052513128282070E9     4.715764164924622E-2   1.350957090515670E-1  -8.557993491479663E-1  -4.049103116989136E-1  -8.243415297242350E-1  -4.530315417051316E-1   2.919150691479445E-2   1.715273939588815E-1  
 7.053263315828958E9     4.709878221154214E-2   1.364709406330073E-1  -8.538170354897197E-1  -4.023345974087716E-1  -8.258850351456498E-1  -4.496443647146226E-1   2.184500735253096E-2   1.687798052511643E-1  
 7.054013503375844E9     4.881468500941992E-2   1.343225127687671E-1  -8.538334116791858E-1  -3.974472787976265E-1  -8.273976515705646E-1  -4.499594199657441E-1   2.216037685051561E-2   1.719007963307438E-1  
 7.054763690922730E9     5.087189301848412E-2   1.366302929067542E-1  -8.528388276290206E-1  -3.938129189610481E-1  -8.295761478918554E-1  -4.475643044710159E-1   2.284064071252942E-2   1.697318685705696E-1  
 7.055513878469618E9     4.953740995377303E-2   1.351186092992104E-1  -8.517306690623316E-1  -3.896687036752701E-1  -8.315341762853802E-1  -4.463517346978189E-1   1.661265755072236E-2   1.669202571771543E-1  
 7.056264066016504E9     5.029404122382403E-2   1.348955361546077E-1  -8.511977061162381E-1  -3.857740160822868E-1  -8.344030776802749E-1  -4.440174159407616E-1   1.905730308964848E-2   1.654968908290544E-1  
 7.057014253563391E9     5.139678224921226E-2   1.356431539319949E-1  -8.486264111056707E-1  -3.827747192978860E-1  -8.353524641192087E-1  -4.419190508127213E-1   1.698415568098426E-2   1.674516520916390E-1  
 7.057764441110277E9     5.185797933489084E-2   1.322490958411656E-1  -8.494237197223176E-1  -3.789467445015908E-1  -8.367620043612639E-1  -4.414351996779443E-1   1.167959276586771E-2   1.634151287329794E-1  
 7.058514628657165E9     5.038947083055973E-2   1.332418396158484E-1  -8.463143790939243E-1  -3.752686813473702E-1  -8.393648640963751E-1  -4.373166483640671E-1   1.359257006086409E-2   1.645417763568957E-1  
 7.059264816204051E9     5.257112219929697E-2   1.313397321841308E-1  -8.464032297728130E-1  -3.726527273654938E-1  -8.404927582945687E-1  -4.349414691329003E-1   7.439585370011628E-3   1.640871455154215E-1  
 7.060015003750938E9     5.175621517002584E-2   1.324893242419218E-1  -8.430678817221642E-1  -3.707046779990197E-1  -8.420559998885232E-1  -4.325902864336968E-1   7.809478449635208E-3   1.620694079063416E-1  
 7.060765191297825E9     5.087617807090283E-2   1.314874911027802E-1  -8.406179613146426E-1  -3.679441362619401E-1  -8.435959554685427E-1  -4.295839244127274E-1   8.195614535361530E-3   1.592065501482074E-1  
 7.061515378844711E9     5.050669044256211E-2   1.302464414829787E-1  -8.380738513263160E-1  -3.653510895371437E-1  -8.448737882081406E-1  -4.269847562909128E-1   4.836965180002154E-3   1.578045511443305E-1  
 7.062265566391598E9     5.156309224665166E-2   1.340625771963485E-1  -8.352117638705423E-1  -3.646448266506195E-1  -8.453939359256255E-1  -4.255256667733193E-1   2.979089792352169E-3   1.539088271740018E-1  
 7.063015753938484E9     5.052309248596430E-2   1.322808260390516E-1  -8.339103191900573E-1  -3.631439450383186E-1  -8.454351088279537E-1  -4.223708921670915E-1   2.410393675090745E-3   1.545696653719018E-1  
 7.063765941485372E9     4.983308058232070E-2   1.338961647099831E-1  -8.320500685990530E-1  -3.610791894793510E-1  -8.468721168508696E-1  -4.191973337531091E-1  -5.516055935004262E-4   1.521175765863776E-1  
 7.064516129032258E9     5.008852776139976E-2   1.336550646622221E-1  -8.294704497268760E-1  -3.599361103773117E-1  -8.462620205168655E-1  -4.169739338755608E-1  -3.816265354398638E-3   1.526680857888334E-1  
 7.065266316579145E9     4.816326614469291E-2   1.297328469868408E-1  -8.278267231241890E-1  -3.587153467535973E-1  -8.468690997132100E-1  -4.143011704087258E-1  -5.377323590219021E-3   1.499736487097997E-1  
 7.066016504126032E9     4.885645180940629E-2   1.330504279062102E-1  -8.250011411617104E-1  -3.583532443642616E-1  -8.472307377432348E-1  -4.130372357368469E-1  -6.972541804425418E-3   1.490982650998377E-1  
 7.066766691672918E9     5.034671839326621E-2   1.333559248779448E-1  -8.225808865334142E-1  -3.574382960796357E-1  -8.478596130731716E-1  -4.095276805758477E-1  -9.021907821297647E-3   1.453970266570956E-1  
 7.067516879219805E9     4.747773833572865E-2   1.319744686297940E-1  -8.209774066690005E-1  -3.569582509994507E-1  -8.479048871111786E-1  -4.084342578053475E-1  -9.579529697075486E-3   1.443130716655887E-1  
 7.068267066766691E9     4.810927733778954E-2   1.320253859176222E-1  -8.188154317323476E-1  -3.579147771000862E-1  -8.482733485083587E-1  -4.050877222418786E-1  -9.927418874576688E-3   1.413500102542064E-1  
 7.069017254313579E9     4.848770346492529E-2   1.321063211308959E-1  -8.169019707254634E-1  -3.581394189596177E-1  -8.482695815660075E-1  -4.036751016974450E-1  -9.153484110720457E-3   1.427987843030203E-1  
 7.069767441860465E9     4.685167979449034E-2   1.347558454276331E-1  -8.147390838187512E-1  -3.584742444753647E-1  -8.474056243252194E-1  -4.001131942868232E-1  -1.079454953782261E-2   1.403231090530737E-1  
