#  HZ   S   RI   R     50.0 
! Rohde & Schwarz ZVL13 2Ports - Version 3.31 - 1303.6509k13 SN: 101088
! Date: 2023-03-06 15:33:32
! Data & Calibration Information:
! Trc4:S11(TOSM) Trc2:S21(TOSM) Trc3:S12(TOSM) Trc5:S22(TOSM)
! 
! 
! 
 7.000000000000000E9     3.431543853133918E-2   1.603319997168494E-1  -8.045117474947867E-1  -5.075261110067367E-1  -7.634843357596940E-1  -5.478282374143602E-1  -1.481537902727723E-2   1.645490951501850E-1  
 7.000750187546886E9     3.603386729955675E-2   1.578903524436274E-1  -8.053105939114580E-1  -5.043588829040528E-1  -7.665797373689303E-1  -5.468012708425523E-1  -1.748603021726013E-2   1.606657120045915E-1  
 7.001500375093774E9     3.399050820618868E-2   1.543805868336955E-1  -8.065806570817317E-1  -4.992197430133820E-1  -7.685719286292949E-1  -5.463291305303575E-1  -1.539483228698373E-2   1.603506740169218E-1  
 7.002250562640660E9     3.509638756513596E-2   1.528822057368805E-1  -8.051935665646242E-1  -4.963893321156503E-1  -7.719457635818899E-1  -5.437792593240738E-1  -2.059313131496311E-2   1.541070093742860E-1  
 7.003000750187547E9     3.362147361040115E-2   1.512029146407460E-1  -8.041784680661474E-1  -4.918443366885186E-1  -7.742475112370304E-1  -5.426933860778809E-1  -1.634001957252622E-2   1.537475122873815E-1  
 7.003750937734433E9     3.318682894110680E-2   1.495644615509693E-1  -8.042167776797297E-1  -4.869387024641038E-1  -7.771696025471153E-1  -5.416339695453645E-1  -1.801536450162530E-2   1.546251364694344E-1  
 7.004501125281321E9     3.537189066410067E-2   1.479747756464108E-1  -8.034326426854209E-1  -4.845183721184731E-1  -7.796045993704315E-1  -5.409617686271668E-1  -1.766640381887555E-2   1.503936499810637E-1  
 7.005251312828207E9     3.740607593208552E-2   1.525248144721118E-1  -8.009750558992260E-1  -4.810431975126267E-1  -7.820328747272097E-1  -5.380659085512162E-1  -1.436930693686009E-2   1.465480609693060E-1  
 7.006001500375094E9     3.422309521585702E-2   1.484148099133409E-1  -7.996015356074681E-1  -4.774982935190201E-1  -7.839850599961337E-1  -5.361660689115524E-1  -1.646369677968323E-2   1.463102824857268E-1  
 7.006751687921981E9     3.531553957611323E-2   1.512002575968385E-1  -7.981693610701943E-1  -4.755299490690232E-1  -7.852637569795496E-1  -5.351200908422470E-1  -1.575915963388980E-2   1.439549784475824E-1  
 7.007501875468867E9     3.477673709392549E-2   1.477043638207301E-1  -7.963644946102290E-1  -4.718725472688675E-1  -7.883201693878964E-1  -5.324919688701629E-1  -1.666647467762232E-2   1.405104387866479E-1  
 7.008252063015754E9     3.432611122727394E-2   1.440902207880282E-1  -7.952563451151093E-1  -4.691091382503511E-1  -7.891568991676912E-1  -5.299605208635330E-1  -1.607078532688320E-2   1.374432157015731E-1  
 7.009002250562640E9     2.920461069792510E-2   1.459296034811785E-1  -7.934040063561799E-1  -4.659251159429551E-1  -7.921167561036194E-1  -5.247144025564194E-1  -1.504917587153614E-2   1.367845172416448E-1  
 7.009752438109528E9     3.055767748504877E-2   1.453394782391015E-1  -7.910656696869938E-1  -4.639700523018838E-1  -7.923809840640885E-1  -5.248621624708175E-1  -1.496756365522742E-2   1.382439860872604E-1  
 7.010502625656414E9     3.003027701750398E-2   1.435127095139837E-1  -7.902861740729101E-1  -4.637381127476693E-1  -7.945010340926836E-1  -5.219662165641785E-1  -1.628943078219891E-2   1.311331651751201E-1  
 7.011252813203301E9     2.715324861928821E-2   1.411032053553913E-1  -7.886590024755231E-1  -4.616137960553169E-1  -7.966399179397457E-1  -5.187614923715591E-1  -1.575842579826713E-2   1.308776799471075E-1  
 7.012003000750188E9     2.982865514233709E-2   1.406250977284688E-1  -7.856720122120309E-1  -4.606627139449120E-1  -7.978054985579590E-1  -5.166487973928452E-1  -1.492368686944246E-2   1.261833501338561E-1  
 7.012753188297074E9     2.782855797559023E-2   1.440004306635204E-1  -7.839645418473203E-1  -4.581738975644112E-1  -7.990164575320961E-1  -5.134939157962799E-1  -1.456576316617429E-2   1.291296061088799E-1  
 7.013503375843961E9     2.663098623976112E-2   1.406566789414909E-1  -7.819183125831550E-1  -4.570631897449494E-1  -7.994704896036684E-1  -5.097406649589540E-1  -1.212213278748095E-2   1.258444429232245E-1  
 7.014253563390848E9     2.453063642606139E-2   1.407975733296076E-1  -7.819323452325946E-1  -4.558085775375367E-1  -8.005501721142394E-1  -5.080340409278871E-1  -1.353376928716898E-2   1.276245036394591E-1  
 7.015003750937735E9     2.399099886417390E-2   1.394693889824198E-1  -7.790034723307640E-1  -4.548098415136337E-1  -8.006670684261424E-1  -5.054211241006852E-1  -1.314815742895007E-2   1.278396107054172E-1  
 7.015753938484621E9     2.260083578526975E-2   1.348835564986050E-1  -7.776059424844733E-1  -4.530040472745896E-1  -8.008448090662755E-1  -5.029966127872466E-1  -1.083097913302481E-2   1.281261805541605E-1  
 7.016504126031508E9     2.025412753224373E-2   1.361405643657696E-1  -7.755906023608803E-1  -4.529099330306053E-1  -8.011528096114170E-1  -5.003356009721757E-1  -6.517019760794938E-3   1.242453377247213E-1  
 7.017254313578395E9     2.256846148520708E-2   1.364484023123461E-1  -7.746410434154422E-1  -4.534707385301590E-1  -8.022984305195748E-1  -4.969889444112778E-1  -1.010129795875401E-2   1.262549666212241E-1  
 7.018004501125281E9     2.238576550036669E-2   1.367919534288576E-1  -7.733130224562507E-1  -4.540883582830430E-1  -8.030321025536255E-1  -4.944598975777627E-1  -8.064832272939382E-3   1.245862116560729E-1  
 7.018754688672168E9     2.316207278519869E-2   1.363404384939262E-1  -7.712244160593191E-1  -4.552677625417710E-1  -8.022703332611557E-1  -4.925754666328430E-1  -3.086294725071639E-3   1.218844517105762E-1  
 7.019504876219055E9     2.678066803142429E-2   1.319232800545177E-1  -7.708220008938215E-1  -4.561563602089881E-1  -8.029757631075530E-1  -4.895359742641450E-1  -1.025571556529030E-3   1.258278003258745E-1  
 7.020255063765942E9     2.188996884971857E-2   1.371388772313102E-1  -7.687338605907013E-1  -4.557585626840592E-1  -8.030594769556908E-1  -4.877107024192810E-1   1.492887325875927E-3   1.231308051969026E-1  
 7.021005251312828E9     2.422215305268765E-2   1.330738217693539E-1  -7.683554063637910E-1  -4.558997943997383E-1  -8.021538620531328E-1  -4.837774798274040E-1   4.057036530866753E-4   1.266859745465545E-1  
 7.021755438859715E9     2.203492751345039E-2   1.344172979042938E-1  -7.671595725831566E-1  -4.567620125412942E-1  -8.026599091037506E-1  -4.818958687782288E-1   4.634567035827786E-3   1.268509812175934E-1  
 7.022505626406602E9     2.264253227040172E-2   1.316981286553687E-1  -7.676444067503733E-1  -4.576416444778442E-1  -8.027796557836995E-1  -4.798893457651139E-1   4.639658934902401E-3   1.217143140888372E-1  
 7.023255813953488E9     2.293417491018773E-2   1.292744990083785E-1  -7.656813242548384E-1  -4.583770844340325E-1  -8.019784138052462E-1  -4.774447897076607E-1   1.153805050998927E-2   1.278071470739493E-1  
 7.024006001500375E9     2.069189954549074E-2   1.313579587078836E-1  -7.668419389694894E-1  -4.593585902452469E-1  -8.012768869395039E-1  -4.765004473924638E-1   1.052561775781214E-2   1.252148120962295E-1  
 7.024756189047262E9     2.234048968181014E-2   1.280936911688503E-1  -7.656245913472579E-1  -4.620878508687020E-1  -7.988631515421276E-1  -4.763805395364762E-1   1.266351109370589E-2   1.302873800678628E-1  
 7.025506376594149E9     2.095481831580401E-2   1.302645528743855E-1  -7.657878087794058E-1  -4.626434591412545E-1  -8.023028672300040E-1  -4.722968325018883E-1   1.593468741513789E-2   1.260023710060769E-1  
 7.026256564141035E9     2.200402127578855E-2   1.316467955986160E-1  -7.673710501422805E-1  -4.634910440444946E-1  -8.014427863757588E-1  -4.693130055069923E-1   1.856324901804328E-2   1.303613910010366E-1  
 7.027006751687922E9     2.418811973184348E-2   1.287268708861194E-1  -7.669070887105703E-1  -4.673620972037316E-1  -7.980284301494225E-1  -4.687480229139329E-1   2.316753461956977E-2   1.294251770939453E-1  
 7.027756939234809E9     2.365342026576400E-2   1.298702314758502E-1  -7.686111439139005E-1  -4.670112240314484E-1  -7.985985061407264E-1  -4.690385326743127E-1   2.158196322619915E-2   1.316628312798468E-1  
 7.028507126781695E9     2.432819126173854E-2   1.272523623490455E-1  -7.713798691901912E-1  -4.669365233182908E-1  -7.980775855498627E-1  -4.682774206995964E-1   2.397545604035259E-2   1.302937709791543E-1  
 7.029257314328582E9     2.340775689110160E-2   1.265495072981513E-1  -7.721588463626016E-1  -4.706064832210541E-1  -7.993633766236048E-1  -4.656817206740380E-1   2.757848907262087E-2   1.288777508194728E-1  
 7.030007501875469E9     2.426151299849153E-2   1.287227690453202E-1  -7.739185524817827E-1  -4.700902655720711E-1  -7.984461725746216E-1  -4.644826248288155E-1   2.829324202612043E-2   1.280791336430708E-1  
 7.030757689422356E9     2.370114313438535E-2   1.291682035295454E-1  -7.754415789206348E-1  -4.733243873715402E-1  -7.983562012694497E-1  -4.614951118826866E-1   3.102983977645636E-2   1.337897966187640E-1  
 7.031507876969242E9     2.369168892502785E-2   1.254866257951576E-1  -7.787931489638866E-1  -4.733208957314491E-1  -7.969926676349045E-1  -4.629386973381043E-1   3.485312480479479E-2   1.345417556562604E-1  
 7.032258064516130E9     2.399863857775927E-2   1.268276768604861E-1  -7.811062757322751E-1  -4.738425365090371E-1  -7.969697295316625E-1  -4.612988296151162E-1   3.150209940969945E-2   1.352454713442761E-1  
 7.033008252063016E9     2.576274150982499E-2   1.266454406946065E-1  -7.847221857549686E-1  -4.754158970713616E-1  -7.964556972160242E-1  -4.600435727834702E-1   3.657687313854695E-2   1.352862687898795E-1  
 7.033758439609902E9     2.210788777098060E-2   1.269360038556532E-1  -7.877329340072149E-1  -4.758462795615196E-1  -7.961976491221983E-1  -4.601895597577096E-1   3.605220135301352E-2   1.345790414752230E-1  
 7.034508627156789E9     2.445310598239303E-2   1.257354612485611E-1  -7.911533368394897E-1  -4.753308656811714E-1  -7.958313900945530E-1  -4.607513844966889E-1   3.958658311516047E-2   1.388390342548646E-1  
 7.035258814703676E9     2.461600955575705E-2   1.260261316406912E-1  -7.938229759314390E-1  -4.751864033937455E-1  -7.958780974067479E-1  -4.590927889943123E-1   3.981197953224183E-2   1.408412712757201E-1  
 7.036009002250563E9     2.470829356461764E-2   1.265595755489848E-1  -7.981393803533485E-1  -4.750697913765907E-1  -7.962353464494171E-1  -4.592246669530868E-1   4.315499804913998E-2   1.414849966193895E-1  
 7.036759189797449E9     2.427555745467544E-2   1.284794211849739E-1  -8.004221923287416E-1  -4.744870939850808E-1  -7.964676574306605E-1  -4.596759906411172E-1   4.412127353250981E-2   1.400970136490603E-1  
 7.037509377344337E9     2.558274986222386E-2   1.293488373333480E-1  -8.048612666562910E-1  -4.731964689493180E-1  -7.954858865677792E-1  -4.597692674398423E-1   4.170871846377850E-2   1.464605745324533E-1  
 7.038259564891223E9     2.636212736368180E-2   1.273233394165261E-1  -8.101766423037782E-1  -4.714709722995758E-1  -7.970345116272626E-1  -4.587799766659737E-1   3.952012844383717E-2   1.452359924414460E-1  
 7.039009752438109E9     2.663050413131714E-2   1.265651933774964E-1  -8.128935343120061E-1  -4.692559453845024E-1  -7.973282364440222E-1  -4.581796452403070E-1   3.942603897303344E-2   1.468717355234775E-1  
 7.039759939984996E9     2.812954368069769E-2   1.289389897239142E-1  -8.170428289098154E-1  -4.698663195967675E-1  -7.988174033673945E-1  -4.561335566639901E-1   3.954912133514881E-2   1.481051085071417E-1  
 7.040510127531883E9     2.809416372328997E-2   1.312228880005793E-1  -8.215041121477225E-1  -4.648150524497032E-1  -7.993715671644760E-1  -4.585070991516114E-1   4.263623476028443E-2   1.510165952016742E-1  
 7.041260315078770E9     2.784156836569309E-2   1.305074815911166E-1  -8.255280751519506E-1  -4.621864581108093E-1  -8.011150951846880E-1  -4.552248442173005E-1   3.811124850064516E-2   1.515918530453354E-1  
 7.042010502625656E9     3.202248301357031E-2   1.320160471948736E-1  -8.273094417475075E-1  -4.605954837799072E-1  -8.006662328586733E-1  -4.564581376314164E-1   3.652395337820053E-2   1.552497658460766E-1  
 7.042760690172544E9     3.368987325578929E-2   1.352949475615663E-1  -8.312307452438217E-1  -4.591676220297813E-1  -8.003883136877882E-1  -4.579969528317451E-1   3.705687217414379E-2   1.572752627875665E-1  
 7.043510877719430E9     3.232856646180153E-2   1.313830664081893E-1  -8.347156104372155E-1  -4.549792361259462E-1  -8.025657808403712E-1  -4.581621989607811E-1   3.920328963547946E-2   1.587438336307459E-1  
 7.044261065266316E9     3.374426834285259E-2   1.322902422362069E-1  -8.378164654619132E-1  -4.513943025469781E-1  -8.051935669660247E-1  -4.574637559056283E-1   3.806342717260122E-2   1.565951573616567E-1  
 7.045011252813203E9     3.541784733533860E-2   1.354559108897167E-1  -8.399771080762059E-1  -4.490457507967949E-1  -8.051188640044850E-1  -4.574822494387627E-1   3.564083412289620E-2   1.618321314244448E-1  
 7.045761440360090E9     3.632774464786053E-2   1.356183441364546E-1  -8.429854072866343E-1  -4.450372934341431E-1  -8.065944843447771E-1  -4.569995632767677E-1   3.378199301660061E-2   1.629108410658081E-1  
 7.046511627906977E9     3.585576105862857E-2   1.354348428270091E-1  -8.462697699010338E-1  -4.393198579549790E-1  -8.076162835917197E-1  -4.576299467682838E-1   3.330286376178265E-2   1.636204303543219E-1  
 7.047261815453863E9     3.587307542562485E-2   1.356194609858225E-1  -8.477982280399805E-1  -4.348391282558441E-1  -8.114981732578988E-1  -4.556561461091042E-1   3.343479584902525E-2   1.620587620249748E-1  
 7.048012003000751E9     3.986557636409999E-2   1.352009957113729E-1  -8.502008235401682E-1  -4.330046448111534E-1  -8.112917727252462E-1  -4.559259185194970E-1   3.050786109641194E-2   1.669534583032046E-1  
 7.048762190547637E9     4.165924008935690E-2   1.367942391673419E-1  -8.517115579911014E-1  -4.283101305365563E-1  -8.149860286815311E-1  -4.555631464719773E-1   3.146769978106022E-2   1.662020521075596E-1  
 7.049512378094523E9     3.954598315060140E-2   1.338030872590242E-1  -8.535712745501380E-1  -4.227335062623024E-1  -8.159717990461364E-1  -4.553672447800637E-1   2.815204720944167E-2   1.670312885890864E-1  
 7.050262565641411E9     4.305014453828335E-2   1.352140211956977E-1  -8.549965156584578E-1  -4.173799958825112E-1  -8.180638154018892E-1  -4.536659258604051E-1   3.027466818690301E-2   1.669826418476359E-1  
 7.051012753188297E9     4.357541039586067E-2   1.366203542525460E-1  -8.545804905407902E-1  -4.146438571810723E-1  -8.196383787252188E-1  -4.526550558209420E-1   2.361306440085173E-2   1.702476604367894E-1  
 7.051762940735184E9     4.543285109102726E-2   1.324479778021653E-1  -8.568790554611747E-1  -4.080240046977998E-1  -8.240723997870810E-1  -4.521632504463196E-1   2.899347757920624E-2   1.680129488087589E-1  
 7.052513128282070E9     4.673979863524438E-2   1.351308423455467E-1  -8.561798772268554E-1  -4.043897202610970E-1  -8.250819994418587E-1  -4.519999903440476E-1   2.874713514000177E-2   1.710483381056910E-1  
 7.053263315828958E9     4.659372076392174E-2   1.364976575474124E-1  -8.549050032274236E-1  -4.002449595928193E-1  -8.264202551395411E-1  -4.487560099363329E-1   2.191268926486373E-2   1.680438819039369E-1  
 7.054013503375844E9     4.832073092460634E-2   1.344489112619803E-1  -8.545260781307935E-1  -3.961914959549905E-1  -8.282789468297435E-1  -4.484497061371804E-1   2.254017913714052E-2   1.719592303632911E-1  
 7.054763690922730E9     5.063819319009782E-2   1.363200260937351E-1  -8.535973375920631E-1  -3.923238667845727E-1  -8.304869193884237E-1  -4.462241557240487E-1   2.338978543877602E-2   1.697910058789681E-1  
 7.055513878469618E9     4.932801380753519E-2   1.349086015024563E-1  -8.521277173857147E-1  -3.888551485538482E-1  -8.325406935902668E-1  -4.449691566824913E-1   1.764558930881322E-2   1.656425950319432E-1  
 7.056264066016504E9     4.969581104815007E-2   1.344351087923129E-1  -8.517665729881643E-1  -3.844811269640923E-1  -8.349397514667549E-1  -4.428296890854836E-1   1.942678572610021E-2   1.647188337470423E-1  
 7.057014253563391E9     5.123885188251735E-2   1.356397636346817E-1  -8.492964401711824E-1  -3.814759019017220E-1  -8.354739570694866E-1  -4.413189131021501E-1   1.767019838094712E-2   1.669274518136898E-1  
 7.057764441110277E9     5.097289644181730E-2   1.322467338425407E-1  -8.498528085443218E-1  -3.774756681919099E-1  -8.376761499275556E-1  -4.402056479454041E-1   1.167224743403495E-2   1.628629027049230E-1  
 7.058514628657165E9     4.999883465468884E-2   1.332443103583460E-1  -8.469192488609261E-1  -3.739616218209267E-1  -8.401589745812028E-1  -4.355763024091721E-1   1.397210689261556E-2   1.638244799424288E-1  
 7.059264816204051E9     5.239644385874272E-2   1.308427074769979E-1  -8.471157714213075E-1  -3.718439593911171E-1  -8.414054506161904E-1  -4.335446953773499E-1   7.802840960212052E-3   1.633442418796010E-1  
 7.060015003750938E9     5.163442265242338E-2   1.326787420136730E-1  -8.434535213797657E-1  -3.697131702303886E-1  -8.427428904089072E-1  -4.310585743188858E-1   8.035860923118891E-3   1.610163479548485E-1  
 7.060765191297825E9     5.056187421083451E-2   1.311585352970224E-1  -8.410900534090905E-1  -3.669371086359024E-1  -8.441601432446685E-1  -4.280964785814286E-1   9.086680081672969E-3   1.584352382953371E-1  
 7.061515378844711E9     5.057177700102329E-2   1.301136563755866E-1  -8.387053336370729E-1  -3.646213570237160E-1  -8.452948054002016E-1  -4.258978423476220E-1   4.200547649525106E-3   1.561341568919095E-1  
 7.062265566391598E9     5.133040919899941E-2   1.334395827217403E-1  -8.358945879163805E-1  -3.637874546647072E-1  -8.461419471176407E-1  -4.246724376082421E-1   3.670432588551193E-3   1.536895184403557E-1  
 7.063015753938484E9     4.999571036547422E-2   1.322825455277579E-1  -8.347077793379808E-1  -3.619399780035019E-1  -8.461158724856170E-1  -4.209347745776176E-1   2.851089379109908E-3   1.540228718887274E-1  
 7.063765941485372E9     4.883722826838494E-2   1.334729000053525E-1  -8.327752597468683E-1  -3.596788915991783E-1  -8.476600702466041E-1  -4.175993055105209E-1   3.480152081465350E-4   1.510749466140268E-1  
 7.064516129032258E9     4.970365297049285E-2   1.325918798278164E-1  -8.300105580370563E-1  -3.583954462409020E-1  -8.468828081075487E-1  -4.152965673804283E-1  -3.019235044484959E-3   1.522121383335464E-1  
 7.065266316579145E9     4.724542289972305E-2   1.300251323669673E-1  -8.281543893582291E-1  -3.577594798803330E-1  -8.477976930891779E-1  -4.129251658916474E-1  -4.428629949688912E-3   1.491045955081593E-1  
 7.066016504126032E9     4.850385989993811E-2   1.327670012325530E-1  -8.258632449472430E-1  -3.572588565945625E-1  -8.481235561847104E-1  -4.117608666419983E-1  -7.018263959325851E-3   1.482203064713170E-1  
 7.066766691672918E9     4.962063431739807E-2   1.333067432471844E-1  -8.231952751397148E-1  -3.568217360973359E-1  -8.486966005330427E-1  -4.080719232559205E-1  -8.053135913796722E-3   1.440329011569824E-1  
 7.067516879219805E9     4.657203119248152E-2   1.316757267680346E-1  -8.216003584790228E-1  -3.559400066733360E-1  -8.484872484298213E-1  -4.069496166706086E-1  -8.798908009193838E-3   1.427707691462518E-1  
 7.068267066766691E9     4.731733582913877E-2   1.320398544559153E-1  -8.189816388961825E-1  -3.570845660567283E-1  -8.490903733073136E-1  -4.031586185097694E-1  -8.422156744636596E-3   1.394771191112051E-1  
 7.069017254313579E9     4.791907839477062E-2   1.317105489296581E-1  -8.175263200797411E-1  -3.573883962631226E-1  -8.491564849081864E-1  -4.020355948805809E-1  -8.549541104584934E-3   1.416596757110140E-1  
 7.069767441860465E9     4.645500656217337E-2   1.342065620921229E-1  -8.154457472168821E-1  -3.574631074070931E-1  -8.481761669184199E-1  -3.987757363915443E-1  -1.004208692349494E-2   1.393895148854447E-1  
