#  HZ   S   RI   R     50.0 
! Rohde & Schwarz ZVL13 2Ports - Version 3.31 - 1303.6509k13 SN: 101088
! Date: 2023-03-06 15:25:08
! Data & Calibration Information:
! Trc4:S11(TOSM) Trc2:S21(TOSM) Trc3:S12(TOSM) Trc5:S22(TOSM)
! 
! 
! 
 7.000000000000000E9     3.326769497245551E-2   1.560130387409294E-1  -8.106050671386056E-1  -4.960976040363311E-1  -7.714433553540705E-1  -5.364964938163758E-1  -1.161414187401533E-2   1.606611219094245E-1  
 7.000750187546886E9     3.498571287840605E-2   1.529276127772691E-1  -8.113872599576552E-1  -4.930806839466095E-1  -7.747979197940704E-1  -5.349694156646728E-1  -1.349403581582010E-2   1.565306117051883E-1  
 7.001500375093774E9     3.308987706899644E-2   1.498335714023346E-1  -8.125210522660225E-1  -4.880901163816452E-1  -7.771527584371153E-1  -5.340988725423813E-1  -1.067907942458987E-2   1.565232820707053E-1  
 7.002250562640660E9     3.423343323171139E-2   1.484384263309304E-1  -8.108265618855146E-1  -4.858665326237679E-1  -7.794265582717684E-1  -5.327179223299027E-1  -1.635800017975271E-2   1.507317677560104E-1  
 7.003000750187547E9     3.261342171579600E-2   1.467251914078949E-1  -8.101551419238386E-1  -4.808192369341850E-1  -7.823803658984798E-1  -5.310761374235153E-1  -1.205606642179191E-2   1.501680632791751E-1  
 7.003750937734433E9     3.230824943631888E-2   1.449556095580212E-1  -8.098261158955991E-1  -4.761853563785554E-1  -7.848758008509321E-1  -5.300095182657243E-1  -1.461577282287181E-2   1.508227296067127E-1  
 7.004501125281321E9     3.382970403879881E-2   1.438546863534010E-1  -8.094977720465620E-1  -4.731086149811745E-1  -7.871626441552040E-1  -5.289962810277940E-1  -1.424512932077050E-2   1.463067671457217E-1  
 7.005251312828207E9     3.581403616815806E-2   1.480072319480151E-1  -8.067455352228192E-1  -4.703674626350404E-1  -7.895942676724644E-1  -5.263228315114976E-1  -1.021850652061403E-2   1.425608202994836E-1  
 7.006001500375094E9     3.319442670792341E-2   1.439328761702748E-1  -8.056285057335955E-1  -4.663930347561837E-1  -7.914811039722887E-1  -5.242658334970475E-1  -1.334389715455473E-2   1.420676339850062E-1  
 7.006751687921981E9     3.414579916745425E-2   1.471374348336431E-1  -8.038594953933386E-1  -4.650604933500290E-1  -7.927665264923383E-1  -5.238729900121689E-1  -1.293484840542078E-2   1.395290570477021E-1  
 7.007501875468867E9     3.298030234873296E-2   1.429999048879118E-1  -8.024004909870540E-1  -4.611981037259103E-1  -7.951275348010471E-1  -5.208257329463959E-1  -1.415784078650177E-2   1.364692758395381E-1  
 7.008252063015754E9     3.270547166466714E-2   1.397505889532573E-1  -8.010360149236557E-1  -4.588325151801110E-1  -7.964023889284240E-1  -5.177770459651947E-1  -1.327410184778273E-2   1.328650964938586E-1  
 7.009002250562640E9     2.823248097673059E-2   1.413418884390804E-1  -7.991726701427776E-1  -4.563507264852524E-1  -7.991103936174732E-1  -5.129753732681276E-1  -1.187788300216198E-2   1.327039195813282E-1  
 7.009752438109528E9     2.919650934636593E-2   1.406150779078154E-1  -7.967432613953487E-1  -4.537151038646698E-1  -8.000758209340468E-1  -5.126073503494264E-1  -1.272444876842201E-2   1.342176739128874E-1  
 7.010502625656414E9     2.836320795118809E-2   1.388104171615858E-1  -7.959189267363074E-1  -4.535758513212205E-1  -8.020155764064244E-1  -5.092487055063248E-1  -1.261803726665676E-2   1.265683386075872E-1  
 7.011252813203301E9     2.593742951750756E-2   1.367905606064000E-1  -7.946563519374538E-1  -4.513161003589631E-1  -8.031206257513293E-1  -5.070540255308152E-1  -1.211005176417530E-2   1.260626431719624E-1  
 7.012003000750188E9     2.826176093891263E-2   1.361008787827509E-1  -7.915664984502906E-1  -4.510343101620675E-1  -8.042402375075618E-1  -5.055357873439789E-1  -1.199451358057559E-2   1.206496663809042E-1  
 7.012753188297074E9     2.620174387469888E-2   1.392775890268964E-1  -7.904510733260326E-1  -4.480635800957681E-1  -8.054688048917413E-1  -5.021212011575700E-1  -1.138649630360305E-2   1.248500298271534E-1  
 7.013503375843961E9     2.514798987656832E-2   1.364624307340530E-1  -7.884703345122195E-1  -4.469524997472764E-1  -8.064013188725655E-1  -4.984020680189133E-1  -9.409552076831459E-3   1.219765487016215E-1  
 7.014253563390848E9     2.320710670202970E-2   1.358269667477557E-1  -7.878558626986686E-1  -4.462821805477144E-1  -8.068873101054879E-1  -4.964564231038094E-1  -1.006861643865705E-2   1.231961024771269E-1  
 7.015003750937735E9     2.282203705981374E-2   1.350990260218358E-1  -7.848873284245926E-1  -4.453746113181115E-1  -8.071664613408670E-1  -4.939732909202576E-1  -9.831884000450375E-3   1.227936054173542E-1  
 7.015753938484621E9     2.127836193889380E-2   1.309815057430566E-1  -7.837695592289941E-1  -4.437473946809770E-1  -8.076032871409922E-1  -4.909082540869713E-1  -8.293150858953595E-3   1.228097774662221E-1  
 7.016504126031508E9     1.861176049336791E-2   1.319086261980567E-1  -7.819848598619926E-1  -4.434635886549950E-1  -8.078307162791740E-1  -4.888380581140518E-1  -3.578754256013781E-3   1.198193921653659E-1  
 7.017254313578395E9     2.084553459659219E-2   1.314846249235957E-1  -7.808256801601700E-1  -4.438276010751725E-1  -8.089198231400033E-1  -4.852165171504022E-1  -6.166733182035387E-3   1.217722095324484E-1  
 7.018004501125281E9     2.034516865387559E-2   1.318162270019739E-1  -7.794380622423545E-1  -4.445352947711945E-1  -8.096909282647604E-1  -4.827259263396264E-1  -4.584112220909448E-3   1.198997844789679E-1  
 7.018754688672168E9     2.115735294297337E-2   1.324771606048543E-1  -7.772889261038201E-1  -4.456512337923051E-1  -8.087458150119838E-1  -4.816704311966897E-1   7.384980641472795E-4   1.174495598722680E-1  
 7.019504876219055E9     2.533516444265843E-2   1.279410552949684E-1  -7.777639723732639E-1  -4.462891805171967E-1  -8.095400271887266E-1  -4.780613303184510E-1   2.535699644940905E-3   1.209681177663922E-1  
 7.020255063765942E9     2.049707604572177E-2   1.327859167000423E-1  -7.753813691235680E-1  -4.456096541881562E-1  -8.097948586683789E-1  -4.765063351392747E-1   5.312273362651467E-3   1.189334700090360E-1  
 7.021005251312828E9     2.223602257668972E-2   1.285126963687616E-1  -7.749399339527241E-1  -4.463546317815780E-1  -8.085303471715497E-1  -4.727048730850220E-1   4.486952749430203E-3   1.221296836810523E-1  
 7.021755438859715E9     2.008518893271685E-2   1.303784485675660E-1  -7.737530572251434E-1  -4.476331719756127E-1  -8.091510833146138E-1  -4.711585760116578E-1   8.324986719526351E-3   1.217679262770752E-1  
 7.022505626406602E9     2.106646813452244E-2   1.276435800083788E-1  -7.745706640870904E-1  -4.476701793074608E-1  -8.097011891928756E-1  -4.685978952050210E-1   8.452448090538382E-3   1.173841448269188E-1  
 7.023255813953488E9     2.138929923996329E-2   1.247344355441599E-1  -7.730213040944933E-1  -4.484662547707558E-1  -8.088008671466069E-1  -4.665888625383378E-1   1.475098568014801E-2   1.226568696740748E-1  
 7.024006001500375E9     1.913333578035235E-2   1.276670417621391E-1  -7.737861346586552E-1  -4.498746716976166E-1  -8.083767130139149E-1  -4.646645027399063E-1   1.421094414778054E-2   1.203566739579210E-1  
 7.024756189047262E9     2.041237551718950E-2   1.238859998740580E-1  -7.727807213582637E-1  -4.527505296468735E-1  -8.050764620249907E-1  -4.661757695674897E-1   1.650651528500021E-2   1.238841864954159E-1  
 7.025506376594149E9     1.910061631351710E-2   1.263605040890706E-1  -7.730769487979147E-1  -4.534131813049316E-1  -8.088685894501810E-1  -4.611696878075601E-1   1.984287273138762E-2   1.205198535448836E-1  
 7.026256564141035E9     2.085993228480220E-2   1.270825974500058E-1  -7.748792115464500E-1  -4.533059769868851E-1  -8.080480881999861E-1  -4.583306640386581E-1   2.342779921367765E-2   1.246504783006967E-1  
 7.027006751687922E9     2.314637964591384E-2   1.247443168648791E-1  -7.744207970612351E-1  -4.575595295429230E-1  -8.051638463929774E-1  -4.576071816682816E-1   2.761288778856397E-2   1.245260832652686E-1  
 7.027756939234809E9     2.138512445613742E-2   1.253069592300124E-1  -7.761666570929845E-1  -4.565444016456605E-1  -8.054334940316879E-1  -4.584501171112061E-1   2.575688449665905E-2   1.260388427232553E-1  
 7.028507126781695E9     2.278791107237339E-2   1.226318245027683E-1  -7.790716682861645E-1  -4.564538520574570E-1  -8.053320078728246E-1  -4.568284416198731E-1   2.774890365079046E-2   1.244668345686854E-1  
 7.029257314328582E9     2.174557961523533E-2   1.222558356421931E-1  -7.801651798334748E-1  -4.598837789893151E-1  -8.060991441411725E-1  -4.547928920388222E-1   3.231360359117389E-2   1.233397729982046E-1  
 7.030007501875469E9     2.224119160324336E-2   1.241080691607171E-1  -7.818571681811323E-1  -4.596961221098900E-1  -8.055584271898596E-1  -4.530272555351258E-1   3.299287073314191E-2   1.227920824714713E-1  
 7.030757689422356E9     2.182301197201014E-2   1.241556592128278E-1  -7.827903436004229E-1  -4.628892761468888E-1  -8.053565751220209E-1  -4.505579787492753E-1   3.531406302005053E-2   1.280952604702170E-1  
 7.031507876969242E9     2.158949492499233E-2   1.213759620646092E-1  -7.862963966563392E-1  -4.622898903489113E-1  -8.044817264940739E-1  -4.518587592244149E-1   3.870143622159958E-2   1.291510367073131E-1  
 7.032258064516130E9     2.200379718095064E-2   1.228820777749692E-1  -7.886868412461822E-1  -4.629948133230210E-1  -8.040228481025243E-1  -4.502781704068185E-1   3.578498460352421E-2   1.295790335957399E-1  
 7.033008252063016E9     2.408446565270424E-2   1.222194808538122E-1  -7.924321155887776E-1  -4.642027503252030E-1  -8.037605593163042E-1  -4.487415286898614E-1   4.105235807597638E-2   1.292089977467213E-1  
 7.033758439609902E9     2.003713801503181E-2   1.225431441534149E-1  -7.954700128471084E-1  -4.647467419505120E-1  -8.036094240921967E-1  -4.488628429174423E-1   4.008018970489502E-2   1.279666474033885E-1  
 7.034508627156789E9     2.231579903513193E-2   1.215368652871389E-1  -7.989215863102913E-1  -4.641250273585320E-1  -8.030806084738058E-1  -4.493168690800667E-1   4.386298086494207E-2   1.326375511894114E-1  
 7.035258814703676E9     2.266157543286681E-2   1.220687410492254E-1  -8.015506037041371E-1  -4.634892734885217E-1  -8.033854243617942E-1  -4.473812565207482E-1   4.328441567718982E-2   1.345261157225849E-1  
 7.036009002250563E9     2.283803211525083E-2   1.219979141251389E-1  -8.057972031653408E-1  -4.630770698189736E-1  -8.032365108605530E-1  -4.478433987498284E-1   4.746258791536093E-2   1.358579677693816E-1  
 7.036759189797449E9     2.222755944356322E-2   1.242246349214182E-1  -8.083616898744924E-1  -4.622177800536156E-1  -8.038637194009097E-1  -4.483337089419365E-1   4.850153040140868E-2   1.335036749963710E-1  
 7.037509377344337E9     2.351854914799333E-2   1.249704778180890E-1  -8.123337770222139E-1  -4.616096055507660E-1  -8.031753914275532E-1  -4.484005540609360E-1   4.601917698979378E-2   1.403154938492647E-1  
 7.038259564891223E9     2.465796060860157E-2   1.228407815849495E-1  -8.176747314334041E-1  -4.590524294972421E-1  -8.048442529930989E-1  -4.469963538646699E-1   4.342138964682818E-2   1.390475140593585E-1  
 7.039009752438109E9     2.461659904569388E-2   1.220562016869867E-1  -8.202423829636487E-1  -4.567061096429825E-1  -8.047591956614998E-1  -4.467643252015114E-1   4.358454145491123E-2   1.405190677449167E-1  
 7.039759939984996E9     2.679142570123076E-2   1.241558709918287E-1  -8.247300496858894E-1  -4.568825247883797E-1  -8.063382494280811E-1  -4.439478743076324E-1   4.371698863804340E-2   1.411729548603950E-1  
 7.040510127531883E9     2.668206200003624E-2   1.267593199712399E-1  -8.286551869518137E-1  -4.514871397614479E-1  -8.071008940195876E-1  -4.461796376109124E-1   4.727190613746644E-2   1.456160973957152E-1  
 7.041260315078770E9     2.634100448340178E-2   1.259380041262220E-1  -8.318237775174582E-1  -4.503563186526299E-1  -8.084542652367388E-1  -4.439743408560753E-1   4.224049985408783E-2   1.460103078287785E-1  
 7.042010502625656E9     3.017542812973261E-2   1.279982578545433E-1  -8.340441849073061E-1  -4.484175488352775E-1  -8.076820665975684E-1  -4.450607696175575E-1   4.140004381537437E-2   1.501694707643433E-1  
 7.042760690172544E9     3.203900519758463E-2   1.309745020626120E-1  -8.378148762153900E-1  -4.463710165023803E-1  -8.078963083694023E-1  -4.457904270291329E-1   4.232784707099199E-2   1.510034011125701E-1  
 7.043510877719430E9     3.057767746970058E-2   1.268500173314622E-1  -8.415927741408846E-1  -4.415574961900712E-1  -8.104305454718500E-1  -4.455126512050629E-1   4.380057759582996E-2   1.531458250131281E-1  
 7.044261065266316E9     3.238667227327824E-2   1.275961777502484E-1  -8.436930395292497E-1  -4.385322615504265E-1  -8.124154470969783E-1  -4.458448374271393E-1   4.272600702941418E-2   1.508127245300806E-1  
 7.045011252813203E9     3.398343216627836E-2   1.305043475457217E-1  -8.461097033927083E-1  -4.360252681374551E-1  -8.125266123795925E-1  -4.453636425733566E-1   4.011018868535757E-2   1.556052500839968E-1  
 7.045761440360090E9     3.530057173222304E-2   1.313778514246919E-1  -8.494522276560730E-1  -4.315032419562341E-1  -8.142442552884706E-1  -4.440137583017350E-1   3.765814412385225E-2   1.567672420922064E-1  
 7.046511627906977E9     3.458293475210666E-2   1.304314416912619E-1  -8.522179879504317E-1  -4.264267128705979E-1  -8.152793037395295E-1  -4.447135075926781E-1   3.808067914098502E-2   1.577386113533860E-1  
 7.047261815453863E9     3.456478156149388E-2   1.310759395686706E-1  -8.534130553156045E-1  -4.221293458342553E-1  -8.184028240987934E-1  -4.437579619884491E-1   3.724986262619496E-2   1.568912579130904E-1  
 7.048012003000751E9     3.872169662266969E-2   1.305368307021886E-1  -8.560799349360644E-1  -4.196869844198227E-1  -8.188703200750039E-1  -4.429324188828469E-1   3.419961202889681E-2   1.615806776231026E-1  
 7.048762190547637E9     4.041432570666075E-2   1.319873158492809E-1  -8.573381604142951E-1  -4.154167711734771E-1  -8.223911501701626E-1  -4.426997593045235E-1   3.603571452200412E-2   1.609819666378776E-1  
 7.049512378094523E9     3.810102380812169E-2   1.289342449200190E-1  -8.587443131405684E-1  -4.098948502540590E-1  -8.231513564927213E-1  -4.426137864589692E-1   3.246421914547681E-2   1.614196828988781E-1  
 7.050262565641411E9     4.104448635131121E-2   1.302324451926882E-1  -8.602450847715178E-1  -4.049108287692069E-1  -8.252807354211087E-1  -4.408548602461816E-1   3.468819946050643E-2   1.619476212928957E-1  
 7.051012753188297E9     4.192652285099030E-2   1.313185607469578E-1  -8.603518126068455E-1  -4.012328010797501E-1  -8.267386142334089E-1  -4.395938992500306E-1   2.800223331898451E-2   1.645237439682245E-1  
 7.051762940735184E9     4.363362859934569E-2   1.277425031874024E-1  -8.617423528722632E-1  -3.952191594243050E-1  -8.313252821479643E-1  -4.395223388075829E-1   3.309601809829474E-2   1.630788852070050E-1  
 7.052513128282070E9     4.551702853292227E-2   1.297079766077014E-1  -8.609266239742499E-1  -3.915934333205224E-1  -8.318616301085775E-1  -4.389630144834519E-1   3.339312799274922E-2   1.648477129480472E-1  
 7.053263315828958E9     4.490899607539178E-2   1.314822381529803E-1  -8.597814499904072E-1  -3.877620342373849E-1  -8.337574299493316E-1  -4.355718129873276E-1   2.652179062366486E-2   1.629722017591487E-1  
 7.054013503375844E9     4.658330105245113E-2   1.297636813701813E-1  -8.592392933227129E-1  -3.835227021574975E-1  -8.352744555029086E-1  -4.346827307343483E-1   2.712796662002802E-2   1.650920146161520E-1  
 7.054763690922730E9     4.869811538606882E-2   1.316543917730819E-1  -8.579888760173229E-1  -3.800200662016869E-1  -8.375055034845568E-1  -4.328163424134255E-1   2.783775916323066E-2   1.634076624211024E-1  
 7.055513878469618E9     4.746986396610737E-2   1.298115413377798E-1  -8.568393629022479E-1  -3.762397000193596E-1  -8.393467358048037E-1  -4.315383318066598E-1   2.177220420911908E-2   1.602886600858025E-1  
 7.056264066016504E9     4.778007704764605E-2   1.296044713330439E-1  -8.565186247512057E-1  -3.720202013850212E-1  -8.415675813479228E-1  -4.297424188256264E-1   2.346184819936752E-2   1.594347491731122E-1  
 7.057014253563391E9     4.936569981276990E-2   1.308904318133855E-1  -8.542976511006860E-1  -3.687572368979454E-1  -8.424344937825957E-1  -4.276482817530632E-1   2.132526153698564E-2   1.611951452299073E-1  
 7.057764441110277E9     4.883858185261489E-2   1.274527859392310E-1  -8.547202677974439E-1  -3.654042935371399E-1  -8.443002607153813E-1  -4.267968976497651E-1   1.509018855169416E-2   1.577987979255677E-1  
 7.058514628657165E9     4.805246565490962E-2   1.284762503790094E-1  -8.515227186443763E-1  -3.619116681814194E-1  -8.463940805228257E-1  -4.226298120617867E-1   1.786617578938604E-2   1.584600133071401E-1  
 7.059264816204051E9     5.010709017515183E-2   1.261267482546904E-1  -8.517692288286396E-1  -3.596846929192543E-1  -8.480546960060333E-1  -4.201463440060616E-1   1.199774276465178E-2   1.576184490491248E-1  
 7.060015003750938E9     4.977574791759253E-2   1.276057515829104E-1  -8.484547244978118E-1  -3.580054783821107E-1  -8.490302647503423E-1  -4.177413633465767E-1   1.105304588563740E-2   1.562318578659901E-1  
 7.060765191297825E9     4.876023437827827E-2   1.266899198093813E-1  -8.459310231326314E-1  -3.550704163312913E-1  -8.505150601814353E-1  -4.148680874705315E-1   1.264070558361709E-2   1.530494866527097E-1  
 7.061515378844711E9     4.788816634565592E-2   1.254757464705870E-1  -8.435729710928908E-1  -3.527763408422470E-1  -8.515124210491699E-1  -4.129824817180635E-1   7.238414669409395E-3   1.515415559740991E-1  
 7.062265566391598E9     4.921627622097731E-2   1.286180308537607E-1  -8.411615587171480E-1  -3.524440699815750E-1  -8.520968596165545E-1  -4.114283278584481E-1   5.408127619884909E-3   1.482356225546939E-1  
 7.063015753938484E9     4.805766198784113E-2   1.273449956053369E-1  -8.398104598173344E-1  -3.501912912726403E-1  -8.520403719613936E-1  -4.079745715856553E-1   5.829109773039820E-3   1.487027318359230E-1  
 7.063765941485372E9     4.707406021654607E-2   1.284616005615628E-1  -8.377023352070644E-1  -3.484482619166374E-1  -8.537307585077094E-1  -4.046906569600106E-1   3.275748051237316E-3   1.461751318737926E-1  
 7.064516129032258E9     4.749369341880083E-2   1.284033780595932E-1  -8.352266470216746E-1  -3.474879029393196E-1  -8.532293894970859E-1  -4.024609497189523E-1   3.972518659429625E-4   1.464349108727981E-1  
 7.065266316579145E9     4.515715688467027E-2   1.253180623356735E-1  -8.334424671860855E-1  -3.465018424391748E-1  -8.537186991552563E-1  -4.000121384859086E-1  -9.188173571601512E-4   1.439888750432039E-1  
 7.066016504126032E9     4.607530601322651E-2   1.286108541600398E-1  -8.309700002724947E-1  -3.463766425848008E-1  -8.541574748475018E-1  -3.984929513931275E-1  -3.169929319992661E-3   1.426090962774439E-1  
 7.066766691672918E9     4.741998065263034E-2   1.282115549990157E-1  -8.285331423306255E-1  -3.448787134885788E-1  -8.546275574788677E-1  -3.952448287606239E-1  -5.198890534229577E-3   1.393011214769429E-1  
 7.067516879219805E9     4.469613526016474E-2   1.268741676912531E-1  -8.268695235500778E-1  -3.448201903700828E-1  -8.541333519911326E-1  -3.936239013075829E-1  -5.216287935618311E-3   1.377294754031341E-1  
 7.068267066766691E9     4.590914629399777E-2   1.268925683548196E-1  -8.245405371471388E-1  -3.459588420391084E-1  -8.548024927077568E-1  -3.905381119251252E-1  -5.643295282498001E-3   1.346293157111000E-1  
 7.069017254313579E9     4.564890433102847E-2   1.277138643483207E-1  -8.230008555892948E-1  -3.461783081293106E-1  -8.551409968245842E-1  -3.891249254345894E-1  -5.178771398495883E-3   1.367480190989664E-1  
 7.069767441860465E9     4.445153109729291E-2   1.295280563767960E-1  -8.212717155999854E-1  -3.465066954493522E-1  -8.540657911992171E-1  -3.855519491434097E-1  -6.513556898571551E-3   1.342283674993836E-1  
