#  HZ   S   RI   R     50.0 
! Rohde & Schwarz ZVL13 2Ports - Version 3.31 - 1303.6509k13 SN: 101088
! Date: 2023-03-06 15:27:51
! Data & Calibration Information:
! Trc4:S11(TOSM) Trc2:S21(TOSM) Trc3:S12(TOSM) Trc5:S22(TOSM)
! 
! 
! 
 7.000000000000000E9     3.587722614407540E-2   1.589672213316040E-1  -8.110405854981114E-1  -4.956754437088967E-1  -7.715146250998818E-1  -5.367814695835115E-1  -1.279947355389595E-2   1.651770278534360E-1  
 7.000750187546886E9     3.714350737631321E-2   1.567438266709676E-1  -8.118071584497996E-1  -4.924007484316826E-1  -7.744082456876436E-1  -5.355916619300842E-1  -1.533402990549803E-2   1.610881281983898E-1  
 7.001500375093774E9     3.548084557056427E-2   1.529919663286568E-1  -8.124708384363963E-1  -4.875281509757042E-1  -7.765714740754133E-1  -5.351033359766008E-1  -1.261863223277033E-2   1.608846981988389E-1  
 7.002250562640660E9     3.658823773264885E-2   1.518356384014017E-1  -8.109176688615419E-1  -4.847418707609177E-1  -7.790110700605636E-1  -5.332030099630356E-1  -1.766101557761431E-2   1.546357969292159E-1  
 7.003000750187547E9     3.486093576997518E-2   1.498481378559031E-1  -8.104263195316114E-1  -4.798021465539932E-1  -7.819942457294846E-1  -5.316026967763901E-1  -1.384020284749568E-2   1.542821381838132E-1  
 7.003750937734433E9     3.420861233025790E-2   1.480483986999171E-1  -8.101789289220718E-1  -4.750320655107499E-1  -7.847626617125660E-1  -5.303488564491272E-1  -1.548624709248543E-2   1.545570561931695E-1  
 7.004501125281321E9     3.664966266602278E-2   1.463151175891128E-1  -8.094746435138234E-1  -4.728581318259240E-1  -7.869016026075627E-1  -5.298942410945894E-1  -1.525989555753768E-2   1.508315698082396E-1  
 7.005251312828207E9     3.827372469007969E-2   1.510358844540295E-1  -8.063594739287165E-1  -4.698924949765206E-1  -7.893713269275324E-1  -5.269682508707047E-1  -1.191044530831278E-2   1.466136979882694E-1  
 7.006001500375094E9     3.596899174153804E-2   1.473245258021128E-1  -8.056324815912099E-1  -4.658089742064476E-1  -7.914540237882307E-1  -5.247615426778793E-1  -1.488022596575320E-2   1.461924803123952E-1  
 7.006751687921981E9     3.659244243055582E-2   1.501162683145160E-1  -8.036457917813673E-1  -4.639728456735611E-1  -7.924378714004331E-1  -5.238318979740143E-1  -1.376277066767216E-2   1.430775824624832E-1  
 7.007501875468867E9     3.555869702249766E-2   1.456233535257061E-1  -8.023533329400923E-1  -4.602699345350266E-1  -7.952872030419635E-1  -5.210175663232803E-1  -1.496609176509082E-2   1.403832593344277E-1  
 7.008252063015754E9     3.558499008417129E-2   1.425833113759450E-1  -8.008831778166122E-1  -4.578243625164032E-1  -7.966083464633608E-1  -5.182847267389297E-1  -1.461361893452704E-2   1.375260564580034E-1  
 7.009002250562640E9     3.082371937111020E-2   1.446596614886141E-1  -7.986928602584610E-1  -4.553089755773545E-1  -7.989193161474042E-1  -5.137358868122102E-1  -1.317644350230694E-2   1.365156843123757E-1  
 7.009752438109528E9     3.191413806751371E-2   1.438186517455000E-1  -7.964974060558322E-1  -4.528909435868264E-1  -7.998647212368285E-1  -5.132034850120544E-1  -1.324100589379669E-2   1.379936174561782E-1  
 7.010502625656414E9     3.136541984975338E-2   1.422618111697931E-1  -7.957041051067028E-1  -4.526518020033836E-1  -8.017121365629616E-1  -5.103100216388702E-1  -1.471241007559002E-2   1.309740434269902E-1  
 7.011252813203301E9     2.861749121919275E-2   1.399773649154008E-1  -7.940982769578520E-1  -4.502355697751046E-1  -8.034224859902122E-1  -5.068144315481186E-1  -1.361685094423592E-2   1.304770739700372E-1  
 7.012003000750188E9     3.101889332756400E-2   1.393996391306916E-1  -7.911287348540252E-1  -4.499947777390480E-1  -8.045670887552643E-1  -5.051979625225068E-1  -1.369203181937337E-2   1.253882630155694E-1  
 7.012753188297074E9     2.900163520127536E-2   1.420707312351346E-1  -7.896524433395319E-1  -4.472832909226419E-1  -8.055521945444062E-1  -5.021073657274248E-1  -1.326108158566058E-2   1.295506163608502E-1  
 7.013503375843961E9     2.723013572394848E-2   1.391940486455564E-1  -7.876606886667359E-1  -4.458521857857704E-1  -8.062962007629628E-1  -4.985389718413354E-1  -1.125052927527577E-2   1.261291999957090E-1  
 7.014253563390848E9     2.573889795690774E-2   1.392536406763879E-1  -7.870839768212997E-1  -4.450271227955819E-1  -8.065876064119603E-1  -4.964228105545044E-1  -1.208234244957566E-2   1.277000434945524E-1  
 7.015003750937735E9     2.494506468996406E-2   1.374477566823350E-1  -7.846683811255250E-1  -4.439273187518120E-1  -8.073993441362251E-1  -4.940186613798142E-1  -1.140262275934219E-2   1.271900298143271E-1  
 7.015753938484621E9     2.385551726445556E-2   1.341256534885330E-1  -7.831052158362900E-1  -4.426021975278854E-1  -8.074404164834622E-1  -4.911126056313515E-1  -9.560093032196165E-3   1.274072788498296E-1  
 7.016504126031508E9     2.116473104804755E-2   1.350556583629811E-1  -7.809869759517858E-1  -4.426962792873384E-1  -8.080511190973634E-1  -4.886484128236771E-1  -5.029216224793345E-3   1.240244411841276E-1  
 7.017254313578395E9     2.386519001796842E-2   1.353700657580889E-1  -7.797668586795709E-1  -4.431565809249879E-1  -8.087820833346009E-1  -4.850500929355623E-1  -7.712348252534866E-3   1.260369666829179E-1  
 7.018004501125281E9     2.412460790947080E-2   1.353346128335213E-1  -7.788051951179811E-1  -4.436498409509659E-1  -8.091648287349557E-1  -4.830717420578004E-1  -5.975434724241497E-3   1.244606040165353E-1  
 7.018754688672168E9     2.367571352049708E-2   1.359159624106216E-1  -7.767060068682805E-1  -4.447468125820160E-1  -8.089695892059379E-1  -4.810727280378342E-1  -7.865679389215076E-4   1.216218740193968E-1  
 7.019504876219055E9     2.759692279621959E-2   1.308542754278221E-1  -7.765967847435159E-1  -4.454363077878953E-1  -8.096640260215504E-1  -4.776974156498910E-1   1.550916443084134E-3   1.248370372181260E-1  
 7.020255063765942E9     2.342761753126979E-2   1.360864524234369E-1  -7.740314972347432E-1  -4.452155801653863E-1  -8.094045023419614E-1  -4.760088211297989E-1   3.634225020650775E-3   1.220489349428127E-1  
 7.021005251312828E9     2.488054348155856E-2   1.324279403731062E-1  -7.735619803601930E-1  -4.463650563359261E-1  -8.081439975863449E-1  -4.732567372918129E-1   2.284282991313376E-3   1.262287001792424E-1  
 7.021755438859715E9     2.327130045741797E-2   1.331146444119608E-1  -7.730554947051977E-1  -4.467310255765916E-1  -8.092301603986771E-1  -4.706998685002327E-1   7.471751142293216E-3   1.268048322167175E-1  
 7.022505626406602E9     2.467098914086819E-2   1.307407447586552E-1  -7.735979272736120E-1  -4.469506067037583E-1  -8.092312351226327E-1  -4.684677034616471E-1   6.660915780812503E-3   1.216432775546390E-1  
 7.023255813953488E9     2.458525458350778E-2   1.281122450495451E-1  -7.716586688609995E-1  -4.475096917152406E-1  -8.083140878755559E-1  -4.663126432895661E-1   1.404849730432034E-2   1.274797191688432E-1  
 7.024006001500375E9     2.170816283673048E-2   1.304104076195017E-1  -7.724189385282932E-1  -4.492999550700187E-1  -8.076673087262594E-1  -4.648832419514657E-1   1.335438000969589E-2   1.252888287645921E-1  
 7.024756189047262E9     2.324766203761101E-2   1.274866965820776E-1  -7.718201119991850E-1  -4.520720109343529E-1  -8.050369389157452E-1  -4.654758450388910E-1   1.496345390565693E-2   1.288750710913479E-1  
 7.025506376594149E9     2.222673540934920E-2   1.291472557741186E-1  -7.719735651742177E-1  -4.527037936449052E-1  -8.083325686313557E-1  -4.609661856293679E-1   1.847892830148339E-2   1.251250650576604E-1  
 7.026256564141035E9     2.301584884524346E-2   1.307761380524999E-1  -7.734119413519127E-1  -4.532230979204178E-1  -8.074230692011930E-1  -4.582791656255723E-1   2.123430896550417E-2   1.291412966092100E-1  
 7.027006751687922E9     2.524428633973002E-2   1.278485806984285E-1  -7.730715542608825E-1  -4.573057904839517E-1  -8.043611397141631E-1  -4.575979271531105E-1   2.647248275578022E-2   1.290489555389457E-1  
 7.027756939234809E9     2.462348971515894E-2   1.285813591090113E-1  -7.748458756515871E-1  -4.564361107349396E-1  -8.046716725681246E-1  -4.579754528403283E-1   2.430282596498728E-2   1.306275780996689E-1  
 7.028507126781695E9     2.586818341165781E-2   1.264442193219667E-1  -7.776269306673357E-1  -4.562826663255692E-1  -8.046758870631059E-1  -4.565892237424850E-1   2.721831973642111E-2   1.291644931946530E-1  
 7.029257314328582E9     2.503373404964805E-2   1.254941615504321E-1  -7.785250741048171E-1  -4.600607162714005E-1  -8.052455964454156E-1  -4.548052224516869E-1   3.075971124693751E-2   1.280312349998447E-1  
 7.030007501875469E9     2.624020695686341E-2   1.277134238336558E-1  -7.805291656764563E-1  -4.592756751179696E-1  -8.045947739858090E-1  -4.531056937575341E-1   3.154509032145142E-2   1.278791823772569E-1  
 7.030757689422356E9     2.586891470476985E-2   1.279174343974953E-1  -7.818361993776910E-1  -4.619486898183823E-1  -8.044586662028651E-1  -4.502402654290200E-1   3.382512800395489E-2   1.330770910158815E-1  
 7.031507876969242E9     2.492714026942849E-2   1.248022621681693E-1  -7.851769486617981E-1  -4.629848408699036E-1  -8.031982771239077E-1  -4.518245869874955E-1   3.739045932888985E-2   1.336357818333007E-1  
 7.032258064516130E9     2.516526352614165E-2   1.262671458556388E-1  -7.875612574673324E-1  -4.632611683011055E-1  -8.030230786374329E-1  -4.506826838850975E-1   3.454057618975640E-2   1.342800946006518E-1  
 7.033008252063016E9     2.725780332461000E-2   1.266886334272717E-1  -7.917711275775302E-1  -4.643897518515588E-1  -8.026384803662470E-1  -4.486873677372933E-1   3.992833957076072E-2   1.340618977096018E-1  
 7.033758439609902E9     2.398418698459864E-2   1.261605943886391E-1  -7.943884533908709E-1  -4.644941005110742E-1  -8.024436186825277E-1  -4.488065767288207E-1   3.863937232643366E-2   1.336778295087770E-1  
 7.034508627156789E9     2.569858467206359E-2   1.255667921378734E-1  -7.981964463274336E-1  -4.643580001592637E-1  -8.021606338299134E-1  -4.491964009404182E-1   4.339677188545466E-2   1.374865628305422E-1  
 7.035258814703676E9     2.609606618061662E-2   1.253562166392747E-1  -8.004089874250624E-1  -4.641710758209229E-1  -8.017648510862167E-1  -4.481998842954637E-1   4.303847711533308E-2   1.392493887226952E-1  
 7.036009002250563E9     2.545544039458036E-2   1.258360805590597E-1  -8.048850642954623E-1  -4.635804247856140E-1  -8.021851053840061E-1  -4.482839754223824E-1   4.586271129548550E-2   1.405830937330834E-1  
 7.036759189797449E9     2.500251680612565E-2   1.275073842639101E-1  -8.071214769488193E-1  -4.633300864696502E-1  -8.026872297859290E-1  -4.488255313038826E-1   4.698008749634028E-2   1.387368489755027E-1  
 7.037509377344337E9     2.671157497912646E-2   1.286495702742687E-1  -8.114321026068400E-1  -4.621359118819238E-1  -8.016097939101010E-1  -4.487291193008423E-1   4.471721693873405E-2   1.451840950322299E-1  
 7.038259564891223E9     2.761976929381490E-2   1.269483472874955E-1  -8.170240754902195E-1  -4.597198665142059E-1  -8.036523326050927E-1  -4.469496372342111E-1   4.292599275708199E-2   1.439780121378956E-1  
 7.039009752438109E9     2.757683075964451E-2   1.258309690098850E-1  -8.192118704644131E-1  -4.577043041586877E-1  -8.037542923628835E-1  -4.470378980040550E-1   4.281708408147097E-2   1.451429093465320E-1  
 7.039759939984996E9     2.953794766217471E-2   1.281812794609311E-1  -8.234834849326950E-1  -4.581000021100046E-1  -8.049362939874591E-1  -4.447414854168893E-1   4.256074693053961E-2   1.462306813186015E-1  
 7.040510127531883E9     2.952199518680573E-2   1.306625989056745E-1  -8.280505720758563E-1  -4.525719809532166E-1  -8.056973909228760E-1  -4.468556916713715E-1   4.654152855277063E-2   1.495056539235921E-1  
 7.041260315078770E9     2.948780992999673E-2   1.298251605548458E-1  -8.316251657814395E-1  -4.505108377337457E-1  -8.078363213175247E-1  -4.437295141816140E-1   4.161996833980084E-2   1.498928472976325E-1  
 7.042010502625656E9     3.360597196966410E-2   1.317428365295619E-1  -8.335226116316437E-1  -4.488559401035309E-1  -8.066570891982925E-1  -4.451682400703431E-1   3.929328959435225E-2   1.553136315779381E-1  
 7.042760690172544E9     3.456093505024911E-2   1.348455088084027E-1  -8.376073567274914E-1  -4.471668127179146E-1  -8.066372959671618E-1  -4.469029268622400E-1   4.136864680796863E-2   1.561776015269948E-1  
 7.043510877719430E9     3.343609828501939E-2   1.312321391971387E-1  -8.413400361682246E-1  -4.423438954353333E-1  -8.089804151151080E-1  -4.466555437445641E-1   4.262038324028255E-2   1.583591588904726E-1  
 7.044261065266316E9     3.552666459232569E-2   1.314259416354767E-1  -8.438756915271313E-1  -4.383775383234025E-1  -8.115612146516573E-1  -4.461960989236832E-1   4.167159322649241E-2   1.560245505859753E-1  
 7.045011252813203E9     3.717396702617408E-2   1.345727344984788E-1  -8.460910437182703E-1  -4.361374714970588E-1  -8.115285300192675E-1  -4.458948391675950E-1   3.974356889724730E-2   1.611179139700673E-1  
 7.045761440360090E9     3.843549005687237E-2   1.354280761183476E-1  -8.489899251472619E-1  -4.323180091381074E-1  -8.130545400971379E-1  -4.448570817708969E-1   3.732422456145287E-2   1.617220237310368E-1  
 7.046511627906977E9     3.766658555716277E-2   1.342566374211495E-1  -8.517511444078623E-1  -4.266997781395913E-1  -8.140660200907663E-1  -4.455934444069863E-1   3.751909222453833E-2   1.626348573833557E-1  
 7.047261815453863E9     3.740036141127348E-2   1.356790027393852E-1  -8.533299213130867E-1  -4.225684115290643E-1  -8.173756972143316E-1  -4.449140188097954E-1   3.696723133325577E-2   1.613230275525460E-1  
 7.048012003000751E9     4.102550402283669E-2   1.352384372227893E-1  -8.559973898524352E-1  -4.197138866782189E-1  -8.179591907385327E-1  -4.438599327206612E-1   3.344268593937159E-2   1.655114127550360E-1  
 7.048762190547637E9     4.356428775936365E-2   1.362514397301175E-1  -8.573230122590214E-1  -4.154488191008568E-1  -8.215377180254071E-1  -4.437623926997185E-1   3.495223503559828E-2   1.667850029257652E-1  
 7.049512378094523E9     4.088715799152852E-2   1.327807674904791E-1  -8.588773404379573E-1  -4.100017353892327E-1  -8.222548673161472E-1  -4.435690280795098E-1   3.143604984506965E-2   1.663688944146070E-1  
 7.050262565641411E9     4.450960468500852E-2   1.350075856405008E-1  -8.602924105368078E-1  -4.043278783559799E-1  -8.239225743481535E-1  -4.419468754529954E-1   3.290327018126846E-2   1.664958815521379E-1  
 7.051012753188297E9     4.511479739099741E-2   1.357038766632762E-1  -8.598433530839823E-1  -4.015842336416244E-1  -8.261816520472360E-1  -4.406546166539193E-1   2.751253552734852E-2   1.694975843794763E-1  
 7.051762940735184E9     4.642509210854769E-2   1.320625714808322E-1  -8.619347409164220E-1  -3.950971961021424E-1  -8.298933403959743E-1  -4.409203612804414E-1   3.268606459721923E-2   1.679243056195586E-1  
 7.052513128282070E9     4.844706248492003E-2   1.343519633629567E-1  -8.607316368896250E-1  -3.915061053633691E-1  -8.312313270297915E-1  -4.405345883965493E-1   3.213285954669118E-2   1.705407173010087E-1  
 7.053263315828958E9     4.824065282940866E-2   1.353471953554409E-1  -8.597605562063099E-1  -3.878430861234666E-1  -8.328226236518003E-1  -4.367019480466843E-1   2.570418681949377E-2   1.680920179863673E-1  
 7.054013503375844E9     4.984214749187232E-2   1.335081899984944E-1  -8.589867880666477E-1  -3.833064433932304E-1  -8.348385686466303E-1  -4.363058370351792E-1   2.629503976553679E-2   1.713674281221912E-1  
 7.054763690922730E9     5.210254337638617E-2   1.352554854552715E-1  -8.579698626199679E-1  -3.798689606785775E-1  -8.365446146558622E-1  -4.338705968856812E-1   2.661741219460964E-2   1.686860174460546E-1  
 7.055513878469618E9     5.070893105119467E-2   1.334825123237928E-1  -8.565560337480702E-1  -3.763939735293389E-1  -8.386535026587110E-1  -4.331138417124749E-1   2.087558062747121E-2   1.651749498588168E-1  
 7.056264066016504E9     5.139516815543176E-2   1.335909867215805E-1  -8.560398058219239E-1  -3.720941564440727E-1  -8.411192013544575E-1  -4.307388171553612E-1   2.307509016245604E-2   1.638302526926253E-1  
 7.057014253563391E9     5.225996624678374E-2   1.343201676340685E-1  -8.535832621692013E-1  -3.691530022025110E-1  -8.419441239487957E-1  -4.290103742480279E-1   2.035843675956131E-2   1.661239832995488E-1  
 7.057764441110277E9     5.152622725814582E-2   1.309464694491311E-1  -8.543491594235328E-1  -3.651908481121064E-1  -8.440154963519801E-1  -4.279493740200997E-1   1.513336433097720E-2   1.624997061998634E-1  
 7.058514628657165E9     5.107583671808243E-2   1.320244056825712E-1  -8.511255377622140E-1  -3.619801789522171E-1  -8.462117698243978E-1  -4.236062517762185E-1   1.720050780102611E-2   1.634315934745496E-1  
 7.059264816204051E9     5.347897216677666E-2   1.299122230445235E-1  -8.512934156526336E-1  -3.591717022657395E-1  -8.473786534348806E-1  -4.217219987511636E-1   1.091411354020238E-2   1.632011136361589E-1  
 7.060015003750938E9     5.274610247462988E-2   1.308904117059257E-1  -8.476789819867399E-1  -3.575967806577683E-1  -8.485929904850014E-1  -4.185584402084351E-1   1.001862529665232E-2   1.608556438290203E-1  
 7.060765191297825E9     5.208608616143466E-2   1.304596443285445E-1  -8.451648213452629E-1  -3.552237871289253E-1  -8.498851153956071E-1  -4.160158872604370E-1   1.216231764294207E-2   1.582216228588712E-1  
 7.061515378844711E9     5.101288031786680E-2   1.293638803528368E-1  -8.425718658584270E-1  -3.527912521362305E-1  -8.512578697533302E-1  -4.133880355954170E-1   7.251590779051185E-3   1.560367142514226E-1  
 7.062265566391598E9     5.237777248024943E-2   1.328383989610598E-1  -8.398211493173209E-1  -3.521203911304474E-1  -8.519581745134434E-1  -4.121704486012459E-1   5.866385425906629E-3   1.528375346531881E-1  
 7.063015753938484E9     5.120685890316964E-2   1.315758089403717E-1  -8.389998545837326E-1  -3.500274822115899E-1  -8.520746455807848E-1  -4.090573298931122E-1   4.634432119783014E-3   1.536772067725908E-1  
 7.063765941485372E9     5.027911242097617E-2   1.324011990001385E-1  -8.363600709780270E-1  -3.487432873249055E-1  -8.531598983533931E-1  -4.057559508085251E-1   2.699300505337305E-3   1.504954369355377E-1  
 7.064516129032258E9     5.030605774372817E-2   1.321556094832530E-1  -8.340000259483210E-1  -3.471517997980118E-1  -8.525645528932058E-1  -4.033757585287095E-1  -9.079665015451612E-4   1.518868639092836E-1  
 7.065266316579145E9     4.832981962710620E-2   1.284913245566484E-1  -8.322692518540888E-1  -3.462458220124245E-1  -8.532802024624868E-1  -4.003399804234505E-1  -2.151327365427278E-3   1.487390122190268E-1  
 7.066016504126032E9     4.979727506637575E-2   1.316019650095342E-1  -8.300536434588346E-1  -3.457317966222763E-1  -8.536453742473495E-1  -3.995029741525650E-1  -4.763995888642967E-3   1.482468124200822E-1  
 7.066766691672918E9     5.045405916869641E-2   1.319027670107158E-1  -8.273315350063232E-1  -3.449584633111955E-1  -8.542568729045127E-1  -3.958949011564256E-1  -5.898845135234296E-3   1.442213845513750E-1  
 7.067516879219805E9     4.797028936445714E-2   1.300801625580569E-1  -8.257297116422866E-1  -3.447267496585846E-1  -8.536751449158848E-1  -3.948223668336869E-1  -6.649570725858212E-3   1.429834863517134E-1  
 7.068267066766691E9     4.878970619291067E-2   1.307450252620463E-1  -8.231537840803309E-1  -3.461369293928147E-1  -8.545052040519783E-1  -3.913672673702240E-1  -6.674178619869053E-3   1.396751403155950E-1  
 7.069017254313579E9     4.901506900787354E-2   1.301835496506661E-1  -8.218015908336227E-1  -3.457208663225174E-1  -8.541641356972040E-1  -3.899669602513314E-1  -6.251637125387787E-3   1.413199552364431E-1  
 7.069767441860465E9     4.732166368514300E-2   1.325406263107952E-1  -8.200711857191975E-1  -3.462628722190858E-1  -8.537433880941695E-1  -3.867963889241219E-1  -8.633871562778952E-3   1.395318249199778E-1  
