#  HZ   S   RI   R     50.0 
! Rohde & Schwarz ZVL13 2Ports - Version 3.31 - 1303.6509k13 SN: 101088
! Date: 2023-03-06 15:30:23
! Data & Calibration Information:
! Trc4:S11(TOSM) Trc2:S21(TOSM) Trc3:S12(TOSM) Trc5:S22(TOSM)
! 
! 
! 
 7.000000000000000E9     3.614044499528640E-2   1.599423867319733E-1  -8.091871762539822E-1  -5.000848849791513E-1  -7.686695835900589E-1  -5.410154160181306E-1  -1.397391248643349E-2   1.641257869445398E-1  
 7.000750187546886E9     3.723656569007323E-2   1.569109520353281E-1  -8.097625835143386E-1  -4.967463885985570E-1  -7.718613636363211E-1  -5.394962076916124E-1  -1.603142491971942E-2   1.607920527297065E-1  
 7.001500375093774E9     3.557503262380206E-2   1.536641419371979E-1  -8.111873195532123E-1  -4.918154672372515E-1  -7.743635210693426E-1  -5.390666626261836E-1  -1.348625217277645E-2   1.609856601207348E-1  
 7.002250562640660E9     3.650750504271080E-2   1.522578133704837E-1  -8.096947094299956E-1  -4.886649336247733E-1  -7.772095874792246E-1  -5.366969922039693E-1  -1.876945790087926E-2   1.548080930194131E-1  
 7.003000750187547E9     3.497961208329126E-2   1.505172696449318E-1  -8.086848502185431E-1  -4.841499966142376E-1  -7.803717270889176E-1  -5.349366378292344E-1  -1.391609309226669E-2   1.544240087205539E-1  
 7.003750937734433E9     3.456624175952364E-2   1.489917966189921E-1  -8.083714905757919E-1  -4.797080454120993E-1  -7.823929220473392E-1  -5.344701944958615E-1  -1.631067092918875E-2   1.544095329442007E-1  
 7.004501125281321E9     3.642870385954126E-2   1.473432704643877E-1  -8.078317262931074E-1  -4.769861062434559E-1  -7.848309793569195E-1  -5.334172700425397E-1  -1.612476638575302E-2   1.507852669126179E-1  
 7.005251312828207E9     3.817734849926886E-2   1.519169832632041E-1  -8.051116113094579E-1  -4.737764631529829E-1  -7.873406217230929E-1  -5.304968793175092E-1  -1.292609776244862E-2   1.459703510592076E-1  
 7.006001500375094E9     3.570473037216307E-2   1.478909249115835E-1  -8.042168688980672E-1  -4.698962502138596E-1  -7.896668824986930E-1  -5.283431013202696E-1  -1.545450864626604E-2   1.465068830198416E-1  
 7.006751687921981E9     3.669367409951148E-2   1.506976802903711E-1  -8.025240016052915E-1  -4.677492289043177E-1  -7.904743705001961E-1  -5.278732141522213E-1  -1.460917321537661E-2   1.443504142707841E-1  
 7.007501875468867E9     3.534306747101065E-2   1.469347688980046E-1  -8.005947616712403E-1  -4.641464633325271E-1  -7.934358922766962E-1  -5.248433310964579E-1  -1.554811860763579E-2   1.407418053138224E-1  
 7.008252063015754E9     3.550885784135474E-2   1.437100556713302E-1  -7.993637701609084E-1  -4.622236807751164E-1  -7.944490116121631E-1  -5.223585305651464E-1  -1.520377112914240E-2   1.376462804383038E-1  
 7.009002250562640E9     3.052748830131098E-2   1.453905699596788E-1  -7.975734584588686E-1  -4.586498911063136E-1  -7.972107392392159E-1  -5.172478934619936E-1  -1.421889543166578E-2   1.373601167625085E-1  
 7.009752438109528E9     3.184135974145279E-2   1.444952956989819E-1  -7.950338467549807E-1  -4.569723511041293E-1  -7.979374124717513E-1  -5.170818933988477E-1  -1.381621594420306E-2   1.381242123106559E-1  
 7.010502625656414E9     3.128037396979182E-2   1.428307658341636E-1  -7.944716641708123E-1  -4.561957778643936E-1  -7.998882184706090E-1  -5.142894716650825E-1  -1.493683866384340E-2   1.310583966294780E-1  
 7.011252813203301E9     2.850158015958175E-2   1.408682161729110E-1  -7.927220040192402E-1  -4.544065889624838E-1  -8.015829303104416E-1  -5.111671892945707E-1  -1.448305489034636E-2   1.306959485625089E-1  
 7.012003000750188E9     3.087497426590739E-2   1.398934187708069E-1  -7.899860674916817E-1  -4.537437576312909E-1  -8.024503269919299E-1  -5.093812015249587E-1  -1.319827686865259E-2   1.259032272072444E-1  
 7.012753188297074E9     2.899857426055744E-2   1.431964297150796E-1  -7.882168697813187E-1  -4.510062251226802E-1  -8.040067606570364E-1  -5.056959895793031E-1  -1.323397730529548E-2   1.297527311754876E-1  
 7.013503375843961E9     2.791458619189421E-2   1.405300419949858E-1  -7.863830303965859E-1  -4.496211468972972E-1  -8.045237022825799E-1  -5.023639626338708E-1  -1.127357744434840E-2   1.265591229909622E-1  
 7.014253563390848E9     2.565482179145560E-2   1.402700682239331E-1  -7.858063045942131E-1  -4.489492251052125E-1  -8.053601615170175E-1  -5.005407022170653E-1  -1.211258252875351E-2   1.279057027917812E-1  
 7.015003750937735E9     2.491592352400537E-2   1.393513031790586E-1  -7.827591424524341E-1  -4.484325521738767E-1  -8.053078405274069E-1  -4.983329149359879E-1  -1.195052584469243E-2   1.276377817253110E-1  
 7.015753938484621E9     2.362636606324268E-2   1.353815159968074E-1  -7.815915513947552E-1  -4.464865548785627E-1  -8.055991855047434E-1  -4.952931887295444E-1  -9.938578255133938E-3   1.279956018851204E-1  
 7.016504126031508E9     2.122106758217218E-2   1.363808549175730E-1  -7.797387707057892E-1  -4.463869487502616E-1  -8.062570998964175E-1  -4.924400700594418E-1  -5.010387267082136E-3   1.241370178987555E-1  
 7.017254313578395E9     2.365112382324954E-2   1.364622016986600E-1  -7.784380026026246E-1  -4.467873720196982E-1  -8.073603928784773E-1  -4.886998896763317E-1  -8.189934950206489E-3   1.258897576671511E-1  
 7.018004501125281E9     2.338822169054731E-2   1.361374755790145E-1  -7.773489828430887E-1  -4.470809938265383E-1  -8.079517134978493E-1  -4.865109059809693E-1  -6.404545027756947E-3   1.246066685992494E-1  
 7.018754688672168E9     2.369026903964101E-2   1.371022446106982E-1  -7.750400662775220E-1  -4.484459747276037E-1  -8.071982965843578E-1  -4.847614053523293E-1  -1.160515171162765E-3   1.224092460483315E-1  
 7.019504876219055E9     2.779548201500700E-2   1.317967992617431E-1  -7.748892228181177E-1  -4.495166377707798E-1  -8.076318386703647E-1  -4.821300775280302E-1   5.441275339458460E-4   1.254147415572515E-1  
 7.020255063765942E9     2.268156810623422E-2   1.369960545598897E-1  -7.724537168244159E-1  -4.490614715123586E-1  -8.077735626283027E-1  -4.800040016791426E-1   2.808671150775940E-3   1.233712115197345E-1  
 7.021005251312828E9     2.442602486632444E-2   1.329679767046975E-1  -7.720488815852915E-1  -4.497338705001578E-1  -8.063822004088856E-1  -4.767496142279538E-1   2.415282886595411E-3   1.270339602084075E-1  
 7.021755438859715E9     2.292237928326968E-2   1.344060973153539E-1  -7.712771560093314E-1  -4.501280924452189E-1  -8.074486819032926E-1  -4.748184979296365E-1   6.950982617176825E-3   1.269456920836268E-1  
 7.022505626406602E9     2.364414874963156E-2   1.320297718728281E-1  -7.717588789098240E-1  -4.509947495288703E-1  -8.075628843944828E-1  -4.720347328793014E-1   6.596840989769627E-3   1.217860308847445E-1  
 7.023255813953488E9     2.394467002450870E-2   1.294490141521877E-1  -7.702818748244821E-1  -4.517164121282483E-1  -8.066065162227117E-1  -4.701750417138372E-1   1.326905220688407E-2   1.271368966093801E-1  
 7.024006001500375E9     2.151530021761952E-2   1.315497629878278E-1  -7.708497273848413E-1  -4.528667055455621E-1  -8.058748380535115E-1  -4.686857476316287E-1   1.227756742134817E-2   1.257342837999229E-1  
 7.024756189047262E9     2.285554851172938E-2   1.285058546686892E-1  -7.702640829075176E-1  -4.554599730950593E-1  -8.032849391909747E-1  -4.694553942874203E-1   1.370802185460150E-2   1.292972979826040E-1  
 7.025506376594149E9     2.172826458090766E-2   1.304270098807835E-1  -7.702532684574202E-1  -4.565210237757093E-1  -8.070135636446039E-1  -4.646310450886313E-1   1.785847490180383E-2   1.255191926482719E-1  
 7.026256564141035E9     2.334292883540647E-2   1.314487867915632E-1  -7.717485976401771E-1  -4.566267370475948E-1  -8.058897705485498E-1  -4.617177913579149E-1   2.092977454266346E-2   1.301734764831051E-1  
 7.027006751687922E9     2.517581619661110E-2   1.285723086214728E-1  -7.715290830099219E-1  -4.606953105687500E-1  -8.027520563899513E-1  -4.615171467686153E-1   2.465084200856724E-2   1.297628629036414E-1  
 7.027756939234809E9     2.438354560980624E-2   1.295301463785283E-1  -7.729228962305714E-1  -4.605326894784184E-1  -8.027713796073300E-1  -4.621353966798465E-1   2.396569520331184E-2   1.318087100457531E-1  
 7.028507126781695E9     2.541168210253786E-2   1.268849846768402E-1  -7.760798571946759E-1  -4.599324358529007E-1  -8.026365034120420E-1  -4.606029294730036E-1   2.614404266947271E-2   1.299702518403778E-1  
 7.029257314328582E9     2.446815943903440E-2   1.266363997999544E-1  -7.769123702722738E-1  -4.636327503153496E-1  -8.040056364690299E-1  -4.580635690952280E-1   2.998459560609995E-2   1.286717460362864E-1  
 7.030007501875469E9     2.545778940011255E-2   1.287936560786987E-1  -7.788957358534072E-1  -4.630249543351953E-1  -8.030685196823020E-1  -4.565326661834495E-1   3.066333883772677E-2   1.284076654376592E-1  
 7.030757689422356E9     2.497698987519317E-2   1.287709580783860E-1  -7.799578779489568E-1  -4.661743015643173E-1  -8.029375497125295E-1  -4.541780917552036E-1   3.212857376877136E-2   1.338120179007663E-1  
 7.031507876969242E9     2.424150853903130E-2   1.254343759284352E-1  -7.834485965056717E-1  -4.665090467600024E-1  -8.013252223736501E-1  -4.557316413765205E-1   3.663946440218530E-2   1.346866797213604E-1  
 7.032258064516130E9     2.481649023748735E-2   1.268353761102373E-1  -7.854709421218631E-1  -4.673719627832295E-1  -8.013620768812815E-1  -4.539358841049772E-1   3.332017467887181E-2   1.351785237314027E-1  
 7.033008252063016E9     2.718459699031946E-2   1.266621920546956E-1  -7.896765343555757E-1  -4.679695012025939E-1  -8.008923679182023E-1  -4.525633080659984E-1   3.858702649292179E-2   1.353476510068792E-1  
 7.033758439609902E9     2.299944615396839E-2   1.267055562658589E-1  -7.923811784989492E-1  -4.688346933357201E-1  -8.009755587208776E-1  -4.523662936007233E-1   3.799498828398059E-2   1.335887336875581E-1  
 7.034508627156789E9     2.534201559850248E-2   1.258769828170226E-1  -7.961422524494590E-1  -4.680317129772939E-1  -8.004531849665525E-1  -4.529108313076080E-1   4.097476292297444E-2   1.384815891890741E-1  
 7.035258814703676E9     2.540243165236431E-2   1.261548177898675E-1  -7.989216422470860E-1  -4.680080492991168E-1  -8.001952411876667E-1  -4.515162048234293E-1   4.124348014215006E-2   1.393406877401906E-1  
 7.036009002250563E9     2.545554095938208E-2   1.260472192342980E-1  -8.028942214180214E-1  -4.677064353023874E-1  -8.005154622006701E-1  -4.519783568378675E-1   4.514979394225620E-2   1.413038033050529E-1  
 7.036759189797449E9     2.449062379549194E-2   1.285087284142800E-1  -8.052714699278188E-1  -4.670869840637805E-1  -8.010224180967946E-1  -4.522781184285316E-1   4.554734430437211E-2   1.396973601619540E-1  
 7.037509377344337E9     2.636209035201968E-2   1.291631915822537E-1  -8.097607959354612E-1  -4.660183619030871E-1  -8.000077909874673E-1  -4.525953252883381E-1   4.310969205238138E-2   1.457845067008560E-1  
 7.038259564891223E9     2.769532029454147E-2   1.269427817462200E-1  -8.150130255539266E-1  -4.636922646340490E-1  -8.017389273527208E-1  -4.509803000992314E-1   4.110429711667464E-2   1.450781896683473E-1  
 7.039009752438109E9     2.764382326375836E-2   1.268415089421502E-1  -8.177329748789841E-1  -4.615629174726054E-1  -8.017361481462194E-1  -4.508197569576494E-1   4.116365537727084E-2   1.455886555181409E-1  
 7.039759939984996E9     2.912488443728555E-2   1.283064199438037E-1  -8.216776123104064E-1  -4.623468979898535E-1  -8.034269084635805E-1  -4.485642979479987E-1   4.103289812279396E-2   1.471613236105129E-1  
 7.040510127531883E9     2.905323655718630E-2   1.308653606633765E-1  -8.261708017276429E-1  -4.567896929367561E-1  -8.037817791181597E-1  -4.508371508245323E-1   4.454218889021806E-2   1.506743432341799E-1  
 7.041260315078770E9     2.950409722242272E-2   1.304958517810576E-1  -8.299077805955197E-1  -4.545038002018265E-1  -8.058026841130460E-1  -4.476383617951060E-1   4.006929570103927E-2   1.513096115216868E-1  
 7.042010502625656E9     3.291989655449995E-2   1.318056245484038E-1  -8.320664859510878E-1  -4.531280996885287E-1  -8.050826923149529E-1  -4.491021161201309E-1   3.886499525215198E-2   1.552617494726080E-1  
 7.042760690172544E9     3.495600778531932E-2   1.346801197287278E-1  -8.357388163078809E-1  -4.513656103701193E-1  -8.051935617936884E-1  -4.505157836361817E-1   3.946732291137934E-2   1.571529381194800E-1  
 7.043510877719430E9     3.326548557046668E-2   1.312756177821394E-1  -8.396037310319939E-1  -4.469997539578090E-1  -8.072544893953166E-1  -4.507455455281584E-1   4.104998786193902E-2   1.584748799562327E-1  
 7.044261065266316E9     3.523598485745701E-2   1.318962547305124E-1  -8.425245239158621E-1  -4.428162590028584E-1  -8.095994466085869E-1  -4.502563607263563E-1   4.033062500183268E-2   1.564331487168352E-1  
 7.045011252813203E9     3.688685413536227E-2   1.351303897857448E-1  -8.445826116422005E-1  -4.405917639924111E-1  -8.097272479220652E-1  -4.494717920778957E-1   3.738090755906698E-2   1.614238077652795E-1  
 7.045761440360090E9     3.815999315504026E-2   1.357040071286603E-1  -8.476441323196688E-1  -4.366450781220462E-1  -8.114348383722215E-1  -4.489534486825854E-1   3.513765099728739E-2   1.623771328802640E-1  
 7.046511627906977E9     3.710389639270811E-2   1.347030706595151E-1  -8.504794907000095E-1  -4.313638955025858E-1  -8.123123463154742E-1  -4.493075033214968E-1   3.603153384784514E-2   1.630650833277552E-1  
 7.047261815453863E9     3.746688360785611E-2   1.356261115923430E-1  -8.520820213979483E-1  -4.264985054974415E-1  -8.158399147717197E-1  -4.483522014632695E-1   3.488109923258142E-2   1.629110502861675E-1  
 7.048012003000751E9     4.142042781400892E-2   1.354084723176784E-1  -8.546046006962739E-1  -4.241776018499781E-1  -8.164485801104455E-1  -4.473510845876524E-1   3.247793429103464E-2   1.667574678175970E-1  
 7.048762190547637E9     4.361605861340016E-2   1.364159288249338E-1  -8.555377241670452E-1  -4.199850575514620E-1  -8.196518125835788E-1  -4.480451633252197E-1   3.326675400314351E-2   1.664883918805945E-1  
 7.049512378094523E9     4.141527716187403E-2   1.329920194073581E-1  -8.573223457380392E-1  -4.146555704308075E-1  -8.202000948243136E-1  -4.479224969255770E-1   2.997205402292307E-2   1.669876552332960E-1  
 7.050262565641411E9     4.421989075415383E-2   1.348878827852648E-1  -8.591943998063624E-1  -4.088714519920403E-1  -8.221679538951283E-1  -4.460928328395355E-1   3.151827718109190E-2   1.674465557217907E-1  
 7.051012753188297E9     4.535197119735976E-2   1.360897630555849E-1  -8.584442309350185E-1  -4.061664233742086E-1  -8.243974844469654E-1  -4.445388148730615E-1   2.632984503880858E-2   1.703774131546463E-1  
 7.051762940735184E9     4.669028348865877E-2   1.322233626442037E-1  -8.604101841824777E-1  -3.997433965309333E-1  -8.285354186922401E-1  -4.446881332584540E-1   3.077236715724711E-2   1.684096421038172E-1  
 7.052513128282070E9     4.848340588650385E-2   1.345362437682018E-1  -8.597469642156336E-1  -3.956637134431130E-1  -8.297002957099831E-1  -4.437880958162634E-1   3.121155662424329E-2   1.708431926620905E-1  
 7.053263315828958E9     4.874394004997475E-2   1.355959335589889E-1  -8.583146611362642E-1  -3.925681093602391E-1  -8.311889174125128E-1  -4.409415021728622E-1   2.461286483681450E-2   1.685613407604689E-1  
 7.054013503375844E9     4.993537560815573E-2   1.338405206407184E-1  -8.580171437801609E-1  -3.878794419595677E-1  -8.328541770596020E-1  -4.402838174999410E-1   2.398071055321556E-2   1.715923781873086E-1  
 7.054763690922730E9     5.218397632849934E-2   1.358952091257435E-1  -8.568170292530701E-1  -3.844564504197112E-1  -8.351760902341328E-1  -4.380905731442248E-1   2.574015123349060E-2   1.691536602879823E-1  
 7.055513878469618E9     5.067612610029262E-2   1.338965166964140E-1  -8.556079674847014E-1  -3.804428626817113E-1  -8.369113775608098E-1  -4.370671551021938E-1   1.932819934604333E-2   1.658226210460210E-1  
 7.056264066016504E9     5.138101745549804E-2   1.340991851715250E-1  -8.550330390724956E-1  -3.761915029357134E-1  -8.395144690870233E-1  -4.350114906404383E-1   2.193293584370235E-2   1.644946609755401E-1  
 7.057014253563391E9     5.242141852876396E-2   1.344295354524644E-1  -8.529254554787300E-1  -3.729085904460485E-1  -8.402466219347939E-1  -4.327693914223442E-1   1.925494452302153E-2   1.661916951048283E-1  
 7.057764441110277E9     5.244875135544656E-2   1.312908846747217E-1  -8.531397635779715E-1  -3.692574320419458E-1  -8.421135344957903E-1  -4.317819734169814E-1   1.382954340999831E-2   1.622194000065705E-1  
 7.058514628657165E9     5.143516461965444E-2   1.325003239416163E-1  -8.497983760248706E-1  -3.657933562517620E-1  -8.444428908698783E-1  -4.274387179697765E-1   1.561882704026145E-2   1.635451040855686E-1  
 7.059264816204051E9     5.351281044298986E-2   1.306686217187139E-1  -8.500450714508117E-1  -3.634851723061768E-1  -8.454428278748294E-1  -4.254497724190759E-1   9.916994092934589E-3   1.634145311590075E-1  
 7.060015003750938E9     5.284838592245848E-2   1.316681473498328E-1  -8.466546448947242E-1  -3.616877169587141E-1  -8.468824651524074E-1  -4.229680838928170E-1   9.612876749356894E-3   1.609898347966944E-1  
 7.060765191297825E9     5.210082356164358E-2   1.310741565035811E-1  -8.442726955550206E-1  -3.589879743007815E-1  -8.485357622339570E-1  -4.199860736105366E-1   1.089327096289789E-2   1.589650358697558E-1  
 7.061515378844711E9     5.149780276344038E-2   1.297055280872782E-1  -8.420120218043933E-1  -3.567918612772986E-1  -8.496765586222393E-1  -4.175633938240002E-1   6.130688383283913E-3   1.571237762854219E-1  
 7.062265566391598E9     5.261013538402029E-2   1.330304290895201E-1  -8.389469477458293E-1  -3.560080173113562E-1  -8.504586257889193E-1  -4.159143904560619E-1   5.147310540943345E-3   1.534118427645825E-1  
 7.063015753938484E9     5.138200067488945E-2   1.317892488474994E-1  -8.380099115123745E-1  -3.538777026656945E-1  -8.503987620836878E-1  -4.129853917324420E-1   3.815864545994561E-3   1.538473535654976E-1  
 7.063765941485372E9     5.042606634074996E-2   1.328997921240283E-1  -8.355419465286316E-1  -3.521443744645981E-1  -8.515272912585736E-1  -4.094350646550882E-1   1.956298786098865E-3   1.514748873223205E-1  
 7.064516129032258E9     5.114576663304130E-2   1.328055944647043E-1  -8.331700099468671E-1  -3.510925174370889E-1  -8.514371387568807E-1  -4.069266306447718E-1  -1.128362353187566E-3   1.524850607500295E-1  
 7.065266316579145E9     4.874853094718509E-2   1.295833457198341E-1  -8.310475794521628E-1  -3.501813022232714E-1  -8.518928417503711E-1  -4.046694799663826E-1  -2.487016656975102E-3   1.492304174599820E-1  
 7.066016504126032E9     5.026286476367854E-2   1.326369298472550E-1  -8.286731130019036E-1  -3.499331422868626E-1  -8.522192926621074E-1  -4.032770903187177E-1  -4.607493325087950E-3   1.479823404841222E-1  
 7.066766691672918E9     5.095636235851638E-2   1.323326042167088E-1  -8.262851283014218E-1  -3.489388127990022E-1  -8.525121152733176E-1  -4.002031171724128E-1  -7.029311488068711E-3   1.439491802272301E-1  
 7.067516879219805E9     4.819534410321558E-2   1.313284079003487E-1  -8.246840050669233E-1  -3.482099140215786E-1  -8.524038917256807E-1  -3.987065580835776E-1  -7.262483559358875E-3   1.440604462938066E-1  
 7.068267066766691E9     4.881655076673568E-2   1.314425736282488E-1  -8.221226947760209E-1  -3.497781073002294E-1  -8.529061630738315E-1  -3.949028428043505E-1  -7.206570147073904E-3   1.403169791991683E-1  
 7.069017254313579E9     4.917779920706936E-2   1.317927262307449E-1  -8.206217481847373E-1  -3.496675287266899E-1  -8.529720127731051E-1  -3.938128801787856E-1  -6.871763021731751E-3   1.420708826216909E-1  
 7.069767441860465E9     4.822822332881255E-2   1.335318101225029E-1  -8.186034728289127E-1  -3.498801610797360E-1  -8.521969100614780E-1  -3.902634035275704E-1  -8.137455930144191E-3   1.400813662087922E-1  
