#  HZ   S   RI   R     50.0 
! Rohde & Schwarz ZVL13 2Ports - Version 3.31 - 1303.6509k13 SN: 101088
! Date: 2023-03-06 15:31:30
! Data & Calibration Information:
! Trc4:S11(TOSM) Trc2:S21(TOSM) Trc3:S12(TOSM) Trc5:S22(TOSM)
! 
! 
! 
 7.000000000000000E9     3.544737149029970E-2   1.599642060401375E-1  -8.075758355029693E-1  -5.025725460052490E-1  -7.670339751600739E-1  -5.428518986701965E-1  -1.443256311118603E-2   1.645295074193122E-1  
 7.000750187546886E9     3.669926855713130E-2   1.572851773354131E-1  -8.081685528687510E-1  -4.997561484575273E-1  -7.704379707684891E-1  -5.415781766176225E-1  -1.685190126299858E-2   1.607862307588679E-1  
 7.001500375093774E9     3.476904004812241E-2   1.542018525018112E-1  -8.095814033807059E-1  -4.945631292462350E-1  -7.724260967086469E-1  -5.409827077388765E-1  -1.442393785342574E-2   1.603742458185494E-1  
 7.002250562640660E9     3.606936108320952E-2   1.528004308679787E-1  -8.078219970926039E-1  -4.914208540320396E-1  -7.756106114776689E-1  -5.388946557044982E-1  -1.924174359068274E-2   1.543101366508942E-1  
 7.003000750187547E9     3.447156440466643E-2   1.507333278039827E-1  -8.070470263879216E-1  -4.863952758908272E-1  -7.781518757357347E-1  -5.375150549411776E-1  -1.389355674386024E-2   1.535572548794154E-1  
 7.003750937734433E9     3.425681713968515E-2   1.493416206073688E-1  -8.069886803121475E-1  -4.821868473291397E-1  -7.804772611997335E-1  -5.365081763267517E-1  -1.733588626608253E-2   1.547605781312234E-1  
 7.004501125281321E9     3.607619605958462E-2   1.475235839999144E-1  -8.062773026185642E-1  -4.793586304783821E-1  -7.831515789730399E-1  -5.355566841363907E-1  -1.689490211196244E-2   1.502087566300743E-1  
 7.005251312828207E9     3.757270537316799E-2   1.523841570064074E-1  -8.037751274916019E-1  -4.762077188491822E-1  -7.855840534851597E-1  -5.328649556636811E-1  -1.347313399426639E-2   1.464901333905929E-1  
 7.006001500375094E9     3.571103718131781E-2   1.480541530407785E-1  -8.029729945637617E-1  -4.723814472556115E-1  -7.877088824367740E-1  -5.307878768444061E-1  -1.559357295744121E-2   1.467788302367485E-1  
 7.006751687921981E9     3.624473780393601E-2   1.513878345751235E-1  -8.008376427056917E-1  -4.707332888245583E-1  -7.883961763773575E-1  -5.304142850637436E-1  -1.465925906784833E-2   1.434580659291931E-1  
 7.007501875468867E9     3.542574252933264E-2   1.472247866212284E-1  -7.993637660778605E-1  -4.667975685000420E-1  -7.912429070455671E-1  -5.281488579511643E-1  -1.642087350599468E-2   1.412383701725563E-1  
 7.008252063015754E9     3.512852739542723E-2   1.439402973564439E-1  -7.981216328722708E-1  -4.643366667628288E-1  -7.926055214482231E-1  -5.248390483856202E-1  -1.579887803643942E-2   1.378794525663524E-1  
 7.009002250562640E9     3.019570061936975E-2   1.455197908940775E-1  -7.958822040950138E-1  -4.615071758627892E-1  -7.954692851320157E-1  -5.199354106187820E-1  -1.482298302464188E-2   1.371099091030178E-1  
 7.009752438109528E9     3.139102268964052E-2   1.449992146087265E-1  -7.934939967187202E-1  -4.594928842782974E-1  -7.961892237652387E-1  -5.195238953828812E-1  -1.494945372454822E-2   1.378612554829504E-1  
 7.010502625656414E9     3.086569249629974E-2   1.432493969879078E-1  -7.927018012249208E-1  -4.587280488014222E-1  -7.978135216422356E-1  -5.167806780338288E-1  -1.554528241045773E-2   1.303472848012784E-1  
 7.011252813203301E9     2.813541473820806E-2   1.412354423332246E-1  -7.911301024641599E-1  -4.569673606753351E-1  -7.994640134631129E-1  -5.139283502101900E-1  -1.497293431311846E-2   1.307448724802968E-1  
 7.012003000750188E9     3.042605940252543E-2   1.401852881077764E-1  -7.883800773417378E-1  -4.562553569674493E-1  -8.010364324590105E-1  -5.120547169446945E-1  -1.414400910027325E-2   1.259156285835765E-1  
 7.012753188297074E9     2.848908724263311E-2   1.440958492446940E-1  -7.866983590244141E-1  -4.536830821633339E-1  -8.022945469731602E-1  -5.079890012741090E-1  -1.355072625912726E-2   1.292772345577781E-1  
 7.013503375843961E9     2.705059804022312E-2   1.402951077498684E-1  -7.848841762612406E-1  -4.517712688446046E-1  -8.027256406377393E-1  -5.047396600246430E-1  -1.162480145692825E-2   1.266433356995833E-1  
 7.014253563390848E9     2.540778215974569E-2   1.403628362795446E-1  -7.845390000272197E-1  -4.510943153500557E-1  -8.034811679030292E-1  -5.031728559732436E-1  -1.333693512715399E-2   1.276588833074998E-1  
 7.015003750937735E9     2.498859247192740E-2   1.394565292156973E-1  -7.814029360275719E-1  -4.504526498913766E-1  -8.036797515553309E-1  -5.007755431532862E-1  -1.145184385590256E-2   1.276472686298298E-1  
 7.015753938484621E9     2.350766954943538E-2   1.351741612737303E-1  -7.802488351336179E-1  -4.488080647587777E-1  -8.040884127405779E-1  -4.976002269983292E-1  -1.075547597371042E-2   1.274862102033250E-1  
 7.016504126031508E9     2.103209188207984E-2   1.359866778657399E-1  -7.781994316826039E-1  -4.483282148838044E-1  -8.044851715755567E-1  -4.950466874241830E-1  -5.501886310521514E-3   1.248076716723690E-1  
 7.017254313578395E9     2.336230160668493E-2   1.361318054760244E-1  -7.771193508666523E-1  -4.492311319708826E-1  -8.056305089517291E-1  -4.912948977947236E-1  -8.969250144436957E-3   1.258993022527299E-1  
 7.018004501125281E9     2.288212459534407E-2   1.360379442902910E-1  -7.758901877033543E-1  -4.494221451878548E-1  -8.060728570552734E-1  -4.895013216137886E-1  -7.422395497560502E-3   1.237253634049481E-1  
 7.018754688672168E9     2.369084298610688E-2   1.365762022577423E-1  -7.737093275144154E-1  -4.506608837842941E-1  -8.053795989101523E-1  -4.875635671615601E-1  -2.000618340098299E-3   1.222112922338958E-1  
 7.019504876219055E9     2.748209331184625E-2   1.319520284746069E-1  -7.733715481633892E-1  -4.515635412931442E-1  -8.061278749715042E-1  -4.843937686085702E-1   5.964375176699834E-4   1.257641345326785E-1  
 7.020255063765942E9     2.244695063680411E-2   1.369038055702640E-1  -7.712928619237536E-1  -4.509704795479774E-1  -8.059730749933505E-1  -4.827111172676087E-1   2.148582008085214E-3   1.235667425953562E-1  
 7.021005251312828E9     2.477158805355430E-2   1.330406240475597E-1  -7.708860371114533E-1  -4.519428980350495E-1  -8.050466945793087E-1  -4.790322008728982E-1   1.868677860620665E-3   1.266082019719196E-1  
 7.021755438859715E9     2.281999394297600E-2   1.344085417425323E-1  -7.696747857710244E-1  -4.523963087797165E-1  -8.060283863389676E-1  -4.764830273389817E-1   6.227278951555492E-3   1.269964056764339E-1  
 7.022505626406602E9     2.346417604014277E-2   1.319748997133647E-1  -7.706474658174471E-1  -4.532544258236885E-1  -8.059332500949097E-1  -4.748765519261360E-1   5.068508968688548E-3   1.222065739778974E-1  
 7.023255813953488E9     2.339008973911405E-2   1.295838856035782E-1  -7.685679765960222E-1  -4.537057366967202E-1  -8.053012381668645E-1  -4.726076349616052E-1   1.221109912730754E-2   1.278752296099435E-1  
 7.024006001500375E9     2.129523407667875E-2   1.314994903847777E-1  -7.693499395733349E-1  -4.551271560788155E-1  -8.042215480091050E-1  -4.710159820318223E-1   1.214350349269808E-2   1.255369190090035E-1  
 7.024756189047262E9     2.265146952122450E-2   1.280769801976965E-1  -7.683717600295422E-1  -4.581869673728944E-1  -8.019530621169758E-1  -4.715257242321969E-1   1.400033579207957E-2   1.290654284350823E-1  
 7.025506376594149E9     2.127891071140766E-2   1.302879052289306E-1  -7.685886942089686E-1  -4.589839169383049E-1  -8.052131918061527E-1  -4.673585632443428E-1   1.697016200050712E-2   1.251608500124925E-1  
 7.026256564141035E9     2.226325185969472E-2   1.317657879614265E-1  -7.702049212587446E-1  -4.590454146265984E-1  -8.045799889712954E-1  -4.641679921746255E-1   1.964227205142379E-2   1.303712921297985E-1  
 7.027006751687922E9     2.482066208496690E-2   1.288470444827942E-1  -7.696418221811715E-1  -4.630486100912095E-1  -8.014095801148172E-1  -4.637028881907463E-1   2.442376822233201E-2   1.300522108310406E-1  
 7.027756939234809E9     2.375676410272717E-2   1.292744353653923E-1  -7.713832814564103E-1  -4.627269482612610E-1  -8.011268188774865E-1  -4.647251135110855E-1   2.322518160566688E-2   1.316722340951937E-1  
 7.028507126781695E9     2.489643612876535E-2   1.269181427569515E-1  -7.741023421243890E-1  -4.624371960759163E-1  -8.011072789008001E-1  -4.631796193122865E-1   2.571848934516311E-2   1.299785023373488E-1  
 7.029257314328582E9     2.452301561832428E-2   1.266041248766135E-1  -7.752306832285577E-1  -4.657763069868088E-1  -8.027224292167281E-1  -4.604954746365547E-1   2.919744448736310E-2   1.292495250320931E-1  
 7.030007501875469E9     2.555900972336531E-2   1.280071818463870E-1  -7.770502550839101E-1  -4.651682516932488E-1  -8.011089587187377E-1  -4.594790938496590E-1   3.035488028079271E-2   1.278845784154589E-1  
 7.030757689422356E9     2.482646863907576E-2   1.288096055756625E-1  -7.785815135180010E-1  -4.684470990300180E-1  -8.011498358357225E-1  -4.565423184633255E-1   3.212524265050888E-2   1.332525779639091E-1  
 7.031507876969242E9     2.388208622112870E-2   1.250959144659710E-1  -7.815269812819068E-1  -4.693400883674621E-1  -8.000319143840302E-1  -4.580349990725517E-1   3.649571873247624E-2   1.339176846828862E-1  
 7.032258064516130E9     2.461924541741610E-2   1.270312935541254E-1  -7.839885534094088E-1  -4.692430403828622E-1  -7.999027983619301E-1  -4.563898658752442E-1   3.263127148151399E-2   1.353259370729663E-1  
 7.033008252063016E9     2.658147709444165E-2   1.268689303553617E-1  -7.882561643960930E-1  -4.703174218535423E-1  -7.996384893157763E-1  -4.548288539052010E-1   3.781933896243572E-2   1.355194697164152E-1  
 7.033758439609902E9     2.269107071682812E-2   1.269396741481332E-1  -7.905986626092325E-1  -4.712220287322999E-1  -7.992669118812033E-1  -4.552131265401841E-1   3.720902964472770E-2   1.336777304536482E-1  
 7.034508627156789E9     2.496685151010752E-2   1.257613434475654E-1  -7.943582538172959E-1  -4.703813296556473E-1  -7.987850470469684E-1  -4.556672757863999E-1   4.114101808518170E-2   1.379787501458162E-1  
 7.035258814703676E9     2.519716138020158E-2   1.258400198081459E-1  -7.969764288837683E-1  -4.701650810241699E-1  -7.985677067907918E-1  -4.540812289714813E-1   4.062348496168852E-2   1.405658160945466E-1  
 7.036009002250563E9     2.547916792333126E-2   1.263386411219928E-1  -8.013740141300892E-1  -4.699341362714768E-1  -7.989061521436660E-1  -4.545365843176843E-1   4.418100409209728E-2   1.416254940227132E-1  
 7.036759189797449E9     2.441192163154483E-2   1.284615802866122E-1  -8.036804418090771E-1  -4.693888646364213E-1  -7.990956769396749E-1  -4.548636856675148E-1   4.497452132403851E-2   1.400627711829970E-1  
 7.037509377344337E9     2.601421376690269E-2   1.294440658876517E-1  -8.080782191719174E-1  -4.686662170290947E-1  -7.987282687087134E-1  -4.545190238952638E-1   4.329572722315789E-2   1.455266084530463E-1  
 7.038259564891223E9     2.737992772832513E-2   1.270072577874713E-1  -8.131293895230509E-1  -4.664690276980401E-1  -7.999502503094589E-1  -4.535012033581734E-1   4.109756466001272E-2   1.449492425164791E-1  
 7.039009752438109E9     2.690103733912110E-2   1.265553369597095E-1  -8.158873466764846E-1  -4.641199707984925E-1  -8.002620041202421E-1  -4.533206412196160E-1   4.066239450126886E-2   1.451838657885835E-1  
 7.039759939984996E9     2.882681719958782E-2   1.289116446047127E-1  -8.202381057549272E-1  -4.645510470867158E-1  -8.017876625770943E-1  -4.512847402691841E-1   4.056657832115889E-2   1.475670194205657E-1  
 7.040510127531883E9     2.913043944165111E-2   1.310760003558454E-1  -8.243167392638211E-1  -4.595566058158874E-1  -8.021403972294071E-1  -4.536965644359589E-1   4.392753433436156E-2   1.508586575103488E-1  
 7.041260315078770E9     2.926942620426416E-2   1.302780730647642E-1  -8.282972856233658E-1  -4.569164937734605E-1  -8.040598643248442E-1  -4.504966503381730E-1   3.901245556771756E-2   1.509327715121125E-1  
 7.042010502625656E9     3.262663958594203E-2   1.320994475048302E-1  -8.307631317068197E-1  -4.551286920905114E-1  -8.035507177994624E-1  -4.515415799617768E-1   3.803023442626000E-2   1.551867517268871E-1  
 7.042760690172544E9     3.412871357053518E-2   1.351919392356040E-1  -8.340916143759155E-1  -4.539866596460344E-1  -8.035576404384153E-1  -4.524239560961724E-1   3.882645543664694E-2   1.569338222556044E-1  
 7.043510877719430E9     3.268970273435116E-2   1.311950097273300E-1  -8.378418736020362E-1  -4.496459457278252E-1  -8.055478020125155E-1  -4.529761746525765E-1   4.010645333677530E-2   1.586949284609968E-1  
 7.044261065266316E9     3.465160425752401E-2   1.317044344150180E-1  -8.406499016220966E-1  -4.460246482491493E-1  -8.076908216272196E-1  -4.530522611737252E-1   3.890783414244652E-2   1.570232190891408E-1  
 7.045011252813203E9     3.648628473281861E-2   1.354078841774547E-1  -8.430515158198686E-1  -4.435247263312340E-1  -8.078196016374590E-1  -4.524922460317612E-1   3.720795355737210E-2   1.616155724674609E-1  
 7.045761440360090E9     3.720782928168774E-2   1.361138468587455E-1  -8.463665625001227E-1  -4.396104994416238E-1  -8.100350736999502E-1  -4.512174871563911E-1   3.416396185755730E-2   1.622325355321176E-1  
 7.046511627906977E9     3.679078992456198E-2   1.352195482458795E-1  -8.490180329743824E-1  -4.340421107411384E-1  -8.106936758901995E-1  -4.522106149792671E-1   3.524392914026975E-2   1.634992109643230E-1  
 7.047261815453863E9     3.674803093075752E-2   1.359017825612376E-1  -8.506001721668971E-1  -4.294808036088944E-1  -8.140224982633126E-1  -4.508796697854996E-1   3.420282159000635E-2   1.624764645349585E-1  
 7.048012003000751E9     4.062793444842101E-2   1.350356296320017E-1  -8.531719062699237E-1  -4.271654701232912E-1  -8.144539255323969E-1  -4.507292503118516E-1   3.177162090316416E-2   1.668769058340203E-1  
 7.048762190547637E9     4.289068240672350E-2   1.365667579480657E-1  -8.545136249265055E-1  -4.225392439961433E-1  -8.180953836953290E-1  -4.507596793770791E-1   3.300080835819245E-2   1.668599697548029E-1  
 7.049512378094523E9     4.051312264055015E-2   1.333332741641368E-1  -8.560730692829324E-1  -4.175110104680062E-1  -8.187032726902244E-1  -4.502103391289711E-1   2.878770414739847E-2   1.669691451929125E-1  
 7.050262565641411E9     4.394475102424622E-2   1.351360348592614E-1  -8.578348987319302E-1  -4.118550357222557E-1  -8.209878504523483E-1  -4.483510628342629E-1   3.134583076462150E-2   1.673882482015145E-1  
 7.051012753188297E9     4.483934793621303E-2   1.365716166321994E-1  -8.570559202437666E-1  -4.088132554292680E-1  -8.227153374616065E-1  -4.471276852488517E-1   2.484340457245708E-2   1.698294976435237E-1  
 7.051762940735184E9     4.627845056355000E-2   1.328273474337433E-1  -8.590495735316157E-1  -4.025108593702316E-1  -8.266666609437169E-1  -4.478205943107605E-1   3.012275613844395E-2   1.681540737508525E-1  
 7.052513128282070E9     4.789277974516154E-2   1.346793351515095E-1  -8.584146901893444E-1  -3.985805159807205E-1  -8.281453972775678E-1  -4.464949214458466E-1   3.061118882149459E-2   1.702837203372455E-1  
 7.053263315828958E9     4.818994496017694E-2   1.358994250809811E-1  -8.568206771345588E-1  -3.950064727663995E-1  -8.295036588671646E-1  -4.435081881284715E-1   2.310270242393017E-2   1.675055902411849E-1  
 7.054013503375844E9     4.928785558789971E-2   1.342851226674048E-1  -8.567804277562244E-1  -3.903050786256790E-1  -8.311482580427320E-1  -4.432717657089234E-1   2.398179909214378E-2   1.713928689090088E-1  
 7.054763690922730E9     5.189670439809561E-2   1.359393192714016E-1  -8.556735523556788E-1  -3.872464519739152E-1  -8.334763667653989E-1  -4.409299528598785E-1   2.498287165537478E-2   1.690840531344888E-1  
 7.055513878469618E9     5.031987551599741E-2   1.344609280382512E-1  -8.545050197087404E-1  -3.828999537229538E-1  -8.353577275922905E-1  -4.395975410938263E-1   1.869389189407230E-2   1.658958803958779E-1  
 7.056264066016504E9     5.080342996865511E-2   1.344083619437913E-1  -8.538015923819846E-1  -3.788034656643868E-1  -8.377164249441003E-1  -4.375533795356751E-1   2.078485969454050E-2   1.646162288973496E-1  
 7.057014253563391E9     5.197026476264001E-2   1.352492559016073E-1  -8.514719224227726E-1  -3.755025714635849E-1  -8.386930839001492E-1  -4.355382731556893E-1   1.825807737186551E-2   1.664429837313135E-1  
 7.057764441110277E9     5.158377777785063E-2   1.315388277915843E-1  -8.522384098214597E-1  -3.720040157437325E-1  -8.406317722373142E-1  -4.343581578135491E-1   1.312092857435346E-2   1.630372653732952E-1  
 7.058514628657165E9     5.127895694226027E-2   1.331583591222312E-1  -8.486376435615921E-1  -3.687416341900825E-1  -8.429742630181533E-1  -4.305222910642624E-1   1.463303388096392E-2   1.643038945114204E-1  
 7.059264816204051E9     5.331637937575579E-2   1.308052944540138E-1  -8.489475528438899E-1  -3.662072375416756E-1  -8.441460204479450E-1  -4.282836157083512E-1   9.482490932568907E-3   1.631853291384787E-1  
 7.060015003750938E9     5.263614255934954E-2   1.320572217363076E-1  -8.453808351965999E-1  -3.644881680607797E-1  -8.457914485506358E-1  -4.257155624032021E-1   9.578592870384454E-3   1.614890775924625E-1  
 7.060765191297825E9     5.156929209828377E-2   1.307645754363095E-1  -8.433122445578920E-1  -3.613462686538697E-1  -8.470294011876602E-1  -4.226113501191139E-1   1.012399733532220E-2   1.581278165828785E-1  
 7.061515378844711E9     5.067914836108686E-2   1.298970257113983E-1  -8.408453784481383E-1  -3.592628657817841E-1  -8.480221869024163E-1  -4.202282989025116E-1   4.947375049814582E-3   1.570142704640826E-1  
 7.062265566391598E9     5.226327851414681E-2   1.333068968971093E-1  -8.377208067402454E-1  -3.586124873161317E-1  -8.489886717444883E-1  -4.188328298926353E-1   4.738591481000186E-3   1.530481878139969E-1  
 7.063015753938484E9     5.073894433677196E-2   1.320611909981508E-1  -8.367831493343925E-1  -3.568669781088830E-1  -8.487220335213926E-1  -4.156091845035553E-1   3.304998036473990E-3   1.537783004249822E-1  
 7.063765941485372E9     5.004069078713656E-2   1.335982616262476E-1  -8.342828366496590E-1  -3.547713744640351E-1  -8.498772298125585E-1  -4.125931939482690E-1   1.313581227441319E-3   1.514628576685921E-1  
 7.064516129032258E9     5.039462037384511E-2   1.333613779979139E-1  -8.320083695310165E-1  -3.533208057284356E-1  -8.495682100900324E-1  -4.101373347640038E-1  -1.762156920740381E-3   1.520403380530806E-1  
 7.065266316579145E9     4.846552956849336E-2   1.301918837893464E-1  -8.305067624120885E-1  -3.527242326736451E-1  -8.505407247698817E-1  -4.077444741129876E-1  -3.923684372566641E-3   1.490288002201384E-1  
 7.066016504126032E9     4.978551171720028E-2   1.331468357384090E-1  -8.277129425609634E-1  -3.525576335191727E-1  -8.505941148118048E-1  -4.060647165775300E-1  -5.335148465819658E-3   1.475305369461791E-1  
 7.066766691672918E9     5.029575008898975E-2   1.327892270080092E-1  -8.251102443972895E-1  -3.516526874899864E-1  -8.513348187895685E-1  -4.027079516649246E-1  -7.735142712481319E-3   1.442554001165659E-1  
 7.067516879219805E9     4.746394336223602E-2   1.315478359469448E-1  -8.233863494177907E-1  -3.509274417161942E-1  -8.512861728357997E-1  -4.014310345053674E-1  -7.140087028965354E-3   1.431697019910234E-1  
 7.068267066766691E9     4.827699795365335E-2   1.317196491148620E-1  -8.213347821110694E-1  -3.517382395267486E-1  -8.518203942885027E-1  -3.976379337906837E-1  -8.227208806201817E-3   1.401346325967694E-1  
 7.069017254313579E9     4.909516397863627E-2   1.322736432677547E-1  -8.194446150054238E-1  -3.524824690818787E-1  -8.515198242039009E-1  -3.965631955862046E-1  -6.668895785696806E-3   1.419037575603643E-1  
 7.069767441860465E9     4.755874335765840E-2   1.335799708681112E-1  -8.175657302439465E-1  -3.527570140361787E-1  -8.504621863412664E-1  -3.933096492290498E-1  -9.332521352916954E-3   1.394577227519585E-1  
