#  HZ   S   RI   R     50.0 
! Rohde & Schwarz ZVL13 2Ports - Version 3.31 - 1303.6509k13 SN: 101088
! Date: 2023-03-06 15:32:27
! Data & Calibration Information:
! Trc4:S11(TOSM) Trc2:S21(TOSM) Trc3:S12(TOSM) Trc5:S22(TOSM)
! 
! 
! 
 7.000000000000000E9     3.500565782189370E-2   1.605898330920419E-1  -8.059891918603881E-1  -5.049955195188522E-1  -7.651546955731305E-1  -5.453942543268204E-1  -1.510180786252022E-2   1.643299121770729E-1  
 7.000750187546886E9     3.619027849286795E-2   1.572037941562463E-1  -8.064470118398711E-1  -5.021516579389572E-1  -7.685781333297759E-1  -5.439120632410051E-1  -1.698373535647988E-2   1.607402004719782E-1  
 7.001500375093774E9     3.416435066610575E-2   1.544542722114610E-1  -8.077907506948751E-1  -4.966592910885812E-1  -7.704443042216049E-1  -5.437951415777207E-1  -1.376842812635004E-2   1.603142176467324E-1  
 7.002250562640660E9     3.540292665362358E-2   1.528614023788398E-1  -8.066098062730338E-1  -4.940570342540742E-1  -7.731976816715799E-1  -5.413189399242401E-1  -1.962634321302176E-2   1.546381205240186E-1  
 7.003000750187547E9     3.400553721934557E-2   1.510843037739193E-1  -8.054164199535734E-1  -4.895606839656830E-1  -7.762220815469750E-1  -5.401203989982605E-1  -1.506496062502265E-2   1.536521162517090E-1  
 7.003750937734433E9     3.370601225644350E-2   1.492619218957637E-1  -8.053748106645677E-1  -4.846064496040344E-1  -7.791221305866677E-1  -5.387731140851975E-1  -1.690123505890370E-2   1.544022231159980E-1  
 7.004501125281321E9     3.562343150377274E-2   1.476512145795835E-1  -8.046961520661210E-1  -4.823048684000969E-1  -7.810712738362297E-1  -5.383509683609010E-1  -1.717452175915241E-2   1.503884882323857E-1  
 7.005251312828207E9     3.740155756473541E-2   1.524202355635297E-1  -8.024427864047831E-1  -4.787437534332276E-1  -7.835761822251216E-1  -5.359859633445739E-1  -1.407666604034603E-2   1.463850988395781E-1  
 7.006001500375094E9     3.547082383185625E-2   1.491948699646528E-1  -8.008464716496608E-1  -4.752638462185861E-1  -7.856110569429848E-1  -5.336720055341720E-1  -1.609090927988291E-2   1.466013045654980E-1  
 7.006751687921981E9     3.579940959811211E-2   1.515907866265443E-1  -7.992709413707327E-1  -4.732142868638039E-1  -7.867337685839795E-1  -5.329997557401657E-1  -1.515454022213817E-2   1.435473661262910E-1  
 7.007501875468867E9     3.467401076108218E-2   1.472247553537254E-1  -7.979580892490212E-1  -4.695279210805894E-1  -7.898283378047278E-1  -5.299414759874344E-1  -1.635888236574829E-2   1.409961628092376E-1  
 7.008252063015754E9     3.476646874099970E-2   1.443657233813789E-1  -7.964592495604168E-1  -4.671731323003769E-1  -7.905196351824673E-1  -5.278416383266450E-1  -1.628204514272511E-2   1.373243249676744E-1  
 7.009002250562640E9     2.977743586525321E-2   1.461025358690762E-1  -7.946719089127767E-1  -4.641621270775795E-1  -7.932211896864971E-1  -5.226418215036391E-1  -1.483005656860769E-2   1.371980741111292E-1  
 7.009752438109528E9     3.165627324953675E-2   1.446715524451779E-1  -7.923237725138397E-1  -4.620026272535325E-1  -7.943454451600387E-1  -5.223336690664292E-1  -1.504579081200063E-2   1.381390418024874E-1  
 7.010502625656414E9     3.035765144973993E-2   1.435940336989444E-1  -7.914232287714959E-1  -4.614904981851578E-1  -7.962933093262918E-1  -5.193412363529205E-1  -1.613201772794128E-2   1.307519671258972E-1  
 7.011252813203301E9     2.775673618540168E-2   1.409899815303482E-1  -7.896477153094035E-1  -4.596059483289719E-1  -7.979519938317008E-1  -5.163232052326203E-1  -1.513967376202345E-2   1.306381875474953E-1  
 7.012003000750188E9     2.979321166872978E-2   1.400393008276882E-1  -7.870022784977762E-1  -4.586016842722893E-1  -7.987940504627635E-1  -5.143185853958130E-1  -1.461300868541002E-2   1.251434660812071E-1  
 7.012753188297074E9     2.813139386475087E-2   1.438376116828528E-1  -7.850478392501559E-1  -4.562336784601213E-1  -8.006552047440860E-1  -5.105449318885803E-1  -1.422089812345803E-2   1.295818252931437E-1  
 7.013503375843961E9     2.660052923485637E-2   1.407180207844541E-1  -7.832681206296994E-1  -4.547198835015298E-1  -8.011593241265725E-1  -5.076219493150712E-1  -1.190599424764514E-2   1.267907990880062E-1  
 7.014253563390848E9     2.499116839841008E-2   1.405063762919720E-1  -7.828968197848051E-1  -4.537224066257478E-1  -8.020906381401990E-1  -5.054369997978210E-1  -1.315267462283373E-2   1.276791472598807E-1  
 7.015003750937735E9     2.386554557830095E-2   1.393168780176992E-1  -7.800211635250514E-1  -4.529375627636910E-1  -8.021904648992722E-1  -5.031818604469298E-1  -1.311822672374547E-2   1.271401004152764E-1  
 7.015753938484621E9     2.307496953755618E-2   1.352012279193305E-1  -7.785616890309659E-1  -4.511481508612633E-1  -8.022289185019966E-1  -5.001845169067384E-1  -1.037681904155761E-2   1.275215053426674E-1  
 7.016504126031508E9     2.006692007184029E-2   1.360011910349419E-1  -7.769590978634478E-1  -4.508130532503129E-1  -8.029085738670045E-1  -4.976505941152573E-1  -6.343315681442621E-3   1.245138083279015E-1  
 7.017254313578395E9     2.274481341242790E-2   1.358236885029365E-1  -7.759153364437891E-1  -4.511655026674271E-1  -8.035591858632338E-1  -4.941592183709145E-1  -9.943488808348774E-3   1.254441149545632E-1  
 7.018004501125281E9     2.264595471322536E-2   1.368652174503788E-1  -7.745617506377647E-1  -4.522722324728967E-1  -8.043952774669706E-1  -4.917899176478386E-1  -7.537906435318292E-3   1.243015240377752E-1  
 7.018754688672168E9     2.346130220219493E-2   1.367873862394224E-1  -7.723269250373096E-1  -4.528443035483360E-1  -8.036533932397529E-1  -4.901334524154664E-1  -2.363134818151594E-3   1.222826449343348E-1  
 7.019504876219055E9     2.689364016056061E-2   1.317765545621801E-1  -7.720037613498678E-1  -4.537681767344476E-1  -8.044905221718322E-1  -4.867366716265679E-1  -4.831008628389100E-4   1.256838103331809E-1  
 7.020255063765942E9     2.197162700816989E-2   1.377555500838699E-1  -7.698876262660012E-1  -4.536932796239854E-1  -8.045462648316030E-1  -4.853303593397141E-1   1.974213130306453E-3   1.230134534156914E-1  
 7.021005251312828E9     2.467940505594016E-2   1.332413460784197E-1  -7.696813817516378E-1  -4.542104595899582E-1  -8.032542230572477E-1  -4.815947982668877E-1   7.636198477121072E-4   1.264028447861345E-1  
 7.021755438859715E9     2.234113100916147E-2   1.341433084043715E-1  -7.682456926713253E-1  -4.548914933204651E-1  -8.039156923007234E-1  -4.794509452581406E-1   5.600668520200997E-3   1.268270942699220E-1  
 7.022505626406602E9     2.276089752092958E-2   1.322143056610231E-1  -7.687681278356597E-1  -4.556995448470116E-1  -8.042892227037303E-1  -4.776967397332192E-1   4.997912249527872E-3   1.219039785602331E-1  
 7.023255813953488E9     2.395990908145905E-2   1.294660932297372E-1  -7.675689454176085E-1  -4.556353574991226E-1  -8.030336527741389E-1  -4.756297653913498E-1   1.151098330505192E-2   1.276912888334183E-1  
 7.024006001500375E9     2.076315565034748E-2   1.317856003762642E-1  -7.679256708325526E-1  -4.572693812847137E-1  -8.026755584784017E-1  -4.737508663535118E-1   1.106164665892720E-2   1.259568042329930E-1  
 7.024756189047262E9     2.257471159100533E-2   1.282949770206532E-1  -7.671555338452905E-1  -4.598869237303734E-1  -8.000342710728829E-1  -4.745610368251800E-1   1.293112763203681E-2   1.295176337845051E-1  
 7.025506376594149E9     2.128214675933123E-2   1.299524612578329E-1  -7.671192958627238E-1  -4.610961824655533E-1  -8.031835095113395E-1  -4.703130778670311E-1   1.627923816442490E-2   1.251726878644227E-1  
 7.026256564141035E9     2.217022774741054E-2   1.315797352303056E-1  -7.687519986604412E-1  -4.609215083718301E-1  -8.028339821260030E-1  -4.669317659735680E-1   1.959666961804032E-2   1.305084152697116E-1  
 7.027006751687922E9     2.450043190270663E-2   1.289012012450438E-1  -7.684725924553649E-1  -4.654470247030259E-1  -7.995542169775999E-1  -4.664697271585465E-1   2.423729162663221E-2   1.297655680235288E-1  
 7.027756939234809E9     2.386994773522020E-2   1.295413433879545E-1  -7.702254050140958E-1  -4.647713664174080E-1  -7.994758813226448E-1  -4.672629171609879E-1   2.197629163041711E-2   1.309420998956605E-1  
 7.028507126781695E9     2.493322962895036E-2   1.273912711160823E-1  -7.725245177267072E-1  -4.652780643105507E-1  -7.994593511630591E-1  -4.657023259997368E-1   2.479688199236990E-2   1.301687784778824E-1  
 7.029257314328582E9     2.371090356260538E-2   1.266747769248087E-1  -7.736591508402250E-1  -4.686023241281510E-1  -8.004497161161719E-1  -4.631462714076042E-1   2.848349964246154E-2   1.287330781387415E-1  
 7.030007501875469E9     2.431847650557757E-2   1.290489930487545E-1  -7.755526934583203E-1  -4.678628739714624E-1  -8.000573818424026E-1  -4.615912812948228E-1   2.947066834196449E-2   1.282254980812873E-1  
 7.030757689422356E9     2.437254074960947E-2   1.295048083174295E-1  -7.767518404442599E-1  -4.709348148107529E-1  -7.998408372890253E-1  -4.588604533672333E-1   3.160309260711074E-2   1.337776126216502E-1  
 7.031507876969242E9     2.410389073193074E-2   1.259166560532001E-1  -7.804427070369286E-1  -4.709975779056550E-1  -7.984136730998980E-1  -4.601821839809418E-1   3.506883811205626E-2   1.347896665938069E-1  
 7.032258064516130E9     2.393967071548104E-2   1.269083592364929E-1  -7.823294416777548E-1  -4.718278598785400E-1  -7.980377299774623E-1  -4.591270160675049E-1   3.235698999837042E-2   1.353113561885683E-1  
 7.033008252063016E9     2.646254731342197E-2   1.274144689026657E-1  -7.862786578721351E-1  -4.729691991209983E-1  -7.980176424706349E-1  -4.572978997230531E-1   3.804626565426588E-2   1.355386072399892E-1  
 7.033758439609902E9     2.232613097876311E-2   1.274991106072575E-1  -7.892054222134812E-1  -4.738493674993516E-1  -7.977410112749209E-1  -4.575170850753784E-1   3.677130058407784E-2   1.342476050368527E-1  
 7.034508627156789E9     2.453700283542275E-2   1.260939988030839E-1  -7.927072166258775E-1  -4.731527489423751E-1  -7.972010208317609E-1  -4.579530838131906E-1   4.062204059213401E-2   1.381816534386435E-1  
 7.035258814703676E9     2.480922522023321E-2   1.263753558133955E-1  -7.950717678754119E-1  -4.729428049921989E-1  -7.968436300239828E-1  -4.567435660958290E-1   4.005267873406410E-2   1.399159532656586E-1  
 7.036009002250563E9     2.527967141941190E-2   1.266343808716379E-1  -7.995978622207378E-1  -4.721567443013192E-1  -7.971951796726116E-1  -4.570257148146630E-1   4.348879314959050E-2   1.410144668170735E-1  
 7.036759189797449E9     2.406651163473726E-2   1.285314860436988E-1  -8.019671521913456E-1  -4.722194209694862E-1  -7.978569688202541E-1  -4.573598751425744E-1   4.458790928125383E-2   1.401025493981471E-1  
 7.037509377344337E9     2.559090523049236E-2   1.298880294867162E-1  -8.064846358107650E-1  -4.715427514910698E-1  -7.969595668178745E-1  -4.573810535669328E-1   4.202546700835228E-2   1.455882418948575E-1  
 7.038259564891223E9     2.689051663503051E-2   1.280183747895961E-1  -8.116722958574243E-1  -4.692815017700195E-1  -7.984993933014442E-1  -4.562606590986252E-1   4.011298470199109E-2   1.442133543645912E-1  
 7.039009752438109E9     2.646119099110365E-2   1.270097935099676E-1  -8.143216355700770E-1  -4.667193943262101E-1  -7.988416116974392E-1  -4.560997948050499E-1   3.981197111308575E-2   1.462560727137668E-1  
 7.039759939984996E9     2.858307138085366E-2   1.288638333710253E-1  -8.184514690731085E-1  -4.674400216341019E-1  -8.003757901120772E-1  -4.534395366907120E-1   4.034377872943879E-2   1.474658005189644E-1  
 7.040510127531883E9     2.847187777981163E-2   1.315348721318017E-1  -8.227363450503469E-1  -4.621286135911942E-1  -8.007636231191024E-1  -4.558753755688667E-1   4.345358990132809E-2   1.501178996236139E-1  
 7.041260315078770E9     2.831982364878059E-2   1.309179425684110E-1  -8.270318178801041E-1  -4.599774703383446E-1  -8.022631047626911E-1  -4.531255960464478E-1   3.905304424464703E-2   1.509018218684066E-1  
 7.042010502625656E9     3.208688851445914E-2   1.326354085553249E-1  -8.286433056228186E-1  -4.581760498881340E-1  -8.018166017641336E-1  -4.543006250262261E-1   3.770446833223105E-2   1.551154483307538E-1  
 7.042760690172544E9     3.373638339340688E-2   1.357225913173618E-1  -8.328150080175244E-1  -4.562833914160729E-1  -8.017814460200670E-1  -4.553299328684807E-1   3.864795476198198E-2   1.565204655376986E-1  
 7.043510877719430E9     3.228880267590285E-2   1.319866976525974E-1  -8.363022620368987E-1  -4.526281440258027E-1  -8.041401788762779E-1  -4.554459828138352E-1   4.047042220830917E-2   1.587329665541512E-1  
 7.044261065266316E9     3.443558283150196E-2   1.322001793439764E-1  -8.389091952818879E-1  -4.487054914236069E-1  -8.063170650281260E-1  -4.553609022498131E-1   3.895898796617984E-2   1.558783159375912E-1  
 7.045011252813203E9     3.577555630356074E-2   1.355663975776331E-1  -8.414078123296140E-1  -4.462601876258851E-1  -8.066697335824117E-1  -4.549139675498009E-1   3.719297442585231E-2   1.613874763614533E-1  
 7.045761440360090E9     3.684171136468649E-2   1.359771484712711E-1  -8.443780154874403E-1  -4.427204006910325E-1  -8.084386169155363E-1  -4.541894435882569E-1   3.436913479119539E-2   1.624788879315765E-1  
 7.046511627906977E9     3.688274350017309E-2   1.352222942203827E-1  -8.473900533237470E-1  -4.370249286293984E-1  -8.086207769523137E-1  -4.549841150641442E-1   3.451748672872782E-2   1.631432108891874E-1  
 7.047261815453863E9     3.642177522182465E-2   1.365385738391842E-1  -8.490518673633232E-1  -4.320635700225831E-1  -8.124937202878663E-1  -4.535573408007622E-1   3.372930292040110E-2   1.621919675141224E-1  
 7.048012003000751E9     4.028500746935608E-2   1.355493824123118E-1  -8.517018049248990E-1  -4.301644283533097E-1  -8.125023447959343E-1  -4.531591323018074E-1   3.096907017752528E-2   1.660412074481500E-1  
 7.048762190547637E9     4.241157539188863E-2   1.370701370716141E-1  -8.531444694700932E-1  -4.257155251502991E-1  -8.161768236983076E-1  -4.531953772902490E-1   3.236016195267440E-2   1.665428263411474E-1  
 7.049512378094523E9     4.011605519801378E-2   1.339946972124202E-1  -8.547718398082258E-1  -4.200371971726419E-1  -8.170717877789384E-1  -4.528693774342537E-1   2.877029730007053E-2   1.667454182848481E-1  
 7.050262565641411E9     4.320470366626978E-2   1.350683282480353E-1  -8.565537274951987E-1  -4.146707680821419E-1  -8.190069126708511E-1  -4.514388152956963E-1   2.997123710811139E-2   1.670094061883883E-1  
 7.051012753188297E9     4.378847915679218E-2   1.367949990341881E-1  -8.561735046344592E-1  -4.120208346843720E-1  -8.212492828632141E-1  -4.499399310350419E-1   2.489807447418570E-2   1.704448334510440E-1  
 7.051762940735184E9     4.568763360381126E-2   1.330976197244694E-1  -8.580959664347786E-1  -4.054621309041978E-1  -8.250517952641493E-1  -4.499643871188164E-1   2.967133438214660E-2   1.685235324121983E-1  
 7.052513128282070E9     4.746832504868508E-2   1.350223239923647E-1  -8.572064174179083E-1  -4.014467856287956E-1  -8.266102369750882E-1  -4.494740781188012E-1   3.009985907003284E-2   1.710405757084221E-1  
 7.053263315828958E9     4.699213106185199E-2   1.364683930644226E-1  -8.560742961003613E-1  -3.978543639183045E-1  -8.278387111951738E-1  -4.460171511769295E-1   2.296267671510577E-2   1.681085358648407E-1  
 7.054013503375844E9     4.862069662660361E-2   1.347813969559245E-1  -8.553212532423985E-1  -3.937988668680191E-1  -8.297429884663569E-1  -4.456385308504105E-1   2.325762286782265E-2   1.712677454965705E-1  
 7.054763690922730E9     5.107946030795574E-2   1.359887822442438E-1  -8.544600019873520E-1  -3.901477539539337E-1  -8.318176298268709E-1  -4.437621960043908E-1   2.416739007458091E-2   1.686721652169685E-1  
 7.055513878469618E9     4.964433237910271E-2   1.345559021351889E-1  -8.530458373995690E-1  -3.860680052638054E-1  -8.337383544973137E-1  -4.424245512485504E-1   1.810384603217244E-2   1.657124241633086E-1  
 7.056264066016504E9     5.004243027418853E-2   1.346124593009160E-1  -8.527319534753417E-1  -3.815639492869377E-1  -8.364205421144378E-1  -4.400666397809983E-1   2.034912608563901E-2   1.643884014641553E-1  
 7.057014253563391E9     5.143885951489210E-2   1.350653590440903E-1  -8.505498321879564E-1  -3.789816695451737E-1  -8.372536767598908E-1  -4.378832057118416E-1   1.845321446657181E-2   1.668503350824252E-1  
 7.057764441110277E9     5.136326845735312E-2   1.318545829359398E-1  -8.507956865504044E-1  -3.752444562315941E-1  -8.392624041563459E-1  -4.376476219296456E-1   1.268898512236774E-2   1.624860997235320E-1  
 7.058514628657165E9     5.054502394050361E-2   1.329205245695313E-1  -8.477922935153127E-1  -3.713058471679688E-1  -8.415150944215756E-1  -4.331374782323838E-1   1.450346293859184E-2   1.634474897772209E-1  
 7.059264816204051E9     5.266348391771317E-2   1.309702394376809E-1  -8.477120254889372E-1  -3.689976790547372E-1  -8.427278017078264E-1  -4.308997684717179E-1   8.900179564952850E-3   1.627216387787808E-1  
 7.060015003750938E9     5.199851114302875E-2   1.322982027517836E-1  -8.445615302649447E-1  -3.673185598850251E-1  -8.443837930576297E-1  -4.285978958010674E-1   8.122369931079449E-3   1.617885852212437E-1  
 7.060765191297825E9     5.101360652595760E-2   1.314664215569477E-1  -8.418674331862416E-1  -3.645428684353828E-1  -8.453151067037140E-1  -4.258182454109192E-1   8.952403082512319E-3   1.585246789754400E-1  
 7.061515378844711E9     5.045568335801363E-2   1.303238660518080E-1  -8.395625631462892E-1  -3.620142573118210E-1  -8.465218886517266E-1  -4.234179854393005E-1   4.786053199786694E-3   1.566720954714493E-1  
 7.062265566391598E9     5.169331058859826E-2   1.335211813881108E-1  -8.367873552057893E-1  -3.611037811636924E-1  -8.475812618128369E-1  -4.218475568294525E-1   3.815635030623525E-3   1.538770710346241E-1  
 7.063015753938484E9     5.026121225208045E-2   1.322845676878134E-1  -8.358329790380598E-1  -3.593358954787255E-1  -8.473284396002739E-1  -4.185599216818810E-1   2.190762052196078E-3   1.537437727852167E-1  
 7.063765941485372E9     4.879695769399405E-2   1.333241239988081E-1  -8.333824259429123E-1  -3.576150190830231E-1  -8.486215818882150E-1  -4.148928883671761E-1   9.286173351756589E-4   1.514759806893201E-1  
 7.064516129032258E9     4.951724745333196E-2   1.332472063076635E-1  -8.308456508822231E-1  -3.559688663482667E-1  -8.483981836811717E-1  -4.130423948168756E-1  -2.103965546120890E-3   1.530779561437132E-1  
 7.065266316579145E9     4.784784227609636E-2   1.299258642975253E-1  -8.291234921873523E-1  -3.554382941126824E-1  -8.490720790130546E-1  -4.101458555459977E-1  -3.529530728701502E-3   1.493715731511911E-1  
 7.066016504126032E9     4.919410895556212E-2   1.327172803403653E-1  -8.267320189886079E-1  -3.549034506082535E-1  -8.492913248311771E-1  -4.083796057105065E-1  -5.826046140864492E-3   1.478556411112451E-1  
 7.066766691672918E9     5.000189624726773E-2   1.331654192779423E-1  -8.238428001753604E-1  -3.544524142146110E-1  -8.498975220382574E-1  -4.056729868054391E-1  -7.841247520409524E-3   1.438353748224752E-1  
 7.067516879219805E9     4.709509953856469E-2   1.312028350504811E-1  -8.226091886969822E-1  -3.534075531363488E-1  -8.494934020905153E-1  -4.043710452318193E-1  -8.527160976082087E-3   1.432213803041722E-1  
 7.068267066766691E9     4.740019775927067E-2   1.321598818058737E-1  -8.200719688232516E-1  -3.548119160532952E-1  -8.505438050704484E-1  -4.007025045156479E-1  -8.474531169049442E-3   1.401458585592114E-1  
 7.069017254313579E9     4.818674087524415E-2   1.322721691885464E-1  -8.184707075424402E-1  -3.549348056316376E-1  -8.500185301215881E-1  -3.996382644772530E-1  -8.010089849121868E-3   1.416524263877474E-1  
 7.069767441860465E9     4.683591768145562E-2   1.340807301664074E-1  -8.159557541091516E-1  -3.553247800469399E-1  -8.496341854322876E-1  -3.960899609327316E-1  -9.098435579799115E-3   1.404102869416729E-1  
