#  HZ   S   RI   R     50.0 
! Rohde & Schwarz ZVL13 2Ports - Version 3.31 - 1303.6509k13 SN: 101088
! Date: 2023-03-06 15:28:55
! Data & Calibration Information:
! Trc4:S11(TOSM) Trc2:S21(TOSM) Trc3:S12(TOSM) Trc5:S22(TOSM)
! 
! 
! 
 7.000000000000000E9     3.626547958701849E-2   1.593862823052283E-1  -8.110064810252295E-1  -4.961081451177598E-1  -7.708959316098015E-1  -5.371806615591048E-1  -1.357936468906701E-2   1.648782424183180E-1  
 7.000750187546886E9     3.789243865758181E-2   1.564032040582857E-1  -8.113697615903978E-1  -4.930967211723328E-1  -7.743227730062741E-1  -5.353133100271226E-1  -1.530317747034133E-2   1.610434841684645E-1  
 7.001500375093774E9     3.570742249488831E-2   1.527858165184885E-1  -8.129572160822777E-1  -4.880477896332741E-1  -7.767801309624741E-1  -5.351118320226669E-1  -1.267347565852106E-2   1.608678879987975E-1  
 7.002250562640660E9     3.706146210432054E-2   1.514444876235431E-1  -8.114044780996000E-1  -4.852400726079942E-1  -7.792215096532329E-1  -5.330951094627381E-1  -1.820813877508044E-2   1.547798609325262E-1  
 7.003000750187547E9     3.547341912984849E-2   1.503194894568829E-1  -8.102241323066739E-1  -4.804261952638626E-1  -7.820567906430155E-1  -5.312184661626815E-1  -1.332907460629940E-2   1.542041151517677E-1  
 7.003750937734433E9     3.512221127748490E-2   1.487947471356169E-1  -8.099528817708974E-1  -4.756766721606255E-1  -7.845383214271968E-1  -5.304365170001985E-1  -1.586465634405613E-2   1.540828102117175E-1  
 7.004501125281321E9     3.645692225545645E-2   1.466819477635452E-1  -8.091920842325885E-1  -4.730042651295662E-1  -7.867862165916518E-1  -5.294238692522051E-1  -1.627835903316736E-2   1.501614507317031E-1  
 7.005251312828207E9     3.913657188415527E-2   1.515292721340395E-1  -8.065265803873791E-1  -4.702031904459000E-1  -7.894331191516050E-1  -5.268630099296571E-1  -1.206981585361064E-2   1.471004154644786E-1  
 7.006001500375094E9     3.641533739864826E-2   1.474507190029427E-1  -8.054757440944597E-1  -4.662052908539772E-1  -7.912509460354548E-1  -5.251844668388367E-1  -1.434666813351214E-2   1.467780467004716E-1  
 7.006751687921981E9     3.663520548492670E-2   1.497994089556277E-1  -8.039528489256027E-1  -4.640923193097115E-1  -7.925686881966184E-1  -5.240129047632218E-1  -1.423637299798429E-2   1.440122394350530E-1  
 7.007501875468867E9     3.579067055135965E-2   1.462296872556634E-1  -8.024792722077647E-1  -4.607575097680092E-1  -7.954200910774882E-1  -5.212596631050110E-1  -1.499041079543531E-2   1.415461445227410E-1  
 7.008252063015754E9     3.557435628026725E-2   1.431619097764851E-1  -8.008444333239086E-1  -4.582578429579735E-1  -7.962543913958572E-1  -5.185335403680802E-1  -1.533026183955371E-2   1.377743740490564E-1  
 7.009002250562640E9     3.072312569245696E-2   1.447801954234492E-1  -7.991688828953999E-1  -4.550040683150292E-1  -7.992200706146344E-1  -5.134739965200426E-1  -1.318887935020030E-2   1.373507926529602E-1  
 7.009752438109528E9     3.213949425145984E-2   1.438838080368233E-1  -7.965320433410975E-1  -4.532450112700462E-1  -8.002836729662204E-1  -5.127749228477478E-1  -1.336184730753303E-2   1.380386646776087E-1  
 7.010502625656414E9     3.132774930447340E-2   1.421661606214513E-1  -7.960403611328440E-1  -4.527559712529183E-1  -8.016703283235436E-1  -5.100058311223984E-1  -1.500018834136427E-2   1.309144092931106E-1  
 7.011252813203301E9     2.923626566305757E-2   1.398801928558442E-1  -7.943158990988712E-1  -4.506082063913347E-1  -8.034652189995570E-1  -5.073149853944778E-1  -1.326555427163840E-2   1.308638573959533E-1  
 7.012003000750188E9     3.097538296133280E-2   1.396475738529178E-1  -7.914399387337786E-1  -4.498865866661072E-1  -8.045687624709810E-1  -5.052611082792282E-1  -1.365051582455635E-2   1.255641692182924E-1  
 7.012753188297074E9     2.935491150245070E-2   1.423722961556596E-1  -7.896361844665125E-1  -4.475184270739556E-1  -8.055742560336194E-1  -5.019892153143883E-1  -1.293711562640965E-2   1.295542300447469E-1  
 7.013503375843961E9     2.829076550900937E-2   1.395942371512042E-1  -7.877362820053649E-1  -4.462802609801293E-1  -8.063502019745723E-1  -4.978748363256454E-1  -1.070365366525948E-2   1.266094054212263E-1  
 7.014253563390848E9     2.632574317976832E-2   1.394929525302428E-1  -7.873716455580049E-1  -4.453732830286027E-1  -8.068723574929430E-1  -4.969288158416749E-1  -1.196905817836523E-2   1.277333761645835E-1  
 7.015003750937735E9     2.525352684780956E-2   1.382535546884779E-1  -7.843836435391056E-1  -4.446452322602272E-1  -8.071940057069377E-1  -4.945206823945046E-1  -1.164066946133971E-2   1.266023710458382E-1  
 7.015753938484621E9     2.429432246834040E-2   1.347036668628878E-1  -7.832113155912847E-1  -4.430965358018876E-1  -8.076972262332033E-1  -4.913061606884003E-1  -9.775187117047609E-3   1.275736557064491E-1  
 7.016504126031508E9     2.163847677409650E-2   1.348866387435987E-1  -7.811757554582577E-1  -4.428548312187196E-1  -8.079689973560978E-1  -4.886124113202096E-1  -4.232506852131337E-3   1.246945308699654E-1  
 7.017254313578395E9     2.426721883937717E-2   1.349237338778843E-1  -7.802798924824888E-1  -4.435930538177491E-1  -8.089826643943492E-1  -4.853130248188973E-1  -8.479581070132553E-3   1.261850761952243E-1  
 7.018004501125281E9     2.439008262008429E-2   1.359911840483949E-1  -7.788314670254953E-1  -4.440144836902619E-1  -8.094913082016058E-1  -4.829111096262932E-1  -5.737518935929985E-3   1.239101258837689E-1  
 7.018754688672168E9     2.398295171558857E-2   1.359150877702021E-1  -7.765790655790745E-1  -4.449709543585778E-1  -8.086661380179051E-1  -4.810233139991760E-1  -5.938299598346931E-4   1.222150941620278E-1  
 7.019504876219055E9     2.816530600190163E-2   1.309712860857434E-1  -7.763971917673671E-1  -4.457537826895714E-1  -8.093071029106398E-1  -4.777100574970245E-1   1.329238727194025E-3   1.253168318587081E-1  
 7.020255063765942E9     2.316887335851789E-2   1.359584125512841E-1  -7.745517681691384E-1  -4.446666094660759E-1  -8.096218870808702E-1  -4.763228076696395E-1   2.866248118225486E-3   1.233626979408261E-1  
 7.021005251312828E9     2.531767033040524E-2   1.324258335542891E-1  -7.737034074474274E-1  -4.458636513352394E-1  -8.085348162417608E-1  -4.727507051825524E-1   2.942626478034072E-3   1.270306161217909E-1  
 7.021755438859715E9     2.385164817795157E-2   1.337724015399812E-1  -7.728090519065144E-1  -4.469408360123635E-1  -8.086793175102599E-1  -4.707297420501709E-1   7.659186380915345E-3   1.265731352325192E-1  
 7.022505626406602E9     2.416852088645101E-2   1.311938738903254E-1  -7.737973710203951E-1  -4.471833375096322E-1  -8.092030517604635E-1  -4.681129682064057E-1   6.655097743496300E-3   1.219564067660486E-1  
 7.023255813953488E9     2.507557623088360E-2   1.286915563017976E-1  -7.722478936081016E-1  -4.477498596906662E-1  -8.084584148713159E-1  -4.662045302987099E-1   1.323342314921320E-2   1.272221465342404E-1  
 7.024006001500375E9     2.212984707206488E-2   1.302933614721174E-1  -7.722431161528547E-1  -4.496624925732614E-1  -8.074024707403396E-1  -4.649596056342125E-1   1.350967804901302E-2   1.262895286802843E-1  
 7.024756189047262E9     2.401598652824760E-2   1.273755786584357E-1  -7.717284581080931E-1  -4.523027139902116E-1  -8.046043779272614E-1  -4.655324006080629E-1   1.520610687322915E-2   1.291904614894331E-1  
 7.025506376594149E9     2.285495018586517E-2   1.296427142913373E-1  -7.722885833282179E-1  -4.529552763700486E-1  -8.082360424988402E-1  -4.609931379556656E-1   1.794262723997235E-2   1.246201414967070E-1  
 7.026256564141035E9     2.355140084400773E-2   1.311099678833439E-1  -7.736320645803079E-1  -4.533413150906563E-1  -8.074712932713143E-1  -4.581422850489617E-1   2.108236620202661E-2   1.298156636524452E-1  
 7.027006751687922E9     2.570752307772637E-2   1.280262304074546E-1  -7.729385373888447E-1  -4.581077033281327E-1  -8.041847560671818E-1  -4.579756009578705E-1   2.583004621788860E-2   1.293322837682771E-1  
 7.027756939234809E9     2.524626312777401E-2   1.286348609422814E-1  -7.748678203414586E-1  -4.565709564089776E-1  -8.044295966842726E-1  -4.585904809832573E-1   2.408250432461501E-2   1.312997005725423E-1  
 7.028507126781695E9     2.612380960956216E-2   1.267576246761861E-1  -7.778605270182433E-1  -4.565856787562371E-1  -8.045095283937377E-1  -4.564879822731019E-1   2.692513113841415E-2   1.295096517399523E-1  
 7.029257314328582E9     2.544436490163207E-2   1.254651658083854E-1  -7.785694410570977E-1  -4.602600702643395E-1  -8.052501839800388E-1  -4.542657470703125E-1   3.109146423637867E-2   1.285676817905044E-1  
 7.030007501875469E9     2.599379613995553E-2   1.272545108073492E-1  -7.803124785880902E-1  -4.595194950699806E-1  -8.044974026176059E-1  -4.532019323110581E-1   3.131193127483130E-2   1.276564070731732E-1  
 7.030757689422356E9     2.563399184495211E-2   1.279510313703629E-1  -7.815840320496407E-1  -4.625495213270188E-1  -8.043408150293870E-1  -4.505193400382996E-1   3.341127589344978E-2   1.336057295743011E-1  
 7.031507876969242E9     2.508019316941500E-2   1.248088611365046E-1  -7.852772206880119E-1  -4.630522295832634E-1  -8.033546597295594E-1  -4.514928710460663E-1   3.760634738951922E-2   1.339384820403642E-1  
 7.032258064516130E9     2.545538082718849E-2   1.268667271888364E-1  -7.875043137333727E-1  -4.637022283673287E-1  -8.030980670293584E-1  -4.505447462201119E-1   3.419673480093479E-2   1.351781261444750E-1  
 7.033008252063016E9     2.815621474757791E-2   1.262230099107781E-1  -7.916438643649872E-1  -4.644976866245271E-1  -8.024869940786084E-1  -4.485196536779404E-1   3.971514608711005E-2   1.349031888174476E-1  
 7.033758439609902E9     2.300055162981152E-2   1.262120386824589E-1  -7.941522477655867E-1  -4.653818383812904E-1  -8.024633515003968E-1  -4.490975829958916E-1   3.835193358361722E-2   1.333262143277620E-1  
 7.034508627156789E9     2.550868330523372E-2   1.253338738550108E-1  -7.979315551666744E-1  -4.645618408918381E-1  -8.017196423500073E-1  -4.496738004684449E-1   4.277387581765652E-2   1.377763470384208E-1  
 7.035258814703676E9     2.607335291802884E-2   1.256988765584162E-1  -8.005758646163991E-1  -4.642209538817406E-1  -8.018008863903005E-1  -4.482262164354326E-1   4.252886030822992E-2   1.391100429698903E-1  
 7.036009002250563E9     2.611764835193753E-2   1.263646323228880E-1  -8.047348049310018E-1  -4.640066432952881E-1  -8.020349459626244E-1  -4.484198191761971E-1   4.573452189564706E-2   1.410686768253167E-1  
 7.036759189797449E9     2.545697500929237E-2   1.275628075264755E-1  -8.071000114911664E-1  -4.632950723171235E-1  -8.024103450017811E-1  -4.487535601854325E-1   4.650657564401627E-2   1.392154069283402E-1  
 7.037509377344337E9     2.722582900896669E-2   1.288301395030906E-1  -8.114962460564906E-1  -4.624816623330117E-1  -8.017579725030364E-1  -4.487345036864281E-1   4.429064493626356E-2   1.451183893009958E-1  
 7.038259564891223E9     2.828016825020314E-2   1.267643983146601E-1  -8.168177931258240E-1  -4.603593260049821E-1  -8.034591626421868E-1  -4.473283031582833E-1   4.260655175894499E-2   1.441576438946171E-1  
 7.039009752438109E9     2.815970633178950E-2   1.264532370021670E-1  -8.196661125509066E-1  -4.575670313835144E-1  -8.035815795536073E-1  -4.473762175440788E-1   4.194435689598321E-2   1.454573130355577E-1  
 7.039759939984996E9     3.006363892927766E-2   1.285791179213299E-1  -8.237989170768908E-1  -4.579143735766411E-1  -8.049342432104393E-1  -4.451407763361931E-1   4.229767490178347E-2   1.468499098117555E-1  
 7.040510127531883E9     2.989784941077232E-2   1.305797360299308E-1  -8.280870820815711E-1  -4.528786876797677E-1  -8.055647490269469E-1  -4.467702621221543E-1   4.568077377974987E-2   1.503452383674992E-1  
 7.041260315078770E9     2.996287416666747E-2   1.302028900737021E-1  -8.317297653378901E-1  -4.507675263285638E-1  -8.075304138566293E-1  -4.440429049730302E-1   4.106634519994259E-2   1.512049450795553E-1  
 7.042010502625656E9     3.350470803678036E-2   1.320088798082845E-1  -8.339798095161249E-1  -4.490162950754166E-1  -8.067819634870738E-1  -4.454034814238548E-1   3.987242769449950E-2   1.549570633116036E-1  
 7.042760690172544E9     3.504655398428440E-2   1.344893064177172E-1  -8.378003665231556E-1  -4.466678819060326E-1  -8.068742618635374E-1  -4.466419693827630E-1   4.052472382783891E-2   1.567071875357665E-1  
 7.043510877719430E9     3.348348252475263E-2   1.310084278564657E-1  -8.413939690509568E-1  -4.430912631750108E-1  -8.086833314282145E-1  -4.468898278474809E-1   4.235372774302959E-2   1.580966612538556E-1  
 7.044261065266316E9     3.584524471312762E-2   1.314049984350906E-1  -8.437801766967528E-1  -4.394422167539597E-1  -8.111014602974551E-1  -4.469004446268083E-1   4.154549919068814E-2   1.566408533837849E-1  
 7.045011252813203E9     3.729679740965367E-2   1.345092055292000E-1  -8.462644702210838E-1  -4.366074645519257E-1  -8.112240306162393E-1  -4.462871161103250E-1   3.896885856986047E-2   1.608516262658501E-1  
 7.045761440360090E9     3.893519517034293E-2   1.358032214855959E-1  -8.496462402523932E-1  -4.321657758951188E-1  -8.132779959257137E-1  -4.452901872992516E-1   3.644631836563349E-2   1.618982558181261E-1  
 7.046511627906977E9     3.807326234877110E-2   1.343685427269042E-1  -8.517858669469063E-1  -4.277077192068101E-1  -8.141733057370469E-1  -4.460831773281098E-1   3.709079511463643E-2   1.627876537078010E-1  
 7.047261815453863E9     3.779357478022576E-2   1.354645577966431E-1  -8.530994082206553E-1  -4.227182152867317E-1  -8.175703056094661E-1  -4.445448419451714E-1   3.577648792415857E-2   1.622752141043285E-1  
 7.048012003000751E9     4.178747229278089E-2   1.349748326681391E-1  -8.562028337505190E-1  -4.199861666560175E-1  -8.180901723241961E-1  -4.440137431025506E-1   3.339718095958233E-2   1.662044004178817E-1  
 7.048762190547637E9     4.402281362563373E-2   1.358838554596138E-1  -8.570165346758843E-1  -4.159350070357323E-1  -8.212453628859677E-1  -4.442046156525613E-1   3.507054977118969E-2   1.663539514106829E-1  
 7.049512378094523E9     4.149821873754264E-2   1.331781778274039E-1  -8.586726030759713E-1  -4.101167416572570E-1  -8.219115246257521E-1  -4.436733055114747E-1   3.060136066749692E-2   1.668063248697045E-1  
 7.050262565641411E9     4.445732511579990E-2   1.346313039013093E-1  -8.603193356406906E-1  -4.047762823104859E-1  -8.241737163150382E-1  -4.419407618045807E-1   3.263093389570713E-2   1.666604328053588E-1  
 7.051012753188297E9     4.547566037625075E-2   1.360036784936767E-1  -8.597741983518576E-1  -4.021920901536942E-1  -8.259488915998396E-1  -4.411886519193651E-1   2.744769588112831E-2   1.700478690048698E-1  
 7.051762940735184E9     4.667925942689181E-2   1.321573298502703E-1  -8.619384757138157E-1  -3.953436937928200E-1  -8.304062582684703E-1  -4.407349514961244E-1   3.213252015411854E-2   1.678406258887546E-1  
 7.052513128282070E9     4.924277078360320E-2   1.346757623578426E-1  -8.611640472252330E-1  -3.913480430841446E-1  -8.314772601596153E-1  -4.403146839141846E-1   3.196635777130723E-2   1.708814067033610E-1  
 7.053263315828958E9     4.873500481247903E-2   1.354963861642630E-1  -8.592764255398433E-1  -3.882851266860962E-1  -8.327383783736223E-1  -4.369390895962716E-1   2.647596344351769E-2   1.673436516676759E-1  
 7.054013503375844E9     5.004603374749422E-2   1.331438815643339E-1  -8.591389327897983E-1  -3.836468690633775E-1  -8.345874303677325E-1  -4.365737491846085E-1   2.566340565681458E-2   1.710607498843010E-1  
 7.054763690922730E9     5.272594723850489E-2   1.350504363152779E-1  -8.580305781841715E-1  -3.802013272047043E-1  -8.366107598604395E-1  -4.343117371201515E-1   2.663042213767768E-2   1.685689883297296E-1  
 7.055513878469618E9     5.081805188208818E-2   1.335807861602161E-1  -8.569254023746049E-1  -3.765390110015868E-1  -8.384827991886916E-1  -4.328328034281730E-1   1.964541388675571E-2   1.654586347834290E-1  
 7.056264066016504E9     5.133577320724726E-2   1.334096895834900E-1  -8.560789801555619E-1  -3.722043943405151E-1  -8.409324105955005E-1  -4.311271074414254E-1   2.269087942317128E-2   1.639464412436535E-1  
 7.057014253563391E9     5.289839584380388E-2   1.344105149606581E-1  -8.538470057633774E-1  -3.694204786419868E-1  -8.418977749018293E-1  -4.292597806453705E-1   1.971425279974938E-2   1.664960504956947E-1  
 7.057764441110277E9     5.227313309907913E-2   1.310810127437453E-1  -8.542174530143772E-1  -3.654257518053056E-1  -8.440146530505960E-1  -4.279054239392280E-1   1.501162470318377E-2   1.626656944725530E-1  
 7.058514628657165E9     5.168813880532981E-2   1.322204795891361E-1  -8.511467504873386E-1  -3.618850201368333E-1  -8.458884264959472E-1  -4.235362303256988E-1   1.654469870962203E-2   1.627605286558552E-1  
 7.059264816204051E9     5.366048216819763E-2   1.303554990050824E-1  -8.509119318117093E-1  -3.594173169136048E-1  -8.473809284850058E-1  -4.215234649181366E-1   1.072633456438780E-2   1.633251538448211E-1  
 7.060015003750938E9     5.337491109967232E-2   1.312886322342969E-1  -8.475937145992570E-1  -3.579046517610550E-1  -8.486213010746415E-1  -4.192886000871659E-1   1.055842201225460E-2   1.608961564804867E-1  
 7.060765191297825E9     5.228786755353213E-2   1.304069201220507E-1  -8.452227292637461E-1  -3.553796786069871E-1  -8.499338164180498E-1  -4.164904665946960E-1   1.118359033949673E-2   1.589328082681695E-1  
 7.061515378844711E9     5.168515820056201E-2   1.291840107692359E-1  -8.431274140571189E-1  -3.528972050547600E-1  -8.510513360162253E-1  -4.138280585408211E-1   6.837687920778992E-3   1.564914822517442E-1  
 7.062265566391598E9     5.225083693861962E-2   1.323385053503289E-1  -8.400599520353780E-1  -3.520651575922967E-1  -8.517995689322790E-1  -4.125535163283349E-1   5.238463832065464E-3   1.538297061610763E-1  
 7.063015753938484E9     5.120561033487322E-2   1.310410846351527E-1  -8.387767219475000E-1  -3.501471528410911E-1  -8.520121148487613E-1  -4.080913636088372E-1   4.948479740414768E-3   1.541407870840414E-1  
 7.063765941485372E9     5.070273470133544E-2   1.324491983609937E-1  -8.363262887374996E-1  -3.492474555969239E-1  -8.530161390889858E-1  -4.060270968079567E-1   2.512665944523178E-3   1.509519370999297E-1  
 7.064516129032258E9     5.131682097911836E-2   1.327190270700787E-1  -8.337124103314840E-1  -3.474950125813484E-1  -8.524040587600803E-1  -4.035415276885033E-1  -2.105658924847371E-5   1.518403907351824E-1  
 7.065266316579145E9     4.877179551869632E-2   1.286391052014138E-1  -8.321908372583659E-1  -3.459138646721841E-1  -8.531258883389967E-1  -4.009273862838745E-1  -1.879428515094333E-3   1.495462346008291E-1  
 7.066016504126032E9     5.005211640149355E-2   1.325544998301126E-1  -8.296930630843108E-1  -3.460721895098687E-1  -8.536892814775065E-1  -3.991555672883988E-1  -3.687655015382916E-3   1.485326564481657E-1  
 7.066766691672918E9     5.085633739829064E-2   1.322530571756904E-1  -8.274355147746325E-1  -3.454900452494621E-1  -8.542149713469159E-1  -3.962770780920983E-1  -6.077107335440814E-3   1.445311713514794E-1  
 7.067516879219805E9     4.858458098024131E-2   1.306831522269799E-1  -8.258333796434705E-1  -3.446740525960922E-1  -8.538720424051768E-1  -3.944624069333077E-1  -6.269732420332731E-3   1.430546481989685E-1  
 7.068267066766691E9     4.895667035132648E-2   1.310348349348219E-1  -8.231738439819287E-1  -3.460167780518532E-1  -8.543773965980827E-1  -3.912590438127519E-1  -6.447370080277325E-3   1.402539714584291E-1  
 7.069017254313579E9     4.936914786696434E-2   1.309785825486090E-1  -8.215901944510382E-1  -3.460771000385284E-1  -8.544658896515096E-1  -3.896817407011987E-1  -5.600676699541511E-3   1.426056150174660E-1  
 7.069767441860465E9     4.812804900109768E-2   1.333208152928446E-1  -8.198099638480482E-1  -3.464707076549530E-1  -8.533526433473327E-1  -3.865925675630570E-1  -8.363759871572256E-3   1.399220299342500E-1  
