#  HZ   S   RI   R     50.0 
! Rohde & Schwarz ZVL13 2Ports - Version 3.31 - 1303.6509k13 SN: 101088
! Date: 2023-03-06 15:22:15
! Data & Calibration Information:
! Trc4:S11(TOSM) Trc2:S21(TOSM) Trc3:S12(TOSM) Trc5:S22(TOSM)
! 
! 
! 
 7.000000000000000E9     3.403746519530938E-2   1.611745902652250E-1  -7.983077106478436E-1  -5.137738577455878E-1  -7.561015571019619E-1  -5.542294938289525E-1  -1.657017051636987E-2   1.673817762353879E-1  
 7.000750187546886E9     3.547679577729107E-2   1.583216468938631E-1  -7.990517797738970E-1  -5.106660869536400E-1  -7.594838181148546E-1  -5.527188257901670E-1  -1.921596677970514E-2   1.640757799765866E-1  
 7.001500375093774E9     3.355523970501312E-2   1.552313743947983E-1  -8.005799826606199E-1  -5.058589259757400E-1  -7.618902910867158E-1  -5.521410558086635E-1  -1.730784873612411E-2   1.641114498497110E-1  
 7.002250562640660E9     3.493588135297224E-2   1.541253862115245E-1  -7.991483143465060E-1  -5.025224426106215E-1  -7.645174588448958E-1  -5.501096840491891E-1  -2.124136411740259E-2   1.576861573753102E-1  
 7.003000750187547E9     3.284325860349834E-2   1.519158567212402E-1  -7.982256761621657E-1  -4.978312763001026E-1  -7.674737031470205E-1  -5.487883062126041E-1  -1.728357113826647E-2   1.570729527637600E-1  
 7.003750937734433E9     3.278380232894421E-2   1.505462041208589E-1  -7.982874307746897E-1  -4.931835077280404E-1  -7.699474796305367E-1  -5.478980237587096E-1  -1.974264293914662E-2   1.573746715427535E-1  
 7.004501125281321E9     3.431418317618221E-2   1.489363671472960E-1  -7.976908319433516E-1  -4.905070486816466E-1  -7.722521180077017E-1  -5.467605094078780E-1  -2.015900501504541E-2   1.531043911089338E-1  
 7.005251312828207E9     3.660902892984822E-2   1.536126951440960E-1  -7.950547023191849E-1  -4.875282622345984E-1  -7.749893476550674E-1  -5.443839264099003E-1  -1.611522255965509E-2   1.492636621188841E-1  
 7.006001500375094E9     3.415564363053442E-2   1.494004043787842E-1  -7.941031852748319E-1  -4.833030217220486E-1  -7.769225772998264E-1  -5.424370392092468E-1  -1.890628387375735E-2   1.494516677290913E-1  
 7.006751687921981E9     3.473694020941482E-2   1.526861834594387E-1  -7.920355175022393E-1  -4.816438454487324E-1  -7.780304074011234E-1  -5.418688382428886E-1  -1.803092551182398E-2   1.460753589483536E-1  
 7.007501875468867E9     3.352283776445688E-2   1.486734371077748E-1  -7.907654175107657E-1  -4.779587790098490E-1  -7.812509897295623E-1  -5.392763708270789E-1  -1.891139139380306E-2   1.440067226221363E-1  
 7.008252063015754E9     3.356681300381944E-2   1.452386261307046E-1  -7.896124544987181E-1  -4.750308966576160E-1  -7.824369085269018E-1  -5.365191228730084E-1  -1.851405455275066E-2   1.403444454551147E-1  
 7.009002250562640E9     2.862607434248553E-2   1.468780937260598E-1  -7.877973378104689E-1  -4.721683334750236E-1  -7.849117583846273E-1  -5.317064599314333E-1  -1.738522175327875E-2   1.396894628810356E-1  
 7.009752438109528E9     2.973844479755313E-2   1.460745087819314E-1  -7.851412615317002E-1  -4.699078183560372E-1  -7.858199502245790E-1  -5.312131210852863E-1  -1.735430428030714E-2   1.403494440762928E-1  
 7.010502625656414E9     2.925851218429581E-2   1.441804732366681E-1  -7.844697668582755E-1  -4.694380244997146E-1  -7.876106698001120E-1  -5.283771583181025E-1  -1.770784180706926E-2   1.332149549603623E-1  
 7.011252813203301E9     2.636776096987911E-2   1.422262584783104E-1  -7.828803056367060E-1  -4.675481060760320E-1  -7.894738767018938E-1  -5.257008652020098E-1  -1.732123020400293E-2   1.330445834745861E-1  
 7.012003000750188E9     2.798155253058486E-2   1.412531183289620E-1  -7.799220073950840E-1  -4.665914303933680E-1  -7.908872267454636E-1  -5.230168273227214E-1  -1.664180245868583E-2   1.277205098839414E-1  
 7.012753188297074E9     2.671848890528829E-2   1.451233484762708E-1  -7.781593074620139E-1  -4.641540728811622E-1  -7.919783845777817E-1  -5.202297368801236E-1  -1.681031179022882E-2   1.316620181284263E-1  
 7.013503375843961E9     2.498450882711075E-2   1.416053637183143E-1  -7.760391738831475E-1  -4.627261570315958E-1  -7.927888769894973E-1  -5.170006592339873E-1  -1.409402941553574E-2   1.286780599780472E-1  
 7.014253563390848E9     2.336293618109450E-2   1.411794044032123E-1  -7.760371156798106E-1  -4.618387871861757E-1  -7.935028892411531E-1  -5.151464386880995E-1  -1.554261714376975E-2   1.296456261490024E-1  
 7.015003750937735E9     2.239931393336133E-2   1.403301503106468E-1  -7.730668660549889E-1  -4.610486360654534E-1  -7.936986225544084E-1  -5.125384811508059E-1  -1.592709219991602E-2   1.292075623409943E-1  
 7.015753938484621E9     2.113742837784626E-2   1.360481894103120E-1  -7.717938524750966E-1  -4.590915761780740E-1  -7.940835525430279E-1  -5.095787097530962E-1  -1.355056578849443E-2   1.297199997559421E-1  
 7.016504126031508E9     1.860065932785347E-2   1.373035704420644E-1  -7.699525777315500E-1  -4.590895410337747E-1  -7.949737245134088E-1  -5.063815856809021E-1  -8.628805189581123E-3   1.256714519785548E-1  
 7.017254313578395E9     2.112000348950737E-2   1.372123644909886E-1  -7.685765962261170E-1  -4.595046077209414E-1  -7.958856889875566E-1  -5.037446608798505E-1  -1.234506629090291E-2   1.277240241768977E-1  
 7.018004501125281E9     2.101805182238855E-2   1.369997737820573E-1  -7.677045462422227E-1  -4.596478965597154E-1  -7.965764130353068E-1  -5.010306053180695E-1  -1.025834455778543E-2   1.261682564583647E-1  
 7.018754688672168E9     2.107796138062329E-2   1.377184560650215E-1  -7.651510163612284E-1  -4.612252991152406E-1  -7.959704534639569E-1  -4.994439779514373E-1  -4.877487044211478E-3   1.236235494480350E-1  
 7.019504876219055E9     2.491913597206772E-2   1.326533684847226E-1  -7.648953007625897E-1  -4.618806106141807E-1  -7.964937709669649E-1  -4.964178073347211E-1  -3.093466669884744E-3   1.272282156920890E-1  
 7.020255063765942E9     2.020278751713969E-2   1.375529775240260E-1  -7.627782844158371E-1  -4.613036296246946E-1  -7.965364686146975E-1  -4.946283079578580E-1  -4.705187504891075E-4   1.245329968549188E-1  
 7.021005251312828E9     2.220631340864115E-2   1.335816018743255E-1  -7.622090117871954E-1  -4.618405398053826E-1  -7.956477281447780E-1  -4.908639894416631E-1  -1.151033061136896E-3   1.280218342092505E-1  
 7.021755438859715E9     1.992990167309531E-2   1.352758819241696E-1  -7.611645032375052E-1  -4.626002236619891E-1  -7.964958764603189E-1  -4.885178221851887E-1   3.400861270084745E-3   1.283535638015351E-1  
 7.022505626406602E9     2.107539726547152E-2   1.320002761129088E-1  -7.616597528793033E-1  -4.630646862914265E-1  -7.965775863150389E-1  -4.866561403401495E-1   2.687953404014930E-3   1.237341766366415E-1  
 7.023255813953488E9     2.110783670681343E-2   1.297935099869602E-1  -7.601991937382433E-1  -4.636742212389708E-1  -7.956305086618197E-1  -4.846249984145166E-1   9.483300890675282E-3   1.285713345261003E-1  
 7.024006001500375E9     1.889284701045230E-2   1.313202866181406E-1  -7.603412401995887E-1  -4.653914798845949E-1  -7.947692912500048E-1  -4.836334149823786E-1   9.367558888794855E-3   1.272301194605173E-1  
 7.024756189047262E9     2.014182168331929E-2   1.282356236417602E-1  -7.596953010707358E-1  -4.678377587838174E-1  -7.924155770510422E-1  -4.837647151826622E-1   1.007798216169142E-2   1.307705751089912E-1  
 7.025506376594149E9     1.879065404325165E-2   1.302496645053884E-1  -7.597064447099065E-1  -4.688311676208377E-1  -7.958055516647525E-1  -4.791668659959735E-1   1.419441091110185E-2   1.269327413492847E-1  
 7.026256564141035E9     2.012238268406876E-2   1.315222561882213E-1  -7.611898899295208E-1  -4.689535493124425E-1  -7.951451401849190E-1  -4.761522391913832E-1   1.722278644999396E-2   1.312105246148088E-1  
 7.027006751687922E9     2.250714057290554E-2   1.287637832736245E-1  -7.607720429515071E-1  -4.733950134436787E-1  -7.916776166767402E-1  -4.757551263294221E-1   2.216866389654578E-2   1.310705535126504E-1  
 7.027756939234809E9     2.160355949655176E-2   1.295418786143265E-1  -7.624729970250548E-1  -4.729086891145112E-1  -7.921415332660179E-1  -4.763988064708115E-1   2.028281892166846E-2   1.323688806868947E-1  
 7.028507126781695E9     2.252390095450915E-2   1.274933496789956E-1  -7.650663676762740E-1  -4.730284603702725E-1  -7.922933185416501E-1  -4.744988922584952E-1   2.271852357240394E-2   1.312230123364867E-1  
 7.029257314328582E9     2.192090942751803E-2   1.261552214118566E-1  -7.658309750337402E-1  -4.766074790201783E-1  -7.930486546988054E-1  -4.725766460398437E-1   2.609268225420267E-2   1.303814381636488E-1  
 7.030007501875469E9     2.274867501877994E-2   1.282108344190213E-1  -7.676899357525472E-1  -4.757338747383059E-1  -7.925035863433281E-1  -4.709448113170268E-1   2.735280102376641E-2   1.297094688084745E-1  
 7.030757689422356E9     2.210416671198980E-2   1.285337144926844E-1  -7.689074297730684E-1  -4.789820483021439E-1  -7.920466935307629E-1  -4.686510093422235E-1   2.956446389565245E-2   1.347056587553179E-1  
 7.031507876969242E9     2.193290047440120E-2   1.253211679769010E-1  -7.724200806363168E-1  -4.794399328915477E-1  -7.909027547613383E-1  -4.699112277951539E-1   3.343659447163344E-2   1.358410316000754E-1  
 7.032258064516130E9     2.174889887847007E-2   1.265474269798228E-1  -7.745434716341657E-1  -4.803626724475325E-1  -7.908221284199294E-1  -4.682787374956311E-1   3.054991375278310E-2   1.361262895095838E-1  
 7.033008252063016E9     2.449299749760889E-2   1.261541056063284E-1  -7.784016384092902E-1  -4.810742392010093E-1  -7.907492135974258E-1  -4.662246230935157E-1   3.596195951055736E-2   1.364094061701835E-1  
 7.033758439609902E9     2.053760907206312E-2   1.262363744100651E-1  -7.811129425724259E-1  -4.822919966965616E-1  -7.901109850453597E-1  -4.667229119646252E-1   3.540858597063646E-2   1.352847431470314E-1  
 7.034508627156789E9     2.292117686088011E-2   1.251848164650370E-1  -7.848479981806718E-1  -4.815424313891233E-1  -7.895834061288387E-1  -4.675429408945740E-1   3.879527960144356E-2   1.391413149202327E-1  
 7.035258814703676E9     2.282474519438855E-2   1.255935379313188E-1  -7.873596501253438E-1  -4.816653118713797E-1  -7.895630623369405E-1  -4.659026081638934E-1   3.809438050303237E-2   1.409293715414186E-1  
 7.036009002250563E9     2.298873041568138E-2   1.255047059395417E-1  -7.914802337817332E-1  -4.814894438832700E-1  -7.897577982239914E-1  -4.659149407091142E-1   4.292876744317637E-2   1.426926703724508E-1  
 7.036759189797449E9     2.223651250659675E-2   1.277338610138866E-1  -7.942764534570781E-1  -4.809856424001754E-1  -7.904111304442225E-1  -4.665440162068606E-1   4.356228457020967E-2   1.407301534890321E-1  
 7.037509377344337E9     2.363853627952747E-2   1.287980740425697E-1  -7.984181262192533E-1  -4.802249767993689E-1  -7.896564584192588E-1  -4.662462095956504E-1   4.088118969175594E-2   1.465929542475827E-1  
 7.038259564891223E9     2.552651881626435E-2   1.265671464222335E-1  -8.036604380625532E-1  -4.779536321130397E-1  -7.910946198785842E-1  -4.650519480661750E-1   3.836207993269340E-2   1.462529617713335E-1  
 7.039009752438109E9     2.503854102464393E-2   1.260947553212656E-1  -8.064174596329887E-1  -4.761005137769581E-1  -7.911113527986241E-1  -4.651215894992054E-1   3.856410578016565E-2   1.466511370804654E-1  
 7.039759939984996E9     2.694266184398346E-2   1.277980429391639E-1  -8.105611667490176E-1  -4.763262958189846E-1  -7.925056617255220E-1  -4.629979837042392E-1   3.809929947617278E-2   1.481038423514055E-1  
 7.040510127531883E9     2.717798028727249E-2   1.304061769692244E-1  -8.152502505665868E-1  -4.712389320530594E-1  -7.933506041839448E-1  -4.650815681742132E-1   4.251071986358613E-2   1.516242151077594E-1  
 7.041260315078770E9     2.712294013098627E-2   1.297589975838988E-1  -8.192041181754359E-1  -4.687928198456468E-1  -7.952972787696411E-1  -4.619253611837328E-1   3.748125157416612E-2   1.524168890336206E-1  
 7.042010502625656E9     3.114237519805320E-2   1.318067163117922E-1  -8.212153166315118E-1  -4.674154898161889E-1  -7.943407421043425E-1  -4.629262647078634E-1   3.613759147000686E-2   1.562328221214331E-1  
 7.042760690172544E9     3.254104702469707E-2   1.341043213267641E-1  -8.246937359919483E-1  -4.662977503057123E-1  -7.943107664124804E-1  -4.646364733592868E-1   3.656038760638237E-2   1.586311956454093E-1  
 7.043510877719430E9     3.138504647333362E-2   1.311949855106261E-1  -8.288064006234542E-1  -4.615971093965471E-1  -7.962114710724975E-1  -4.647339715057017E-1   3.866123166256026E-2   1.600983225995978E-1  
 7.044261065266316E9     3.343686709037051E-2   1.316306746973088E-1  -8.319003451294333E-1  -4.578108425749839E-1  -7.989890306886338E-1  -4.641990479458273E-1   3.756514683105798E-2   1.579357312101718E-1  
 7.045011252813203E9     3.519174484947325E-2   1.347255835683416E-1  -8.339407002153890E-1  -4.555710618314744E-1  -7.992017437955760E-1  -4.638331780222357E-1   3.525009555393086E-2   1.627039492085127E-1  
 7.045761440360090E9     3.632048622550443E-2   1.354192967145269E-1  -8.371524756452798E-1  -4.519981564225257E-1  -8.007283206348625E-1  -4.629194826106430E-1   3.261932622733341E-2   1.637081715696510E-1  
 7.046511627906977E9     3.545074039254711E-2   1.345289401141176E-1  -8.401015699557020E-1  -4.468334073397816E-1  -8.014385672679143E-1  -4.640434960349203E-1   3.357559971820748E-2   1.644142305718359E-1  
 7.047261815453863E9     3.550596578147262E-2   1.354679602316828E-1  -8.420406961118622E-1  -4.420979416714609E-1  -8.052192067722874E-1  -4.627239770590067E-1   3.258508858701960E-2   1.638700715638621E-1  
 7.048012003000751E9     3.943336537484825E-2   1.350994291098696E-1  -8.447329843671586E-1  -4.396716525824965E-1  -8.055283743218777E-1  -4.618834620741309E-1   2.990676826058143E-2   1.683082657019548E-1  
 7.048762190547637E9     4.163745532760398E-2   1.366262657428842E-1  -8.462065585323232E-1  -4.351186223273874E-1  -8.088127527648883E-1  -4.621889250146747E-1   3.063505375640840E-2   1.681610174531509E-1  
 7.049512378094523E9     3.958689983678609E-2   1.333459687266043E-1  -8.479288972971284E-1  -4.300008373245597E-1  -8.096595663980505E-1  -4.620024822830558E-1   2.720247745442764E-2   1.685356971441820E-1  
 7.050262565641411E9     4.330430163171515E-2   1.349215955315217E-1  -8.494864169360377E-1  -4.246314879156352E-1  -8.117290425451672E-1  -4.605826862462163E-1   2.951144718413987E-2   1.689674814256070E-1  
 7.051012753188297E9     4.350382061203197E-2   1.366303572649742E-1  -8.493749817867935E-1  -4.211963695125283E-1  -8.134285778116793E-1  -4.591919218460321E-1   2.356161269797199E-2   1.715365894005733E-1  
 7.051762940735184E9     4.561746942658350E-2   1.330991210799795E-1  -8.511527176429133E-1  -4.149784380685985E-1  -8.176904006697413E-1  -4.594717581437827E-1   2.855970875465498E-2   1.702685750288467E-1  
 7.052513128282070E9     4.750579815328867E-2   1.357604405714837E-1  -8.505029940973228E-1  -4.111541278665960E-1  -8.187322697123736E-1  -4.587992816986740E-1   2.804584041133151E-2   1.729279659508228E-1  
 7.053263315828958E9     4.734041720789672E-2   1.361700853660747E-1  -8.498102307601954E-1  -4.073536122470499E-1  -8.203293858784184E-1  -4.558400912420452E-1   2.112541748784296E-2   1.699999075075822E-1  
 7.054013503375844E9     4.887170587073639E-2   1.349509323481831E-1  -8.491605987619455E-1  -4.031786115704478E-1  -8.220931700274965E-1  -4.550253232631089E-1   2.154954723410495E-2   1.732136606692457E-1  
 7.054763690922730E9     5.133961787430198E-2   1.370237671968830E-1  -8.479133757566181E-1  -3.993096093406976E-1  -8.241103004867316E-1  -4.530363474375309E-1   2.260754230941832E-2   1.709660936486664E-1  
 7.055513878469618E9     4.993704508217426E-2   1.350429784501134E-1  -8.471912569338093E-1  -3.950868822307885E-1  -8.262603958405617E-1  -4.516539812355340E-1   1.662939851203282E-2   1.678881900585481E-1  
 7.056264066016504E9     5.056024159507827E-2   1.353480839060953E-1  -8.463593412474407E-1  -3.909611701283753E-1  -8.286729500541010E-1  -4.503709689222575E-1   1.877747708919645E-2   1.666989386417387E-1  
 7.057014253563391E9     5.154217265594752E-2   1.358845018044127E-1  -8.442540768097449E-1  -3.877439378453792E-1  -8.297279689441152E-1  -4.477563028663100E-1   1.682174695155024E-2   1.689308647021262E-1  
 7.057764441110277E9     5.171846885620804E-2   1.328371947654413E-1  -8.448258757227523E-1  -3.841730399149061E-1  -8.315377861883915E-1  -4.470584021262528E-1   1.108109460515995E-2   1.652685504418660E-1  
 7.058514628657165E9     5.096712366115676E-2   1.341925556604672E-1  -8.416783958506685E-1  -3.802756419391037E-1  -8.341218097653379E-1  -4.426338882852495E-1   1.306490065370966E-2   1.660877759641146E-1  
 7.059264816204051E9     5.325337513186412E-2   1.318597030297086E-1  -8.418341570231475E-1  -3.778588624906838E-1  -8.355763801823315E-1  -4.403753356247247E-1   7.097819537837992E-3   1.654626435816526E-1  
 7.060015003750938E9     5.253422514398771E-2   1.331689587451345E-1  -8.386336232460983E-1  -3.758188627347351E-1  -8.369483479106922E-1  -4.381418665459753E-1   6.644400013326202E-3   1.636541747421143E-1  
 7.060765191297825E9     5.172224002774804E-2   1.324208024283007E-1  -8.360908960628362E-1  -3.735152445545794E-1  -8.383877927484464E-1  -4.352897657985391E-1   8.161195170822089E-3   1.612589318346605E-1  
 7.061515378844711E9     5.152688682540135E-2   1.314667323651159E-1  -8.336102708852422E-1  -3.708024440386296E-1  -8.394718457535371E-1  -4.328044520322980E-1   3.372625576178543E-3   1.592540034856425E-1  
 7.062265566391598E9     5.222756724826620E-2   1.350706344940828E-1  -8.307517586058091E-1  -3.702375389394165E-1  -8.404403173686603E-1  -4.315776519956888E-1   2.140705642571207E-3   1.558154537342441E-1  
 7.063015753938484E9     5.086611587942393E-2   1.334562228410113E-1  -8.294689571173861E-1  -3.679757561276555E-1  -8.404579125713505E-1  -4.279650126940907E-1   1.409648700867372E-3   1.561905528539308E-1  
 7.063765941485372E9     5.028772376951204E-2   1.347382273768263E-1  -8.276772382238138E-1  -3.661805550182760E-1  -8.418399043550826E-1  -4.249451601361931E-1  -1.217676518378856E-3   1.536825726253226E-1  
 7.064516129032258E9     5.064343489041554E-2   1.348607313899502E-1  -8.249803277350662E-1  -3.644972285943329E-1  -8.415436363146208E-1  -4.225077033586205E-1  -3.596749352859450E-3   1.547217545732843E-1  
 7.065266316579145E9     4.858037716498972E-2   1.313547505117151E-1  -8.230391723413379E-1  -3.637058195600212E-1  -8.419197614426452E-1  -4.197434059495628E-1  -5.907337518649642E-3   1.512240393420477E-1  
 7.066016504126032E9     4.986743981958181E-2   1.346820891216507E-1  -8.204360010943000E-1  -3.634921308059098E-1  -8.422472590705810E-1  -4.185866525372863E-1  -7.896122965064365E-3   1.508518665729182E-1  
 7.066766691672918E9     5.047095646074042E-2   1.352496727967111E-1  -8.177499234128017E-1  -3.626477137138248E-1  -8.432804367355220E-1  -4.148375198638738E-1  -9.631960008465685E-3   1.469653858603696E-1  
 7.067516879219805E9     4.766644926165046E-2   1.329054210904004E-1  -8.163591334652007E-1  -3.615811390126050E-1  -8.425693015921323E-1  -4.139380777060689E-1  -1.024059342347551E-2   1.462966677345332E-1  
 7.068267066766691E9     4.834946477949248E-2   1.338439466710180E-1  -8.139073010805206E-1  -3.630981686709822E-1  -8.434345138982048E-1  -4.102516785243155E-1  -1.002351164636854E-2   1.427322558854771E-1  
 7.069017254313579E9     4.901408656708525E-2   1.336653123660114E-1  -8.123889169635761E-1  -3.629628435837627E-1  -8.432876762774560E-1  -4.090303130127788E-1  -9.614291767444931E-3   1.445627707787963E-1  
 7.069767441860465E9     4.723988889591769E-2   1.360604925607306E-1  -8.101319803323637E-1  -3.629866845573485E-1  -8.428134049824729E-1  -4.054306763142052E-1  -1.126310595937260E-2   1.425030028454722E-1  
