#  HZ   S   RI   R     50.0 
! Rohde & Schwarz ZVL13 2Ports - Version 3.31 - 1303.6509k13 SN: 101088
! Date: 2023-03-09 14:15:13
! Data & Calibration Information:
! Trc4:S11(TOSM) Trc2:S21(TOSM) Trc3:S12(TOSM) Trc5:S22(TOSM)
! 
! 
! 
 1.000000000000000E9    -9.926463663578033E-2   9.287206384624236E-2  -6.322622711668038E-1  -7.394042015075684E-1  -6.334448606939531E-1  -7.407230138778687E-1  -1.071268543601036E-1   9.639298249463925E-2  
 1.002250562640660E9    -1.003796234726906E-1   9.266877382720461E-2  -6.368712023302260E-1  -7.364794611930847E-1  -6.373520222369480E-1  -7.381937503814697E-1  -1.092229411005974E-1   9.655606988605689E-2  
 1.004501125281320E9    -1.015741899609566E-1   9.326376788099622E-2  -6.406114236257224E-1  -7.339110374450684E-1  -6.426775488540562E-1  -7.337206602096558E-1  -1.097910851240158E-1   9.639679103471543E-2  
 1.006751687921981E9    -1.032586097717285E-1   9.284561207179018E-2  -6.444965661942683E-1  -7.300281524658203E-1  -6.463037179282704E-1  -7.311746478080750E-1  -1.108264401555061E-1   9.674169059296864E-2  
 1.009002250562641E9    -1.049052104353905E-1   9.220587819994580E-2  -6.490596708332745E-1  -7.265855073928833E-1  -6.501864135683571E-1  -7.282466888427734E-1  -1.110060438513756E-1   9.718760822643310E-2  
 1.011252813203301E9    -1.050905138254166E-1   9.102644565128105E-2  -6.547903906212598E-1  -7.243658304214478E-1  -6.548479639444624E-1  -7.226818799972534E-1  -1.111282035708427E-1   9.775866096326781E-2  
 1.013503375843961E9    -1.044931411743164E-1   9.014455335224207E-2  -6.590043574455810E-1  -7.196947932243347E-1  -6.578813434826283E-1  -7.194946408271790E-1  -1.109928041696549E-1   9.751706488411635E-2  
 1.015753938484621E9    -1.037205830216408E-1   8.839953631627365E-2  -6.648259433763929E-1  -7.149507403373718E-1  -6.628093374700387E-1  -7.143085598945618E-1  -1.103259697556496E-1   9.889813157389200E-2  
 1.018004501125281E9    -1.022085398435593E-1   8.859269607487123E-2  -6.673677867480358E-1  -7.123798727989197E-1  -6.660565237858280E-1  -7.092884778976440E-1  -1.102462708950043E-1   9.811358819458653E-2  
 1.020255063765942E9    -1.005768403410912E-1   8.839238248311999E-2  -6.721094598208588E-1  -7.070865631103516E-1  -6.695221835105133E-1  -7.054700851440430E-1  -1.073249876499176E-1   9.920917244882309E-2  
 1.022505626406602E9    -9.839469939470291E-2   8.878367029306207E-2  -6.752173278935904E-1  -7.029924392700195E-1  -6.724192379881074E-1  -7.018280625343323E-1  -1.076813340187073E-1   1.002481554819994E-1  
 1.024756189047262E9    -9.708919376134872E-2   9.132830864835319E-2  -6.786442262166186E-1  -6.977584958076477E-1  -6.744363146167984E-1  -6.976633071899414E-1  -1.061591580510140E-1   1.007558514659472E-1  
 1.027006751687922E9    -9.516771137714386E-2   9.131051158589242E-2  -6.814695483454893E-1  -6.929895877838135E-1  -6.782758435913600E-1  -6.922692060470581E-1  -1.056877300143242E-1   1.024890295220709E-1  
 1.029257314328582E9    -9.358865767717362E-2   9.288198159280525E-2  -6.836696554347855E-1  -6.895295977592468E-1  -6.811916876184984E-1  -6.888768076896668E-1  -1.033359467983246E-1   1.040716907242188E-1  
 1.031507876969242E9    -9.032879769802094E-2   9.683687690695852E-2  -6.863143119017874E-1  -6.855320334434509E-1  -6.836355969626295E-1  -6.861011385917664E-1  -1.023098453879356E-1   1.055556396058069E-1  
 1.033758439609903E9    -8.905581384897232E-2   9.811494754378146E-2  -6.906522391893881E-1  -6.800269484519959E-1  -6.859397834159360E-1  -6.832333803176880E-1  -1.009652391076088E-1   1.090037653743175E-1  
 1.036009002250563E9    -8.781246095895767E-2   1.021116831473470E-1  -6.921412843604540E-1  -6.764521002769470E-1  -6.883244154018250E-1  -6.788585186004639E-1  -1.000931188464165E-1   1.104569885953078E-1  
 1.038259564891223E9    -8.605603873729706E-2   1.039640168498092E-1  -6.939178066947522E-1  -6.742240190505981E-1  -6.912564196970794E-1  -6.765395998954773E-1  -9.954828768968582E-2   1.119267280597907E-1  
 1.040510127531883E9    -8.605892956256867E-2   1.072180094943027E-1  -6.957904902944441E-1  -6.707360148429871E-1  -6.933581072685934E-1  -6.727488040924072E-1  -9.858068823814392E-2   1.133154886692749E-1  
 1.042760690172543E9    -8.651637285947800E-2   1.070710210128375E-1  -7.015036454493828E-1  -6.659924983978272E-1  -6.970081769316224E-1  -6.700541377067566E-1  -9.840449690818787E-2   1.143293519603014E-1  
 1.045011252813203E9    -8.565914630889893E-2   1.104334747934044E-1  -7.013031934830886E-1  -6.633879542350769E-1  -7.018666773620940E-1  -6.669644117355347E-1  -9.669358283281326E-2   1.152103729007569E-1  
 1.047261815453864E9    -8.650504052639008E-2   1.099034811174637E-1  -7.039534277156914E-1  -6.603747010231018E-1  -7.024223508040982E-1  -6.669354438781738E-1  -9.778974205255508E-2   1.150212688852034E-1  
 1.049512378094524E9    -8.854781091213226E-2   1.105354583622348E-1  -7.080468976287422E-1  -6.588020920753479E-1  -7.076503439732975E-1  -6.618497371673584E-1  -9.796700626611710E-2   1.155524107063874E-1  
 1.051762940735184E9    -9.109024703502655E-2   1.104273593239369E-1  -7.110563998264291E-1  -6.550841927528381E-1  -7.111232209437193E-1  -6.613196730613709E-1  -9.910383075475693E-2   1.140172453031108E-1  
 1.054013503375844E9    -9.238739311695099E-2   1.094589577528400E-1  -7.149495595248117E-1  -6.527296304702759E-1  -7.164419254844219E-1  -6.561111211776733E-1  -9.982205182313919E-2   1.154921804858863E-1  
 1.056264066016504E9    -9.476961195468903E-2   1.079640611706439E-1  -7.187347962582458E-1  -6.487013101577759E-1  -7.212841257364591E-1  -6.519913077354431E-1  -1.006698906421661E-1   1.155605922399945E-1  
 1.058514628657164E9    -9.662371873855591E-2   1.090568889902532E-1  -7.217418476702037E-1  -6.466037631034851E-1  -7.250476203265891E-1  -6.482552289962769E-1  -1.002328172326088E-1   1.156340969108098E-1  
 1.060765191297825E9    -9.762294590473175E-2   1.070687340246640E-1  -7.267806928001150E-1  -6.430535316467285E-1  -7.283805410828632E-1  -6.454440355300903E-1  -1.022403389215469E-1   1.160253868176055E-1  
 1.063015753938485E9    -9.865061938762665E-2   1.062835089259583E-1  -7.312507421837078E-1  -6.395454406738281E-1  -7.349734381575314E-1  -6.383289694786072E-1  -1.014384850859642E-1   1.168233435871975E-1  
 1.065266316579145E9    -9.883319586515427E-2   1.063338325473011E-1  -7.346909203084402E-1  -6.358305215835571E-1  -7.370967007097025E-1  -6.337333917617798E-1  -1.003878489136696E-1   1.177432917852157E-1  
 1.067516879219805E9    -9.856627881526947E-2   1.039905747498078E-1  -7.396618472910587E-1  -6.316540241241455E-1  -7.403058755983185E-1  -6.292262077331543E-1  -1.002040579915047E-1   1.176415563088826E-1  
 1.069767441860465E9    -9.895042330026627E-2   1.041417828618560E-1  -7.430367948808436E-1  -6.274165511131287E-1  -7.431047781290883E-1  -6.255714893341065E-1  -9.925865381956101E-2   1.188396455506702E-1  
 1.072018004501125E9    -9.774507582187653E-2   1.033545241921411E-1  -7.470292513257562E-1  -6.216988563537598E-1  -7.452588622707052E-1  -6.213544607162476E-1  -9.851651638746262E-2   1.193131292725560E-1  
 1.074268567141785E9    -9.530949592590332E-2   1.034078889926336E-1  -7.529694719259549E-1  -6.168007254600525E-1  -7.487842337428581E-1  -6.153585910797119E-1  -9.607248753309250E-2   1.201533224541533E-1  
 1.076519129782446E9    -9.412721544504166E-2   1.049815782999594E-1  -7.549554097702323E-1  -6.114421486854553E-1  -7.517135336968024E-1  -6.101833581924439E-1  -9.471988677978516E-2   1.216596532640003E-1  
 1.078769692423106E9    -9.060011059045792E-2   1.068862576950789E-1  -7.577409152997411E-1  -6.072969436645508E-1  -7.531482329134330E-1  -6.059713959693909E-1  -9.374112635850906E-2   1.224285578926944E-1  
 1.081020255063766E9    -8.944600075483322E-2   1.085801111018902E-1  -7.605219791253699E-1  -6.026577949523926E-1  -7.561118848545371E-1  -6.016011834144592E-1  -9.201870858669281E-2   1.240328133444691E-1  
 1.083270817704426E9    -8.758979290723801E-2   1.117583911849680E-1  -7.621049405976540E-1  -5.970686674118042E-1  -7.566987012869891E-1  -5.990698337554932E-1  -9.067138284444809E-2   1.252037938578794E-1  
 1.085521380345086E9    -8.524611592292786E-2   1.140351623241508E-1  -7.636773532713991E-1  -5.935470461845398E-1  -7.594834406943237E-1  -5.954719781875610E-1  -8.975692093372345E-2   1.266959389906610E-1  
 1.087771942985746E9    -8.294460177421570E-2   1.171943769383308E-1  -7.638738981314082E-1  -5.913344621658325E-1  -7.613010820722950E-1  -5.917639136314392E-1  -8.943794667720795E-2   1.281943965200776E-1  
 1.090022505626407E9    -8.097165077924728E-2   1.205863887314011E-1  -7.668180457401688E-1  -5.863292813301086E-1  -7.632062420611639E-1  -5.891088843345642E-1  -8.728417754173279E-2   1.296324447533365E-1  
 1.092273068267067E9    -7.890311628580093E-2   1.228033795187244E-1  -7.695366042926325E-1  -5.801760554313660E-1  -7.641256491436123E-1  -5.851726531982422E-1  -8.730172365903854E-2   1.307115240732635E-1  
 1.094523630907727E9    -7.971018552780151E-2   1.238188101935112E-1  -7.726909931278889E-1  -5.757185816764832E-1  -7.684109772551074E-1  -5.816315412521362E-1  -8.668015897274017E-2   1.318794019938059E-1  
 1.096774193548387E9    -7.877346873283386E-2   1.257676330183750E-1  -7.734523438146007E-1  -5.732845664024353E-1  -7.724027180969034E-1  -5.773314833641052E-1  -8.622238785028458E-2   1.325216891030083E-1  
 1.099024756189047E9    -7.929466664791107E-2   1.260365657597659E-1  -7.748936961017363E-1  -5.685716271400452E-1  -7.742249767413533E-1  -5.757693052291870E-1  -8.704367280006409E-2   1.325182518209460E-1  
 1.101275318829707E9    -7.975485175848007E-2   1.271630715000111E-1  -7.770068533618573E-1  -5.663359761238098E-1  -7.805852806232476E-1  -5.705925822257996E-1  -8.688705414533615E-2   1.322222045316671E-1  
 1.103525881470368E9    -8.087275922298431E-2   1.259562425492459E-1  -7.810600525900524E-1  -5.635310411453247E-1  -7.812923255006637E-1  -5.687836408615112E-1  -8.793600648641586E-2   1.316685746758470E-1  
 1.105776444111028E9    -8.166550844907761E-2   1.254146561382665E-1  -7.826164717097606E-1  -5.607815384864807E-1  -7.844306467971541E-1  -5.656314492225647E-1  -8.899579197168350E-2   1.313381557337094E-1  
 1.108027006751688E9    -8.320440351963043E-2   1.231784903251660E-1  -7.854397972820758E-1  -5.573134422302246E-1  -7.894425206850332E-1  -5.623693466186523E-1  -9.032154828310013E-2   1.311510077692272E-1  
 1.110277569392348E9    -8.377602696418762E-2   1.229099480574671E-1  -7.888153784069050E-1  -5.563154220581055E-1  -7.926277188096200E-1  -5.576663017272949E-1  -9.033880382776260E-2   1.312879751403348E-1  
 1.112528132033008E9    -8.421327173709869E-2   1.199138329149303E-1  -7.922521450584099E-1  -5.508887767791748E-1  -7.963541339155571E-1  -5.541029572486877E-1  -9.054280817508698E-2   1.304242699097780E-1  
 1.114778694673668E9    -8.462354540824890E-2   1.189428127641342E-1  -7.952320475685337E-1  -5.492401719093323E-1  -7.995063263774449E-1  -5.482306480407715E-1  -9.135168790817261E-2   1.297705953109800E-1  
 1.117029257314329E9    -8.332313597202301E-2   1.164580169601049E-1  -7.985358455448486E-1  -5.448272228240967E-1  -8.036857018505196E-1  -5.435534715652466E-1  -9.174100309610367E-2   1.305034907575952E-1  
 1.119279819954989E9    -8.358107507228851E-2   1.156160094960445E-1  -8.022244135697842E-1  -5.414945483207703E-1  -8.060512907416010E-1  -5.410373806953430E-1  -9.021499752998352E-2   1.296305056108153E-1  
 1.121530382595649E9    -8.160088211297989E-2   1.148880689226635E-1  -8.076579933805194E-1  -5.365287661552429E-1  -8.081299288789375E-1  -5.344563722610474E-1  -8.830601722002029E-2   1.301898903650981E-1  
 1.123780945236309E9    -7.993216067552567E-2   1.135432930276305E-1  -8.099257045398270E-1  -5.327112674713135E-1  -8.110661951884797E-1  -5.290307998657227E-1  -8.616480976343155E-2   1.292477794725596E-1  
 1.126031507876969E9    -7.865985482931137E-2   1.137719416153214E-1  -8.137456060733618E-1  -5.282475352287293E-1  -8.129489518483910E-1  -5.237923264503479E-1  -8.483313769102097E-2   1.309282085979014E-1  
 1.128282070517629E9    -7.631536573171616E-2   1.136236909797395E-1  -8.173504145011485E-1  -5.217617154121399E-1  -8.155049584286923E-1  -5.199398398399353E-1  -8.334488421678543E-2   1.303521965661255E-1  
 1.130532633158290E9    -7.365559041500092E-2   1.169264193924045E-1  -8.214934723739643E-1  -5.176930427551270E-1  -8.163936833107733E-1  -5.145476460456848E-1  -8.057607710361481E-2   1.312536565089510E-1  
 1.132783195798950E9    -7.206039875745773E-2   1.184565998250314E-1  -8.231652292723763E-1  -5.103247761726379E-1  -8.187615409817114E-1  -5.094161033630371E-1  -7.922396808862686E-2   1.320641276058082E-1  
 1.135033758439610E9    -6.944768875837326E-2   1.200965842972918E-1  -8.254935294313818E-1  -5.059586167335510E-1  -8.203733987431373E-1  -5.055752396583557E-1  -7.731942832469940E-2   1.336145986362253E-1  
 1.137284321080270E9    -6.750318408012390E-2   1.240285178084887E-1  -8.272180332825119E-1  -5.002884268760681E-1  -8.227746968397488E-1  -5.029519200325012E-1  -7.534336298704147E-2   1.348034792036345E-1  
 1.139534883720930E9    -6.550912559032440E-2   1.272285573269527E-1  -8.309605557639617E-1  -4.964922368526459E-1  -8.239579077649469E-1  -4.993415772914887E-1  -7.515763491392136E-2   1.368392205112305E-1  
 1.141785446361590E9    -6.411959975957871E-2   1.310727216623564E-1  -8.313207566823684E-1  -4.900566637516022E-1  -8.251709221662340E-1  -4.945903122425079E-1  -7.285448163747788E-2   1.384435605021670E-1  
 1.144036009002251E9    -6.409493833780289E-2   1.337539432696881E-1  -8.319324196446370E-1  -4.855276644229889E-1  -8.267165194601178E-1  -4.903341829776764E-1  -7.266806811094284E-2   1.403731295068311E-1  
 1.146286571642911E9    -6.225928664207459E-2   1.365133309207676E-1  -8.337367244050070E-1  -4.818651080131531E-1  -8.296225635987885E-1  -4.880143702030182E-1  -7.135042548179627E-2   1.418364820529482E-1  
 1.148537134283571E9    -6.386397033929825E-2   1.391903983811284E-1  -8.342186916463378E-1  -4.765193164348602E-1  -8.320462752837651E-1  -4.843423366546631E-1  -7.110118120908737E-2   1.428040028511823E-1  
 1.150787696924231E9    -6.330849230289459E-2   1.400352951616157E-1  -8.373594138965533E-1  -4.734216630458832E-1  -8.343849990423247E-1  -4.824952483177185E-1  -7.174588739871979E-2   1.434746368567300E-1  
 1.153038259564891E9    -6.392879784107208E-2   1.411508062875680E-1  -8.365301450791487E-1  -4.686518013477325E-1  -8.363582400151912E-1  -4.784011542797089E-1  -7.114630937576294E-2   1.443555148734458E-1  
 1.155288822205551E9    -6.496278941631317E-2   1.402334082336245E-1  -8.382017541062712E-1  -4.665485322475433E-1  -8.408425698230763E-1  -4.742908179759979E-1  -7.334321737289429E-2   1.446790040380904E-1  
 1.157539384846211E9    -6.741492450237274E-2   1.402394302023813E-1  -8.419066148329968E-1  -4.618655443191528E-1  -8.436021611762498E-1  -4.707869589328766E-1  -7.382938265800476E-2   1.437659984186436E-1  
 1.159789947486872E9    -6.902696937322617E-2   1.376533878063319E-1  -8.426177117161621E-1  -4.594492018222809E-1  -8.476873702040955E-1  -4.680067896842957E-1  -7.425066828727722E-2   1.433115162579522E-1  
 1.162040510127532E9    -6.963759660720825E-2   1.364523946956711E-1  -8.453915017294180E-1  -4.576503932476044E-1  -8.512684466298793E-1  -4.627531766891480E-1  -7.566583901643753E-2   1.424094840152788E-1  
 1.164291072768192E9    -7.078060507774353E-2   1.335121235473417E-1  -8.466334811273235E-1  -4.545469284057617E-1  -8.553368240738695E-1  -4.601941108703613E-1  -7.707804441452026E-2   1.425226536127349E-1  
 1.166541635408852E9    -7.096472382545471E-2   1.304887638102825E-1  -8.516264865308132E-1  -4.510653913021088E-1  -8.587521480506217E-1  -4.559345543384552E-1  -7.748556137084961E-2   1.407509826748138E-1  
 1.168792198049512E9    -7.148937135934830E-2   1.296031650720742E-1  -8.554235242670307E-1  -4.466640353202820E-1  -8.617373887528326E-1  -4.459145665168762E-1  -7.652837038040161E-2   1.406950941774982E-1  
 1.171042760690172E9    -7.092616707086563E-2   1.273501850730838E-1  -8.568928741154822E-1  -4.456244111061096E-1  -8.646524625931609E-1  -4.423231184482575E-1  -7.654578238725662E-2   1.415231125955145E-1  
 1.173293323330833E9    -6.935930997133255E-2   1.241879062565818E-1  -8.598686705612707E-1  -4.405897259712219E-1  -8.650052934978381E-1  -4.387324154376984E-1  -7.510092854499817E-2   1.403532193278632E-1  
 1.175543885971493E9    -6.718787550926209E-2   1.241133610948039E-1  -8.643624166216528E-1  -4.385907351970673E-1  -8.673705534516603E-1  -4.338650405406952E-1  -7.259830832481384E-2   1.409033854957441E-1  
 1.177794448612153E9    -6.491618603467941E-2   1.235498308226458E-1  -8.702304877157532E-1  -4.281807243824005E-1  -8.707246584762866E-1  -4.277587532997131E-1  -6.989701092243195E-2   1.398593535640513E-1  
 1.180045011252813E9    -6.215809658169746E-2   1.232102230494124E-1  -8.725462613909960E-1  -4.271729886531830E-1  -8.718006574482764E-1  -4.208281338214874E-1  -6.742402911186218E-2   1.399825208985973E-1  
 1.182295573893473E9    -6.034262478351593E-2   1.239147740818937E-1  -8.765080067081971E-1  -4.230040013790131E-1  -8.721830815706857E-1  -4.199687540531158E-1  -6.329528987407684E-2   1.410707793950204E-1  
 1.184546136534133E9    -5.652561411261559E-2   1.256664779148863E-1  -8.787178952216006E-1  -4.156726300716400E-1  -8.736518325344489E-1  -4.131681323051453E-1  -6.121450290083885E-2   1.407523717925714E-1  
 1.186796699174794E9    -5.580536276102066E-2   1.270637316713807E-1  -8.805784025134500E-1  -4.080616831779480E-1  -8.754109183220356E-1  -4.071977436542511E-1  -5.891228467226028E-2   1.408323856764331E-1  
 1.189047261815454E9    -5.255431681871414E-2   1.312499503724634E-1  -8.829036688841667E-1  -4.036684036254883E-1  -8.780260534350725E-1  -4.005967378616333E-1  -5.498512834310532E-2   1.415743989539557E-1  
 1.191297824456114E9    -5.031761154532433E-2   1.332215071406776E-1  -8.845698275072136E-1  -3.965919613838196E-1  -8.773673011983301E-1  -3.973916769027710E-1  -5.412525683641434E-2   1.428511518105619E-1  
 1.193548387096774E9    -4.991002008318901E-2   1.373333919901132E-1  -8.861224779726284E-1  -3.920939266681671E-1  -8.801290395018937E-1  -3.931467533111572E-1  -5.142931640148163E-2   1.462398899082929E-1  
 1.195798949737434E9    -4.871931672096252E-2   1.431349137170164E-1  -8.858951270521555E-1  -3.856309652328491E-1  -8.805293755534592E-1  -3.881281614303589E-1  -4.946338385343552E-2   1.481390541303178E-1  
 1.198049512378094E9    -4.717519506812096E-2   1.452840919519609E-1  -8.883720426002901E-1  -3.789387941360474E-1  -8.813423829240196E-1  -3.859013020992279E-1  -4.866736009716988E-2   1.489265513205166E-1  
 1.200300075018755E9    -4.720221087336540E-2   1.481928135556899E-1  -8.882994820902455E-1  -3.759007453918457E-1  -8.846401919021278E-1  -3.822816610336304E-1  -4.797413945198059E-2   1.513839334868338E-1  
 1.202550637659415E9    -4.783074930310249E-2   1.511194179159630E-1  -8.880135500915400E-1  -3.713358640670776E-1  -8.848645740769456E-1  -3.787457644939423E-1  -4.826360568404198E-2   1.531255489315526E-1  
 1.204801200300075E9    -4.829324036836624E-2   1.517447242265269E-1  -8.884632899051258E-1  -3.638996481895447E-1  -8.876391913385439E-1  -3.755452334880829E-1  -4.859092831611633E-2   1.571014941046818E-1  
 1.207051762940735E9    -4.802969843149185E-2   1.538610719101941E-1  -8.891791173756910E-1  -3.610779047012329E-1  -8.885067045902003E-1  -3.721260130405426E-1  -4.931321740150452E-2   1.587300267004893E-1  
 1.209302325581395E9    -5.048124492168427E-2   1.525431837011950E-1  -8.895633915858142E-1  -3.577460944652557E-1  -8.921148182857038E-1  -3.674980998039246E-1  -5.062387511134148E-2   1.601290184813682E-1  
