#  HZ   S   RI   R     50.0 
! Rohde & Schwarz ZVL13 2Ports - Version 3.31 - 1303.6509k13 SN: 101088
! Date: 2023-03-09 14:16:19
! Data & Calibration Information:
! Trc4:S11(TOSM) Trc2:S21(TOSM) Trc3:S12(TOSM) Trc5:S22(TOSM)
! 
! 
! 
 1.000000000000000E9    -9.931620210409164E-2   9.275405259242565E-2  -6.316133958875164E-1  -7.395316362380981E-1  -6.337708107887915E-1  -7.412441372871399E-1  -1.069261133670807E-1   9.634728981248004E-2  
 1.002250562640660E9    -9.996808320283890E-2   9.221909440641957E-2  -6.377636999109264E-1  -7.365103960037231E-1  -6.368972642965884E-1  -7.382043600082398E-1  -1.094128265976906E-1   9.722693402329971E-2  
 1.004501125281320E9    -1.015293002128601E-1   9.294428684218486E-2  -6.405541234714669E-1  -7.332151532173157E-1  -6.420058996396850E-1  -7.344985008239746E-1  -1.097681745886803E-1   9.586430406838081E-2  
 1.006751687921981E9    -1.030324697494507E-1   9.280803223104372E-2  -6.448063369548011E-1  -7.302429676055908E-1  -6.447437177314229E-1  -7.323535680770874E-1  -1.106876283884049E-1   9.664809413169345E-2  
 1.009002250562641E9    -1.052800565958023E-1   9.179164078612077E-2  -6.490137684458728E-1  -7.274681329727173E-1  -6.502217753498116E-1  -7.284567952156067E-1  -1.109678074717522E-1   9.729304459463459E-2  
 1.011252813203301E9    -1.051924675703049E-1   9.113086273852632E-2  -6.538052036507394E-1  -7.247813940048218E-1  -6.536019603153139E-1  -7.253150939941406E-1  -1.112255528569222E-1   9.720126537868265E-2  
 1.013503375843961E9    -1.049948334693909E-1   9.028703673248495E-2  -6.580289102311512E-1  -7.201122045516968E-1  -6.579427320731590E-1  -7.197711467742920E-1  -1.114235222339630E-1   9.734561322941293E-2  
 1.015753938484621E9    -1.042520701885223E-1   8.799823501874712E-2  -6.631117795415856E-1  -7.166566252708435E-1  -6.623139313457735E-1  -7.143530845642090E-1  -1.106756478548050E-1   9.873596764694521E-2  
 1.018004501125281E9    -1.025855243206024E-1   8.854673668647003E-2  -6.671132089175654E-1  -7.120707631111145E-1  -6.665291896392636E-1  -7.097333669662476E-1  -1.101082488894463E-1   9.794877727019706E-2  
 1.020255063765942E9    -1.007720306515694E-1   8.915098024858162E-2  -6.709270519972599E-1  -7.075102329254150E-1  -6.695811449089498E-1  -7.054231762886047E-1  -1.078184172511101E-1   9.894846374256863E-2  
 1.022505626406602E9    -9.879317134618759E-2   8.827785625780335E-2  -6.752728659277298E-1  -7.032800316810608E-1  -6.726311035086990E-1  -7.015846371650696E-1  -1.075488924980164E-1   9.975607887006295E-2  
 1.024756189047262E9    -9.719357639551163E-2   9.129564987680544E-2  -6.779345982405719E-1  -6.990739703178406E-1  -6.739847992189423E-1  -6.983523368835449E-1  -1.069212332367897E-1   1.008677049941826E-1  
 1.027006751687922E9    -9.540923684835434E-2   9.094324301306665E-2  -6.830059746649634E-1  -6.928905248641968E-1  -6.785428322423550E-1  -6.926730871200562E-1  -1.057408675551415E-1   1.021799003948160E-1  
 1.029257314328582E9    -9.356056898832321E-2   9.345015548754974E-2  -6.846139264875321E-1  -6.888555288314819E-1  -6.800169155826766E-1  -6.896474361419678E-1  -1.040505245327950E-1   1.038655639115981E-1  
 1.031507876969242E9    -9.078215062618256E-2   9.624329554065869E-2  -6.871700010774196E-1  -6.851807236671448E-1  -6.838999557116774E-1  -6.867105364799500E-1  -1.022950038313866E-1   1.051572983808880E-1  
 1.033758439609903E9    -8.956529945135117E-2   9.787280248281295E-2  -6.905242830960445E-1  -6.801771521568298E-1  -6.849605937790986E-1  -6.836481094360352E-1  -1.016897335648537E-1   1.087237094010615E-1  
 1.036009002250563E9    -8.821272104978561E-2   1.014513226315204E-1  -6.918636475201984E-1  -6.770288348197937E-1  -6.874546453072771E-1  -6.793747544288635E-1  -1.002202332019806E-1   1.102492796180193E-1  
 1.038259564891223E9    -8.616141974925995E-2   1.034065396212915E-1  -6.945121681027526E-1  -6.747698783874512E-1  -6.905114662611388E-1  -6.775962710380554E-1  -9.929028153419495E-2   1.116070886687498E-1  
 1.040510127531883E9    -8.531212806701660E-2   1.070590246498134E-1  -6.965592968001269E-1  -6.704315543174744E-1  -6.923269128979643E-1  -6.735129356384277E-1  -9.897848218679428E-2   1.127521862221096E-1  
 1.042760690172543E9    -8.573410660028458E-2   1.073481658226119E-1  -6.996064594011416E-1  -6.675021052360535E-1  -6.961531518418624E-1  -6.709264516830444E-1  -9.830825775861740E-2   1.131712724250135E-1  
 1.045011252813203E9    -8.481116592884064E-2   1.105383687562680E-1  -7.019955879064250E-1  -6.632241606712341E-1  -7.003755392475102E-1  -6.689312458038330E-1  -9.740777313709259E-2   1.152282378934088E-1  
 1.047261815453864E9    -8.688866347074509E-2   1.098883526600525E-1  -7.045951511385696E-1  -6.610107421875000E-1  -7.032901601722067E-1  -6.664439439773560E-1  -9.827550500631332E-2   1.152448330714403E-1  
 1.049512378094524E9    -8.793259412050247E-2   1.103083920768536E-1  -7.082841813157940E-1  -6.587591767311096E-1  -7.075028535105145E-1  -6.631717085838318E-1  -9.897391498088837E-2   1.158470153280503E-1  
 1.051762940735184E9    -9.137928485870361E-2   1.103764561853719E-1  -7.106695237417007E-1  -6.557602882385254E-1  -7.120981171994960E-1  -6.615124344825745E-1  -9.955271333456039E-2   1.135629584025032E-1  
 1.054013503375844E9    -9.198581427335739E-2   1.087819208170341E-1  -7.146311701679740E-1  -6.532353162765503E-1  -7.158591088143929E-1  -6.571179032325745E-1  -9.987610578536987E-2   1.150149183431621E-1  
 1.056264066016504E9    -9.474859386682510E-2   1.084213682373076E-1  -7.187576631203230E-1  -6.491674780845642E-1  -7.219154005718632E-1  -6.525913476943970E-1  -1.007282584905624E-1   1.152942212806345E-1  
 1.058514628657164E9    -9.720148146152496E-2   1.087810053623765E-1  -7.219153862647179E-1  -6.473066210746765E-1  -7.251753438924466E-1  -6.490736007690430E-1  -1.003427430987358E-1   1.154950952198166E-1  
 1.060765191297825E9    -9.744773805141449E-2   1.068727618190719E-1  -7.269947347768129E-1  -6.430933475494385E-1  -7.286775454152856E-1  -6.458436846733093E-1  -1.017990410327911E-1   1.155160883543431E-1  
 1.063015753938485E9    -9.828993678092957E-2   1.060282980361367E-1  -7.316096147292776E-1  -6.390865445137024E-1  -7.343276376555091E-1  -6.397775411605835E-1  -1.013446673750877E-1   1.168079617476533E-1  
 1.065266316579145E9    -9.916851669549942E-2   1.055606053773861E-1  -7.352603391281231E-1  -6.362865567207336E-1  -7.363221998933638E-1  -6.353747844696045E-1  -1.007328927516937E-1   1.179850214280986E-1  
 1.067516879219805E9    -9.852411597967148E-2   1.035845045997255E-1  -7.395974349199449E-1  -6.332915425300598E-1  -7.406436608747193E-1  -6.304714083671570E-1  -1.003263816237450E-1   1.175553956424771E-1  
 1.069767441860465E9    -9.944621473550797E-2   1.034390361617546E-1  -7.439791577510029E-1  -6.274348497390747E-1  -7.436453823213807E-1  -6.260270476341248E-1  -9.988210350275040E-2   1.183857217613840E-1  
 1.072018004501125E9    -9.839390218257904E-2   1.033031827202235E-1  -7.465053594905065E-1  -6.212400794029236E-1  -7.450106717366345E-1  -6.225006580352783E-1  -9.902080893516541E-2   1.191400393574884E-1  
 1.074268567141785E9    -9.578302502632141E-2   1.033343682836590E-1  -7.517468236210132E-1  -6.186664700508118E-1  -7.491504889028344E-1  -6.153050065040588E-1  -9.642443805932999E-2   1.200121585146123E-1  
 1.076519129782446E9    -9.434287995100021E-2   1.046090801655963E-1  -7.546272794752204E-1  -6.117665171623230E-1  -7.510789897020904E-1  -6.118664741516113E-1  -9.593024104833603E-2   1.218652824750597E-1  
 1.078769692423106E9    -9.117719531059265E-2   1.061487353609287E-1  -7.568683340837487E-1  -6.085291504859924E-1  -7.534580940085135E-1  -6.069471240043640E-1  -9.363996237516403E-2   1.230262175015598E-1  
 1.081020255063766E9    -8.988386392593384E-2   1.083572455263782E-1  -7.611799950687612E-1  -6.031011939048767E-1  -7.567331422694609E-1  -6.012251377105713E-1  -9.218834340572357E-2   1.233897975981009E-1  
 1.083270817704426E9    -8.747515827417374E-2   1.114732893474353E-1  -7.616873806098748E-1  -5.979839563369751E-1  -7.568818646465515E-1  -5.988885164260864E-1  -9.066677093505859E-2   1.250546628641910E-1  
 1.085521380345086E9    -8.539252728223801E-2   1.137460530272608E-1  -7.628726495113827E-1  -5.933418273925781E-1  -7.599720280352073E-1  -5.952408313751221E-1  -8.963233977556229E-2   1.269250429742432E-1  
 1.087771942985746E9    -8.341135084629059E-2   1.171749124126003E-1  -7.647554357131199E-1  -5.911826491355896E-1  -7.614774213406806E-1  -5.922346115112305E-1  -8.990723639726639E-2   1.278870801396456E-1  
 1.090022505626407E9    -8.089808374643326E-2   1.209741028064531E-1  -7.674690731281005E-1  -5.862582325935364E-1  -7.634943976141484E-1  -5.898342728614807E-1  -8.754196017980576E-2   1.301019092722200E-1  
 1.092273068267067E9    -7.960841804742813E-2   1.226913846148263E-1  -7.698784056896173E-1  -5.808693170547485E-1  -7.649718613548764E-1  -5.849238038063049E-1  -8.703017234802246E-2   1.311053246273452E-1  
 1.094523630907727E9    -7.989215850830078E-2   1.231744701524613E-1  -7.716050666304768E-1  -5.762292146682739E-1  -7.684554928310715E-1  -5.821978449821472E-1  -8.646728098392487E-2   1.318843765879412E-1  
 1.096774193548387E9    -7.859395444393158E-2   1.257407681373267E-1  -7.736174288580445E-1  -5.738060474395752E-1  -7.721299947441409E-1  -5.786108970642090E-1  -8.636553585529327E-2   1.318593582660995E-1  
 1.099024756189047E9    -7.951930165290833E-2   1.263517824988521E-1  -7.757309707719640E-1  -5.690289735794067E-1  -7.745291711464214E-1  -5.753723382949829E-1  -8.722002804279327E-2   1.332164313276152E-1  
 1.101275318829707E9    -8.021713048219681E-2   1.268700242299285E-1  -7.776508814657969E-1  -5.670250654220581E-1  -7.796045337054076E-1  -5.717600584030151E-1  -8.679560571908951E-2   1.318629153141450E-1  
 1.103525881470368E9    -8.084305375814438E-2   1.263741479936356E-1  -7.812906354901015E-1  -5.633556246757507E-1  -7.814104954421024E-1  -5.684447884559631E-1  -8.795284479856491E-2   1.323716852058947E-1  
 1.105776444111028E9    -8.206341415643692E-2   1.252413779190777E-1  -7.828571444739380E-1  -5.619134306907654E-1  -7.845969974422973E-1  -5.667512416839600E-1  -8.964055776596069E-2   1.308686413897768E-1  
 1.108027006751688E9    -8.214308321475983E-2   1.239004251561017E-1  -7.856709858304174E-1  -5.569876432418823E-1  -7.880343228585517E-1  -5.630472302436829E-1  -9.033659845590591E-2   1.308008847946981E-1  
 1.110277569392348E9    -8.432920277118683E-2   1.223345915493156E-1  -7.891875487121062E-1  -5.565881133079529E-1  -7.919823044208685E-1  -5.591425299644470E-1  -9.126675128936768E-2   1.302485593498246E-1  
 1.112528132033008E9    -8.364916592836380E-2   1.198876566318771E-1  -7.913647661715293E-1  -5.519248843193054E-1  -7.963709125368519E-1  -5.542696714401245E-1  -9.090898185968399E-2   1.308439898160196E-1  
 1.114778694673668E9    -8.476568013429642E-2   1.188553115821370E-1  -7.958967638514709E-1  -5.493955016136169E-1  -7.997280454881717E-1  -5.483738780021668E-1  -9.104239195585251E-2   1.289935070832048E-1  
 1.117029257314329E9    -8.322052657604218E-2   1.165838703904815E-1  -7.988316514269008E-1  -5.457046031951904E-1  -8.032986720183302E-1  -5.451050400733948E-1  -9.212573617696762E-2   1.295264976306330E-1  
 1.119279819954989E9    -8.351329714059830E-2   1.151060773651793E-1  -8.029430302236909E-1  -5.427755117416382E-1  -8.069829101455858E-1  -5.403676629066467E-1  -9.020541608333588E-2   1.296322774637988E-1  
 1.121530382595649E9    -8.170487731695175E-2   1.146532690089703E-1  -8.075299446207622E-1  -5.367191433906555E-1  -8.083362966782671E-1  -5.343243479728699E-1  -8.863185346126556E-2   1.299056247806488E-1  
 1.123780945236309E9    -7.981673628091812E-2   1.135055767718080E-1  -8.102129565262846E-1  -5.333842039108276E-1  -8.110190434241718E-1  -5.299008488655090E-1  -8.654953539371491E-2   1.291612314789133E-1  
 1.126031507876969E9    -7.869715988636017E-2   1.132859860889757E-1  -8.136251255148539E-1  -5.280060768127441E-1  -8.130414035665714E-1  -5.242155194282532E-1  -8.529527485370636E-2   1.309748370050900E-1  
 1.128282070517629E9    -7.631815224885941E-2   1.135055868529874E-1  -8.178776398226044E-1  -5.230075120925903E-1  -8.156110199660214E-1  -5.191270709037781E-1  -8.307962864637375E-2   1.297544859278597E-1  
 1.130532633158290E9    -7.430419325828552E-2   1.160897235700903E-1  -8.205153550758454E-1  -5.181049108505249E-1  -8.163281154138763E-1  -5.154069066047669E-1  -8.092723786830902E-2   1.311661019023155E-1  
 1.132783195798950E9    -7.223723083734512E-2   1.183876935200656E-1  -8.235202562379859E-1  -5.111800432205200E-1  -8.187610694973708E-1  -5.098889470100403E-1  -7.973859459161758E-2   1.319760029845775E-1  
 1.135033758439610E9    -6.948745995759964E-2   1.200705566201371E-1  -8.258666793170996E-1  -5.065440535545349E-1  -8.201343625473525E-1  -5.060387253761292E-1  -7.730208337306976E-2   1.327394126110045E-1  
 1.137284321080270E9    -6.792433559894562E-2   1.249875527848598E-1  -8.277099280409798E-1  -5.020086169242859E-1  -8.223243314337274E-1  -5.023473501205444E-1  -7.622588425874710E-2   1.346232567713769E-1  
 1.139534883720930E9    -6.570902466773987E-2   1.269954024500220E-1  -8.304581535164045E-1  -4.967910051345825E-1  -8.237557705458327E-1  -4.985562860965729E-1  -7.481931895017624E-2   1.365010038238313E-1  
 1.141785446361590E9    -6.476992368698120E-2   1.311725501349180E-1  -8.311678761195362E-1  -4.913750290870667E-1  -8.244441459298704E-1  -4.947665333747864E-1  -7.326552271842957E-2   1.380128168476883E-1  
 1.144036009002251E9    -6.414072960615158E-2   1.334250968629185E-1  -8.321514619923168E-1  -4.865099787712097E-1  -8.264185521122177E-1  -4.909653961658478E-1  -7.315371930599213E-2   1.407737015317038E-1  
 1.146286571642911E9    -6.299073994159699E-2   1.368619718213980E-1  -8.340295744391431E-1  -4.812839031219482E-1  -8.297667010891372E-1  -4.876222908496857E-1  -7.167021930217743E-2   1.411428267438199E-1  
 1.148537134283571E9    -6.399488449096680E-2   1.397075170424597E-1  -8.348435507386369E-1  -4.771094918251038E-1  -8.317660170703893E-1  -4.845065772533417E-1  -7.131406664848328E-2   1.430075631235608E-1  
 1.150787696924231E9    -6.319393962621689E-2   1.397100277297435E-1  -8.372664027744505E-1  -4.736571311950684E-1  -8.344707704488318E-1  -4.831596314907074E-1  -7.190564274787903E-2   1.439767963096401E-1  
 1.153038259564891E9    -6.493461877107620E-2   1.408372703288136E-1  -8.362776858937192E-1  -4.700240492820740E-1  -8.357566598353389E-1  -4.785616993904114E-1  -7.105539739131928E-2   1.439157445899418E-1  
 1.155288822205551E9    -6.520415842533112E-2   1.392349537418414E-1  -8.384910270042656E-1  -4.665973484516144E-1  -8.396943733186957E-1  -4.757819175720215E-1  -7.375658303499222E-2   1.440420435506685E-1  
 1.157539384846211E9    -6.785974651575089E-2   1.398335475977382E-1  -8.416185291537703E-1  -4.637573659420013E-1  -8.437883154178035E-1  -4.719865322113037E-1  -7.471949607133865E-2   1.435681411024204E-1  
 1.159789947486872E9    -6.896407157182694E-2   1.377563544295929E-1  -8.417826329318086E-1  -4.596649706363678E-1  -8.475320290816413E-1  -4.673904776573181E-1  -7.401587814092636E-2   1.437895801219383E-1  
 1.162040510127532E9    -6.996098160743713E-2   1.356138665946807E-1  -8.448976021456361E-1  -4.574694335460663E-1  -8.507264061465791E-1  -4.631749689579010E-1  -7.575514167547226E-2   1.425207574905915E-1  
 1.164291072768192E9    -7.106214016675949E-2   1.332570336682441E-1  -8.473830717814184E-1  -4.555824995040894E-1  -8.550581102594317E-1  -4.602791965007782E-1  -7.748328149318695E-2   1.421199061685314E-1  
 1.166541635408852E9    -7.171904295682907E-2   1.302972302348343E-1  -8.514982568868261E-1  -4.513891935348511E-1  -8.575083599664236E-1  -4.562623202800751E-1  -7.729457318782806E-2   1.403505590773048E-1  
 1.168792198049512E9    -7.231820374727249E-2   1.290491883326188E-1  -8.543371388304109E-1  -4.484655857086182E-1  -8.607468287135792E-1  -4.487102925777435E-1  -7.744494825601578E-2   1.402872235966811E-1  
 1.171042760690172E9    -7.183235138654709E-2   1.271953286854856E-1  -8.583863886595815E-1  -4.445312917232513E-1  -8.642399950839329E-1  -4.444068968296051E-1  -7.704715430736542E-2   1.413685957296599E-1  
 1.173293323330833E9    -6.968259066343308E-2   1.247154335373380E-1  -8.606932351297288E-1  -4.413858950138092E-1  -8.656099014864561E-1  -4.388893544673920E-1  -7.504761219024658E-2   1.400183950430630E-1  
 1.175543885971493E9    -6.732176244258881E-2   1.233891901505670E-1  -8.647248729738273E-1  -4.390783309936523E-1  -8.681524437351847E-1  -4.350505769252777E-1  -7.243905961513519E-2   1.400273230465133E-1  
 1.177794448612153E9    -6.537961214780808E-2   1.232696762675364E-1  -8.689247200042026E-1  -4.318651556968689E-1  -8.706550933173066E-1  -4.277198910713196E-1  -7.047050446271896E-2   1.400531984010459E-1  
 1.180045011252813E9    -6.282106041908264E-2   1.232234804253891E-1  -8.723304028572096E-1  -4.269122481346130E-1  -8.716924798853238E-1  -4.229427576065064E-1  -6.824561953544617E-2   1.399423252685168E-1  
 1.182295573893473E9    -6.084531173110008E-2   1.228993571487787E-1  -8.765879893117635E-1  -4.225634336471558E-1  -8.736559523350184E-1  -4.176753163337708E-1  -6.347000598907471E-2   1.398798949059339E-1  
 1.184546136534133E9    -5.734645947813988E-2   1.253375633669129E-1  -8.799435002399431E-1  -4.144645929336548E-1  -8.740440169698079E-1  -4.132480025291443E-1  -6.138551607728005E-2   1.404628348305247E-1  
 1.186796699174794E9    -5.544839426875114E-2   1.268998776463268E-1  -8.817733620915558E-1  -4.076228737831116E-1  -8.770229207321204E-1  -4.051857590675354E-1  -5.901403725147247E-2   1.403388262922124E-1  
 1.189047261815454E9    -5.317850783467293E-2   1.314703836569429E-1  -8.832581138222725E-1  -4.037564396858215E-1  -8.759581448250653E-1  -4.037565290927887E-1  -5.547060444951057E-2   1.419319529989496E-1  
 1.191297824456114E9    -5.065984651446343E-2   1.335358188608296E-1  -8.843621130727603E-1  -3.963083326816559E-1  -8.765815558368189E-1  -4.002193510532379E-1  -5.392260104417801E-2   1.436101805343573E-1  
 1.193548387096774E9    -5.085982382297516E-2   1.377366639098642E-1  -8.859914845169337E-1  -3.915940821170807E-1  -8.792203843692240E-1  -3.948001265525818E-1  -5.181824043393135E-2   1.455730293295698E-1  
 1.195798949737434E9    -4.904285445809364E-2   1.417951694372958E-1  -8.865949121917163E-1  -3.837780952453613E-1  -8.809331511765657E-1  -3.891400694847107E-1  -5.039289221167564E-2   1.478027811782348E-1  
 1.198049512378094E9    -4.684672504663467E-2   1.461275130122335E-1  -8.867512217852008E-1  -3.824565112590790E-1  -8.819327790239172E-1  -3.893604576587677E-1  -4.865388944745064E-2   1.492405375721720E-1  
 1.200300075018755E9    -4.700806736946106E-2   1.481385009386443E-1  -8.878085570370417E-1  -3.772057592868805E-1  -8.831938267754511E-1  -3.844935297966003E-1  -4.775752499699593E-2   1.507779149805112E-1  
 1.202550637659415E9    -4.844795912504196E-2   1.500679733409218E-1  -8.886349817820719E-1  -3.717155456542969E-1  -8.855690964727203E-1  -3.792221546173096E-1  -4.878308251500130E-2   1.531667099921552E-1  
 1.204801200300075E9    -4.873536527156830E-2   1.517090708365813E-1  -8.883327903928652E-1  -3.645482361316681E-1  -8.873832121771857E-1  -3.770464062690735E-1  -4.916691035032272E-2   1.571647174615431E-1  
 1.207051762940735E9    -4.809717833995819E-2   1.539254290421604E-1  -8.891915938041155E-1  -3.635350763797760E-1  -8.892621783468440E-1  -3.706277608871460E-1  -4.893080517649651E-2   1.581239015737479E-1  
 1.209302325581395E9    -5.118471756577492E-2   1.519818229227131E-1  -8.899871853186043E-1  -3.581010997295380E-1  -8.924229423852155E-1  -3.690384328365326E-1  -5.051185563206673E-2   1.597676530501295E-1  
