#  HZ   S   RI   R     50.0 
! Rohde & Schwarz ZVL13 2Ports - Version 3.31 - 1303.6509k13 SN: 101088
! Date: 2023-03-09 14:09:02
! Data & Calibration Information:
! Trc4:S11(TOSM) Trc2:S21(TOSM) Trc3:S12(TOSM) Trc5:S22(TOSM)
! 
! 
! 
 1.000000000000000E9    -9.804437309503555E-2   9.339059364421243E-2  -6.313765756847746E-1  -7.367118597030640E-1  -6.324674169145431E-1  -7.386320829391480E-1  -1.064859107136726E-1   9.610307275129347E-2  
 1.002250562640660E9    -9.919774532318115E-2   9.284998281578429E-2  -6.366982064303787E-1  -7.345818281173706E-1  -6.350550816446434E-1  -7.374541163444519E-1  -1.088826283812523E-1   9.678266066299603E-2  
 1.004501125281320E9    -1.001076623797417E-1   9.363993119261178E-2  -6.410477077512948E-1  -7.305935025215149E-1  -6.407401339700182E-1  -7.329838871955872E-1  -1.091231852769852E-1   9.611266908153959E-2  
 1.006751687921981E9    -1.022639274597168E-1   9.347652190562435E-2  -6.420334375599990E-1  -7.289741039276123E-1  -6.435831066375161E-1  -7.307671904563904E-1  -1.102075353264809E-1   9.646462503051229E-2  
 1.009002250562641E9    -1.036195531487465E-1   9.241473908909950E-2  -6.476875234973000E-1  -7.255697250366211E-1  -6.482494691438153E-1  -7.273683547973633E-1  -1.104089543223381E-1   9.716854142643835E-2  
 1.011252813203301E9    -1.037359610199928E-1   9.170167067706661E-2  -6.535964002304655E-1  -7.225921750068665E-1  -6.534328617856664E-1  -7.221069931983948E-1  -1.103306710720062E-1   9.771307688513070E-2  
 1.013503375843961E9    -1.031176373362541E-1   9.058484834730063E-2  -6.573640164498975E-1  -7.182573676109314E-1  -6.575305867261735E-1  -7.174139022827148E-1  -1.101605370640755E-1   9.793089178558419E-2  
 1.015753938484621E9    -1.023696288466454E-1   8.974674674658383E-2  -6.625626588736150E-1  -7.136543989181519E-1  -6.600579082430800E-1  -7.126697301864624E-1  -1.098405867815018E-1   9.927707574072379E-2  
 1.018004501125281E9    -1.005229055881500E-1   8.994475544035613E-2  -6.666158770869196E-1  -7.105402350425720E-1  -6.653764641896482E-1  -7.078569531440735E-1  -1.089954003691673E-1   9.848738288110903E-2  
 1.020255063765942E9    -9.950299561023712E-2   9.009966894368729E-2  -6.698472390121483E-1  -7.065412998199463E-1  -6.676436014032247E-1  -7.049301266670227E-1  -1.066754311323166E-1   9.971395524614822E-2  
 1.022505626406602E9    -9.743479639291763E-2   8.977861575698942E-2  -6.739497328976701E-1  -7.020022869110107E-1  -6.707786651193518E-1  -7.004789113998413E-1  -1.074434295296669E-1   1.001169962864273E-1  
 1.024756189047262E9    -9.570964425802231E-2   9.282054073181462E-2  -6.760370588758895E-1  -6.965993642807007E-1  -6.739216221242435E-1  -6.963952183723450E-1  -1.058535650372505E-1   1.011790871799864E-1  
 1.027006751687922E9    -9.431859105825424E-2   9.224138921428071E-2  -6.814011139167843E-1  -6.912823319435120E-1  -6.766610053199264E-1  -6.915051937103272E-1  -1.059990525245667E-1   1.021288857036091E-1  
 1.029257314328582E9    -9.221963584423065E-2   9.415755272459986E-2  -6.832938819807249E-1  -6.877507567405701E-1  -6.790494702015311E-1  -6.881963610649109E-1  -1.040988638997078E-1   1.040670637078616E-1  
 1.031507876969242E9    -8.997055143117905E-2   9.738983659411937E-2  -6.850873763318581E-1  -6.847823858261108E-1  -6.828776516482937E-1  -6.844327449798584E-1  -1.016738191246986E-1   1.053782893968417E-1  
 1.033758439609903E9    -8.874442428350449E-2   9.875105687196853E-2  -6.878435254681226E-1  -6.806145906448364E-1  -6.856967911217503E-1  -6.799274086952210E-1  -1.009035855531693E-1   1.083435424273491E-1  
 1.036009002250563E9    -8.739547431468964E-2   1.023630710159669E-1  -6.921942058126095E-1  -6.743342876434326E-1  -6.858870392615043E-1  -6.778671741485596E-1  -1.006245613098145E-1   1.107802613441278E-1  
 1.038259564891223E9    -8.574029058218002E-2   1.042797450736825E-1  -6.934034804166206E-1  -6.733147501945496E-1  -6.881643584019590E-1  -6.767528653144836E-1  -9.938271343708038E-2   1.112865016701383E-1  
 1.040510127531883E9    -8.490560948848724E-2   1.074112467219122E-1  -6.941548410111834E-1  -6.694652438163757E-1  -6.911916501113918E-1  -6.726095080375671E-1  -9.892685711383820E-2   1.125618822276128E-1  
 1.042760690172543E9    -8.492645621299744E-2   1.071067904544341E-1  -6.974776307749977E-1  -6.672464013099670E-1  -6.956933486027770E-1  -6.690657734870911E-1  -9.779398143291473E-2   1.130215213421136E-1  
 1.045011252813203E9    -8.468275517225266E-2   1.103543259692940E-1  -7.003185634443597E-1  -6.623535156250000E-1  -6.994019260748431E-1  -6.661811470985413E-1  -9.693236649036408E-2   1.147878720599077E-1  
 1.047261815453864E9    -8.636000007390976E-2   1.101931772903430E-1  -7.025416724109940E-1  -6.580361723899841E-1  -7.021919300961635E-1  -6.643847227096558E-1  -9.777811914682388E-2   1.153284861195163E-1  
 1.049512378094524E9    -8.770817518234253E-2   1.107995962919638E-1  -7.066051183342400E-1  -6.570073962211609E-1  -7.064043239893304E-1  -6.605817675590515E-1  -9.799925237894058E-2   1.161271893441540E-1  
 1.051762940735184E9    -9.036705642938614E-2   1.104582148557399E-1  -7.098035257481692E-1  -6.535119414329529E-1  -7.099546683328692E-1  -6.594528555870056E-1  -9.866025298833847E-2   1.145069267056965E-1  
 1.054013503375844E9    -9.138635545969009E-2   1.094369688447551E-1  -7.132464070377759E-1  -6.518364548683167E-1  -7.146763885855676E-1  -6.546273827552795E-1  -9.924320131540299E-2   1.158121538121133E-1  
 1.056264066016504E9    -9.381158649921417E-2   1.093301673729323E-1  -7.181179117320720E-1  -6.469436883926392E-1  -7.201037182334091E-1  -6.504245996475220E-1  -9.984605759382248E-2   1.161729251338632E-1  
 1.058514628657164E9    -9.607011079788208E-2   1.094116523570226E-1  -7.202199564147607E-1  -6.461275219917297E-1  -7.235297105863893E-1  -6.476544737815857E-1  -9.967548400163651E-2   1.161413813298797E-1  
 1.060765191297825E9    -9.689852595329285E-2   1.077953384784870E-1  -7.247972885512748E-1  -6.420137882232666E-1  -7.262020438637070E-1  -6.453081965446472E-1  -1.009770482778549E-1   1.167038479410318E-1  
 1.063015753938485E9    -9.697011113166809E-2   1.074230624539653E-1  -7.298866135528181E-1  -6.382152438163757E-1  -7.326840321363123E-1  -6.374694108963013E-1  -1.004239469766617E-1   1.176155944435009E-1  
 1.065266316579145E9    -9.779023379087448E-2   1.067332311287829E-1  -7.339930004566527E-1  -6.355666518211365E-1  -7.358318864400660E-1  -6.333193182945252E-1  -9.937130659818649E-2   1.189688627350503E-1  
 1.067516879219805E9    -9.762169420719147E-2   1.050154874385959E-1  -7.380978584892676E-1  -6.310291290283203E-1  -7.380009263929509E-1  -6.286812424659729E-1  -9.885217994451523E-2   1.184024057592380E-1  
 1.069767441860465E9    -9.712652862071991E-2   1.048172903080289E-1  -7.421536189419815E-1  -6.270090937614441E-1  -7.423693071515372E-1  -6.246625781059265E-1  -9.832718223333359E-2   1.195395668262442E-1  
 1.072018004501125E9    -9.650076925754547E-2   1.043163525183577E-1  -7.454035083950662E-1  -6.205094456672669E-1  -7.437396067117267E-1  -6.195932030677795E-1  -9.727945923805237E-2   1.198004095570730E-1  
 1.074268567141785E9    -9.439004957675934E-2   1.050324408866805E-1  -7.505268823949819E-1  -6.154742836952210E-1  -7.467189228975276E-1  -6.154461503028870E-1  -9.565677493810654E-2   1.208320823913449E-1  
 1.076519129782446E9    -9.295549243688583E-2   1.060706926722046E-1  -7.532525465078640E-1  -6.111531257629395E-1  -7.494654975692947E-1  -6.109304428100586E-1  -9.446395933628082E-2   1.230517393457470E-1  
 1.078769692423106E9    -8.965719491243362E-2   1.081993212852105E-1  -7.560989643640791E-1  -6.076607108116150E-1  -7.514257115359863E-1  -6.055740118026733E-1  -9.285953640937805E-2   1.235470726360468E-1  
 1.081020255063766E9    -8.858023583889008E-2   1.093546205880759E-1  -7.592892136978836E-1  -6.012228727340698E-1  -7.545926203230042E-1  -6.005766987800598E-1  -9.229665994644165E-2   1.239834938885877E-1  
 1.083270817704426E9    -8.660753816366196E-2   1.123178403324057E-1  -7.607128904079239E-1  -5.964244008064270E-1  -7.548134672544415E-1  -5.976946949958801E-1  -9.100458025932312E-2   1.256370929480254E-1  
 1.085521380345086E9    -8.419445902109146E-2   1.148345384868269E-1  -7.620257353418460E-1  -5.924481749534607E-1  -7.584110314011257E-1  -5.946835875511169E-1  -9.021291881799698E-2   1.269542838658992E-1  
 1.087771942985746E9    -8.269247412681580E-2   1.183650529320269E-1  -7.630751500881967E-1  -5.903908610343933E-1  -7.598850556774578E-1  -5.894678831100464E-1  -8.933040499687195E-2   1.280384232446286E-1  
 1.090022505626407E9    -7.940694689750671E-2   1.212099388423469E-1  -7.655738111923326E-1  -5.843181014060974E-1  -7.614469063996908E-1  -5.895637273788452E-1  -8.858942240476608E-2   1.303771937119420E-1  
 1.092273068267067E9    -7.849989831447601E-2   1.226070173712633E-1  -7.672929570942139E-1  -5.787049531936646E-1  -7.630766817878066E-1  -5.843811035156250E-1  -8.763653039932251E-2   1.308888531079151E-1  
 1.094523630907727E9    -7.898977398872376E-2   1.230175003451868E-1  -7.697737890376515E-1  -5.751550793647766E-1  -7.669979871990150E-1  -5.809041857719421E-1  -8.673318475484848E-2   1.316481757935395E-1  
 1.096774193548387E9    -7.774080336093903E-2   1.259788307649485E-1  -7.717637640198082E-1  -5.717024803161621E-1  -7.702840068231525E-1  -5.773736834526062E-1  -8.650650829076767E-2   1.321279993200154E-1  
 1.099024756189047E9    -7.842689007520676E-2   1.269390510832634E-1  -7.741042595817474E-1  -5.681891441345215E-1  -7.724340078067493E-1  -5.750570297241211E-1  -8.801551163196564E-2   1.321937439133137E-1  
 1.101275318829707E9    -7.844537496566773E-2   1.276632338376849E-1  -7.759931382954738E-1  -5.654162168502808E-1  -7.782539718731802E-1  -5.687853693962097E-1  -8.685353398323059E-2   1.321895170063438E-1  
 1.103525881470368E9    -7.955844700336456E-2   1.269136572139146E-1  -7.793391150184335E-1  -5.629228353500366E-1  -7.796377895052221E-1  -5.676993131637573E-1  -8.811042457818985E-2   1.321759303583137E-1  
 1.105776444111028E9    -8.065877109766007E-2   1.252521552373234E-1  -7.807598050205900E-1  -5.612889528274536E-1  -7.830326508653693E-1  -5.648213028907776E-1  -8.910507708787918E-2   1.306429090390284E-1  
 1.108027006751688E9    -8.096329122781754E-2   1.230259724639262E-1  -7.832268127284732E-1  -5.562224388122559E-1  -7.860508988584880E-1  -5.623779892921448E-1  -8.941627293825150E-2   1.305480647227773E-1  
 1.110277569392348E9    -8.286999911069870E-2   1.229073514407993E-1  -7.874164219063680E-1  -5.551705360412598E-1  -7.902585259625647E-1  -5.573919415473938E-1  -8.959388732910156E-2   1.308561303812195E-1  
 1.112528132033008E9    -8.162039518356323E-2   1.203720482522314E-1  -7.903109245929330E-1  -5.505988001823425E-1  -7.956924814760482E-1  -5.533703565597534E-1  -8.986210078001022E-2   1.308997927411169E-1  
 1.114778694673668E9    -8.266146481037140E-2   1.196412541780505E-1  -7.940488325251320E-1  -5.480189323425293E-1  -7.984959871735785E-1  -5.466987490653992E-1  -9.021981805562973E-2   1.301253373759314E-1  
 1.117029257314329E9    -8.160856366157532E-2   1.181772906929735E-1  -7.972968814845985E-1  -5.441662073135376E-1  -8.010964936739482E-1  -5.446094870567322E-1  -8.996228873729706E-2   1.305854397534433E-1  
 1.119279819954989E9    -8.139825612306595E-2   1.159779418257134E-1  -8.008214658106381E-1  -5.402618050575256E-1  -8.047070166704550E-1  -5.403922796249390E-1  -8.806378394365311E-2   1.298392622983945E-1  
 1.121530382595649E9    -7.938473671674728E-2   1.149187983170306E-1  -8.053592895856879E-1  -5.359711050987244E-1  -8.069582406289013E-1  -5.324457287788391E-1  -8.713204413652420E-2   1.302856774669498E-1  
 1.123780945236309E9    -7.762392610311508E-2   1.140914321386537E-1  -8.077829669041357E-1  -5.340046882629395E-1  -8.089170439826172E-1  -5.284789800643921E-1  -8.510226011276245E-2   1.296155280580610E-1  
 1.126031507876969E9    -7.693512737751007E-2   1.140984266735921E-1  -8.122743177828471E-1  -5.273811817169190E-1  -8.114134663974303E-1  -5.239184498786926E-1  -8.375019580125809E-2   1.308574051521821E-1  
 1.128282070517629E9    -7.459899783134460E-2   1.138788099146095E-1  -8.161500270506661E-1  -5.210029482841492E-1  -8.143652495546941E-1  -5.178423523902893E-1  -8.144739270210266E-2   1.298023718624689E-1  
 1.130532633158290E9    -7.236062735319138E-2   1.164075181275841E-1  -8.194157600703479E-1  -5.167797207832336E-1  -8.146870921836057E-1  -5.132763981819153E-1  -7.941887527704239E-2   1.311764217855327E-1  
 1.132783195798950E9    -7.089007645845413E-2   1.186196216897251E-1  -8.211220005080130E-1  -5.107229351997376E-1  -8.172696974345817E-1  -5.089794397354126E-1  -7.879719883203507E-2   1.319546166357555E-1  
 1.135033758439610E9    -6.817164272069931E-2   1.204566206785135E-1  -8.236898484760640E-1  -5.053752660751343E-1  -8.188760205042318E-1  -5.041236281394959E-1  -7.645505666732788E-2   1.335493957765645E-1  
 1.137284321080270E9    -6.636144965887070E-2   1.241669436533686E-1  -8.262620596081188E-1  -4.997914731502533E-1  -8.204996058663999E-1  -5.016936063766480E-1  -7.496136426925659E-2   1.348730140786252E-1  
 1.139534883720930E9    -6.461136043071747E-2   1.263677838139422E-1  -8.286689281092851E-1  -4.955567121505737E-1  -8.216449196001725E-1  -4.984627962112427E-1  -7.405877113342285E-2   1.372980989096879E-1  
 1.141785446361590E9    -6.370806694030762E-2   1.305805773781907E-1  -8.297608547620826E-1  -4.901886284351349E-1  -8.235446202383007E-1  -4.941264092922211E-1  -7.303697615861893E-2   1.386898663537393E-1  
 1.144036009002251E9    -6.336683779954910E-2   1.334733432610533E-1  -8.311607170653377E-1  -4.854583740234375E-1  -8.253208655354049E-1  -4.899052977561951E-1  -7.230272144079208E-2   1.408626806509266E-1  
 1.146286571642911E9    -6.219431012868881E-2   1.364200736231911E-1  -8.321109389438377E-1  -4.813687801361084E-1  -8.273900552636928E-1  -4.874623715877533E-1  -7.106832414865494E-2   1.414890750845909E-1  
 1.148537134283571E9    -6.364131718873978E-2   1.389903947272745E-1  -8.322964050011337E-1  -4.769186377525330E-1  -8.309788876438996E-1  -4.834854304790497E-1  -7.123736292123795E-2   1.437309589009138E-1  
 1.150787696924231E9    -6.237732991576195E-2   1.394599437109624E-1  -8.352946071447348E-1  -4.729757010936737E-1  -8.323873213389438E-1  -4.814664721488953E-1  -7.090371102094650E-2   1.436811143597057E-1  
 1.153038259564891E9    -6.377227604389191E-2   1.405190208859164E-1  -8.348233291408317E-1  -4.683900177478790E-1  -8.341589419448081E-1  -4.778020977973938E-1  -7.082108408212662E-2   1.443047459661223E-1  
 1.155288822205551E9    -6.427706032991409E-2   1.401671937822994E-1  -8.372751456777241E-1  -4.645935595035553E-1  -8.383585824522419E-1  -4.743975996971130E-1  -7.274672389030457E-2   1.446723461056788E-1  
 1.157539384846211E9    -6.644196808338165E-2   1.403780582093105E-1  -8.413951302553052E-1  -4.594906270503998E-1  -8.420924724720824E-1  -4.692272841930389E-1  -7.310586422681809E-2   1.444545769327117E-1  
 1.159789947486872E9    -6.729851663112640E-2   1.378275590679091E-1  -8.406032912561053E-1  -4.588993191719055E-1  -8.445549552971294E-1  -4.683070480823517E-1  -7.372347265481949E-2   1.433263179816633E-1  
 1.162040510127532E9    -6.840080022811890E-2   1.365920352576702E-1  -8.433298515680144E-1  -4.574744701385498E-1  -8.492601747760091E-1  -4.630228281021118E-1  -7.500438392162323E-2   1.429739240530637E-1  
 1.164291072768192E9    -6.941696256399155E-2   1.342512920796031E-1  -8.461632457310064E-1  -4.518863558769226E-1  -8.531236268587038E-1  -4.586510956287384E-1  -7.566288858652115E-2   1.428609886527188E-1  
 1.166541635408852E9    -6.945145130157471E-2   1.313900120585816E-1  -8.494868867091951E-1  -4.509619176387787E-1  -8.549047424119234E-1  -4.542130231857300E-1  -7.603421807289124E-2   1.412090911442871E-1  
 1.168792198049512E9    -7.050757855176926E-2   1.299073329338559E-1  -8.527084001127286E-1  -4.486882388591766E-1  -8.579308284724310E-1  -4.476251900196075E-1  -7.602926343679428E-2   1.405050575922600E-1  
 1.171042760690172E9    -6.991379708051682E-2   1.283381572505025E-1  -8.559850772686601E-1  -4.441779553890228E-1  -8.613596027133665E-1  -4.426287412643433E-1  -7.533648610115051E-2   1.426042775773101E-1  
 1.173293323330833E9    -6.752138584852219E-2   1.254776914666127E-1  -8.590394717610703E-1  -4.401792585849762E-1  -8.628070546231801E-1  -4.378960430622101E-1  -7.325415313243866E-2   1.409981449078863E-1  
 1.175543885971493E9    -6.568210572004318E-2   1.253175594971513E-1  -8.626608078702529E-1  -4.377027451992035E-1  -8.647004572898022E-1  -4.335567057132721E-1  -7.120300829410553E-2   1.409783298669955E-1  
 1.177794448612153E9    -6.321265548467636E-2   1.244782315768447E-1  -8.678426967849461E-1  -4.306012690067291E-1  -8.685325136945022E-1  -4.267758727073669E-1  -6.878858804702759E-2   1.402496181702161E-1  
 1.180045011252813E9    -6.106147542595863E-2   1.250000263408375E-1  -8.706015729946169E-1  -4.269855618476868E-1  -8.702099846792184E-1  -4.211535155773163E-1  -6.685115396976471E-2   1.402326771026127E-1  
 1.182295573893473E9    -5.884314328432083E-2   1.240503615049496E-1  -8.747581914030098E-1  -4.222546517848969E-1  -8.716294861107748E-1  -4.160586595535278E-1  -6.225094571709633E-2   1.401147954120239E-1  
 1.184546136534133E9    -5.542317777872086E-2   1.265261746741750E-1  -8.769734335261379E-1  -4.160507619380951E-1  -8.718927166082473E-1  -4.126329123973846E-1  -6.046736985445023E-2   1.407277865532960E-1  
 1.186796699174794E9    -5.412377044558525E-2   1.276705561142798E-1  -8.790930237769862E-1  -4.081263542175293E-1  -8.735329543101755E-1  -4.071171581745148E-1  -5.769287422299385E-2   1.411430255230834E-1  
 1.189047261815454E9    -5.154781416058540E-2   1.318168257372508E-1  -8.808564348659969E-1  -4.037118256092072E-1  -8.743501912262421E-1  -4.024015367031097E-1  -5.548498034477234E-2   1.420219512658786E-1  
 1.191297824456114E9    -4.962540790438652E-2   1.343968650756375E-1  -8.826721625374678E-1  -3.973509669303894E-1  -8.758031134311749E-1  -3.978381156921387E-1  -5.382990464568138E-2   1.437536170933664E-1  
 1.193548387096774E9    -4.882545396685600E-2   1.379171018683423E-1  -8.840554914879936E-1  -3.920783400535584E-1  -8.776378178602950E-1  -3.937220573425293E-1  -5.132754147052765E-2   1.463900014647851E-1  
 1.195798949737434E9    -4.730401560664177E-2   1.422495941404204E-1  -8.847715329380886E-1  -3.845041990280151E-1  -8.782349799959334E-1  -3.889793157577515E-1  -4.942119494080544E-2   1.481121608822305E-1  
 1.198049512378094E9    -4.563612490892410E-2   1.451426937085936E-1  -8.869579950979128E-1  -3.798725903034210E-1  -8.796843845838175E-1  -3.879749178886414E-1  -4.891763627529144E-2   1.487641708601657E-1  
 1.200300075018755E9    -4.671810567378998E-2   1.481127129848885E-1  -8.872928857827298E-1  -3.758432567119598E-1  -8.825192483622304E-1  -3.823513090610504E-1  -4.771682620048523E-2   1.520362855486400E-1  
 1.202550637659415E9    -4.706499353051186E-2   1.507205723590558E-1  -8.864714262961351E-1  -3.703934550285339E-1  -8.833345537186462E-1  -3.782436251640320E-1  -4.833950102329254E-2   1.534912863013657E-1  
 1.204801200300075E9    -4.742155224084854E-2   1.515267313372449E-1  -8.872767095356386E-1  -3.627825081348419E-1  -8.851124362742906E-1  -3.748592436313629E-1  -4.848668351769447E-2   1.574281055915874E-1  
 1.207051762940735E9    -4.622305184602737E-2   1.530374645288237E-1  -8.878214112989229E-1  -3.613427281379700E-1  -8.864322669519575E-1  -3.721067309379578E-1  -4.860322549939156E-2   1.589688589676944E-1  
 1.209302325581395E9    -4.983812198042870E-2   1.523524398390394E-1  -8.880906242370714E-1  -3.576214313507080E-1  -8.900428933433791E-1  -3.673638403415680E-1  -4.995847120881081E-2   1.597650362223357E-1  
