#  HZ   S   RI   R     50.0 
! Rohde & Schwarz ZVL13 2Ports - Version 3.31 - 1303.6509k13 SN: 101088
! Date: 2023-03-09 14:13:04
! Data & Calibration Information:
! Trc4:S11(TOSM) Trc2:S21(TOSM) Trc3:S12(TOSM) Trc5:S22(TOSM)
! 
! 
! 
 1.000000000000000E9    -9.861485660076141E-2   9.323546186254274E-2  -6.305831085078956E-1  -7.394642233848572E-1  -6.348077992889000E-1  -7.383636236190796E-1  -1.065720170736313E-1   9.682626093899120E-2  
 1.002250562640660E9    -9.955678880214691E-2   9.265593518404006E-2  -6.381970860547349E-1  -7.348205447196960E-1  -6.369452898391794E-1  -7.375466823577881E-1  -1.092236340045929E-1   9.721991828374499E-2  
 1.004501125281320E9    -1.014742031693459E-1   9.299921959265795E-2  -6.411369689358708E-1  -7.322961688041687E-1  -6.414781542199854E-1  -7.331654429435730E-1  -1.095069721341133E-1   9.663039914815480E-2  
 1.006751687921981E9    -1.030516177415848E-1   9.265950816376067E-2  -6.451406463558516E-1  -7.294956445693970E-1  -6.454211496239036E-1  -7.305321693420410E-1  -1.106055378913879E-1   9.719713605385208E-2  
 1.009002250562641E9    -1.051084771752358E-1   9.194957990225759E-2  -6.492436654039900E-1  -7.264189720153809E-1  -6.491598611659425E-1  -7.285360693931580E-1  -1.109254509210587E-1   9.743035595804576E-2  
 1.011252813203301E9    -1.048872470855713E-1   9.108615595475474E-2  -6.546879705212885E-1  -7.233295440673828E-1  -6.551184144269162E-1  -7.218954563140869E-1  -1.110444813966751E-1   9.754293695215789E-2  
 1.013503375843961E9    -1.040439680218697E-1   9.070074400577501E-2  -6.592949951644529E-1  -7.191670536994934E-1  -6.582391930259745E-1  -7.181522846221924E-1  -1.105580180883408E-1   9.742219716681863E-2  
 1.015753938484621E9    -1.033500507473946E-1   8.858147620534573E-2  -6.637894466492681E-1  -7.154496312141419E-1  -6.631213827565758E-1  -7.126054763793945E-1  -1.104169413447380E-1   9.946839397039739E-2  
 1.018004501125281E9    -1.022827625274658E-1   8.919058897205306E-2  -6.667466470493897E-1  -7.120769619941711E-1  -6.671316133353878E-1  -7.079856395721436E-1  -1.096315458416939E-1   9.858078207579005E-2  
 1.020255063765942E9    -1.002563014626503E-1   8.926044308613171E-2  -6.713116391888416E-1  -7.064667344093323E-1  -6.687163823026198E-1  -7.042594552040100E-1  -1.072570830583572E-1   9.951991466047153E-2  
 1.022505626406602E9    -9.854778647422791E-2   8.921692516152369E-2  -6.757933282048898E-1  -7.022490501403809E-1  -6.724314942367546E-1  -7.007001638412476E-1  -1.075319945812225E-1   1.000777498105141E-1  
 1.024756189047262E9    -9.670346230268478E-2   9.242425965454801E-2  -6.777634312388655E-1  -6.971477866172791E-1  -6.745627022143587E-1  -6.971350908279419E-1  -1.060562059283257E-1   1.012727120106135E-1  
 1.027006751687922E9    -9.468869864940643E-2   9.112555649195127E-2  -6.827372006563824E-1  -6.917964220046997E-1  -6.783466074947674E-1  -6.908686161041260E-1  -1.057447642087936E-1   1.020978680541302E-1  
 1.029257314328582E9    -9.263917058706284E-2   9.378679250091765E-2  -6.848981121045850E-1  -6.872360706329346E-1  -6.811101027120200E-1  -6.879247426986694E-1  -1.037127375602722E-1   1.042534177359000E-1  
 1.031507876969242E9    -9.046568721532822E-2   9.724079631711108E-2  -6.866178452599639E-1  -6.846743226051331E-1  -6.847610335616197E-1  -6.840715408325195E-1  -1.025818437337875E-1   1.057693950808326E-1  
 1.033758439609903E9    -8.960360288619995E-2   9.754230200467032E-2  -6.900455956414829E-1  -6.795900464057922E-1  -6.857353825166930E-1  -6.822309494018555E-1  -1.014839187264442E-1   1.092594478703886E-1  
 1.036009002250563E9    -8.758973330259323E-2   1.020834276752321E-1  -6.924982074436564E-1  -6.752640008926392E-1  -6.875735606665864E-1  -6.782045960426331E-1  -1.004736721515656E-1   1.105629116343745E-1  
 1.038259564891223E9    -8.679600805044174E-2   1.037084655142258E-1  -6.945174576128544E-1  -6.724613904953003E-1  -6.913729104524700E-1  -6.752219200134277E-1  -9.904903918504715E-2   1.123117111308224E-1  
 1.040510127531883E9    -8.542733639478684E-2   1.070171679696609E-1  -6.963746423176529E-1  -6.690967082977295E-1  -6.924768176418106E-1  -6.715224385261536E-1  -9.866994619369507E-2   1.132729490548612E-1  
 1.042760690172543E9    -8.556114137172699E-2   1.075249319892221E-1  -6.996221745576956E-1  -6.665673851966858E-1  -6.963989775973158E-1  -6.698603034019470E-1  -9.821956604719162E-2   1.136657263817296E-1  
 1.045011252813203E9    -8.514683693647385E-2   1.107691191836565E-1  -7.015091090774409E-1  -6.628147363662720E-1  -6.998076353046951E-1  -6.668026447296143E-1  -9.663461893796921E-2   1.146880118010523E-1  
 1.047261815453864E9    -8.686544746160507E-2   1.104210955810387E-1  -7.048518394540422E-1  -6.589065194129944E-1  -7.038113367732758E-1  -6.652085781097412E-1  -9.787095338106155E-2   1.157287869147510E-1  
 1.049512378094524E9    -8.772731572389603E-2   1.110603073020297E-1  -7.078685107084830E-1  -6.577988266944885E-1  -7.077426123100012E-1  -6.602606177330017E-1  -9.835558384656906E-2   1.160934852709979E-1  
 1.051762940735184E9    -9.075620770454407E-2   1.102094425533524E-1  -7.108280574260649E-1  -6.539394855499268E-1  -7.113524342996215E-1  -6.597341895103455E-1  -9.869594126939774E-2   1.139634838560569E-1  
 1.054013503375844E9    -9.135545790195465E-2   1.096469796845948E-1  -7.149395596653960E-1  -6.516468524932861E-1  -7.167706002043116E-1  -6.553308367729187E-1  -1.000241562724114E-1   1.158474519216112E-1  
 1.056264066016504E9    -9.471461921930313E-2   1.082230569136744E-1  -7.181537538633228E-1  -6.485711336135864E-1  -7.205767925960672E-1  -6.514351367950440E-1  -1.003779023885727E-1   1.156888411934944E-1  
 1.058514628657164E9    -9.646959602832794E-2   1.091522579485627E-1  -7.214964853454216E-1  -6.460423469543457E-1  -7.253713607643059E-1  -6.478843092918396E-1  -1.003607809543610E-1   1.156767486964768E-1  
 1.060765191297825E9    -9.713321179151535E-2   1.075634302531561E-1  -7.261883432863614E-1  -6.425284147262573E-1  -7.281342687050383E-1  -6.445121169090271E-1  -1.015098094940186E-1   1.166697670699764E-1  
 1.063015753938485E9    -9.837462007999420E-2   1.067205848996182E-1  -7.312083658756801E-1  -6.384112238883972E-1  -7.345168172510033E-1  -6.383429765701294E-1  -1.010077968239784E-1   1.172628593229709E-1  
 1.065266316579145E9    -9.913215786218643E-2   1.059332677794687E-1  -7.355066362387457E-1  -6.352022886276245E-1  -7.359842662170371E-1  -6.342541575431824E-1  -1.002295836806297E-1   1.182755699203647E-1  
 1.067516879219805E9    -9.845901280641556E-2   1.035493341495368E-1  -7.400029444400439E-1  -6.313419342041016E-1  -7.400914236089935E-1  -6.283410787582398E-1  -9.993453323841095E-2   1.175180129117953E-1  
 1.069767441860465E9    -9.829789400100708E-2   1.037243540757051E-1  -7.435547761834156E-1  -6.270213127136231E-1  -7.433276041299475E-1  -6.249442696571350E-1  -9.944245219230652E-2   1.190834357456715E-1  
 1.072018004501125E9    -9.716434776782990E-2   1.039965194199240E-1  -7.466533521620257E-1  -6.210062503814697E-1  -7.456331727461920E-1  -6.201436519622803E-1  -9.803585708141327E-2   1.195953894906886E-1  
 1.074268567141785E9    -9.539660811424255E-2   1.036348282312008E-1  -7.523996056288391E-1  -6.168029308319092E-1  -7.487224282090561E-1  -6.139880418777466E-1  -9.555161744356155E-2   1.205419694390672E-1  
 1.076519129782446E9    -9.464970976114273E-2   1.044573407580907E-1  -7.546682206342676E-1  -6.109182834625244E-1  -7.511848528380367E-1  -6.093732714653015E-1  -9.491284191608429E-2   1.223327381158883E-1  
 1.078769692423106E9    -9.049601852893829E-2   1.070804114964740E-1  -7.577295521193805E-1  -6.076570153236389E-1  -7.537319541000905E-1  -6.053135395050049E-1  -9.323687851428986E-2   1.229000056308744E-1  
 1.081020255063766E9    -8.926950395107269E-2   1.090085442884635E-1  -7.602067072729722E-1  -6.022982001304627E-1  -7.563073777242414E-1  -6.009042263031006E-1  -9.187540411949158E-2   1.236738695274662E-1  
 1.083270817704426E9    -8.785038441419601E-2   1.122817825692040E-1  -7.620272584528274E-1  -5.964267253875732E-1  -7.572567442781016E-1  -5.975993871688843E-1  -9.093859791755676E-2   1.251734466394702E-1  
 1.085521380345086E9    -8.497628569602966E-2   1.143493135285594E-1  -7.637487984385508E-1  -5.923013687133789E-1  -7.593514706613034E-1  -5.950572490692139E-1  -9.013515710830689E-2   1.270994040682668E-1  
 1.087771942985746E9    -8.320065587759018E-2   1.167421946626088E-1  -7.647805532866991E-1  -5.894758105278015E-1  -7.613487591575958E-1  -5.908307433128357E-1  -9.004518389701843E-2   1.283626338228768E-1  
 1.090022505626407E9    -8.006904274225235E-2   1.207416538783307E-1  -7.682009765623689E-1  -5.835293531417847E-1  -7.633520845359634E-1  -5.889834761619568E-1  -8.809724450111389E-2   1.306344756059858E-1  
 1.092273068267067E9    -7.918863743543625E-2   1.221830302578437E-1  -7.702092504234300E-1  -5.788764357566834E-1  -7.647745683529381E-1  -5.851548910140991E-1  -8.742415159940720E-2   1.318973164320903E-1  
 1.094523630907727E9    -7.994343340396881E-2   1.236537982971159E-1  -7.730403965741663E-1  -5.733663439750671E-1  -7.685316893647758E-1  -5.816465616226196E-1  -8.704160153865814E-2   1.323545277913290E-1  
 1.096774193548387E9    -7.808680087327957E-2   1.256224926670295E-1  -7.733960848286376E-1  -5.724490284919739E-1  -7.714810479501997E-1  -5.779961943626404E-1  -8.609586209058762E-2   1.325541825455586E-1  
 1.099024756189047E9    -7.966154813766480E-2   1.269333445133067E-1  -7.749220581875075E-1  -5.684984922409058E-1  -7.749501022546192E-1  -5.745462179183960E-1  -8.708098530769348E-2   1.331022836862129E-1  
 1.101275318829707E9    -8.037018775939941E-2   1.274362815857021E-1  -7.773865344356735E-1  -5.664228796958923E-1  -7.799785095542833E-1  -5.698514580726624E-1  -8.616166561841965E-2   1.327301769700125E-1  
 1.103525881470368E9    -8.012893795967102E-2   1.267016395155939E-1  -7.813426621876347E-1  -5.624680519104004E-1  -7.814351837870186E-1  -5.671482682228088E-1  -8.815182000398636E-2   1.331367999313867E-1  
 1.105776444111028E9    -8.199515193700790E-2   1.249522005428942E-1  -7.824758526589372E-1  -5.610004067420960E-1  -7.845846822055695E-1  -5.651412606239319E-1  -8.943022042512894E-2   1.314632292446951E-1  
 1.108027006751688E9    -8.273449540138245E-2   1.234811243701462E-1  -7.859331148684339E-1  -5.561254024505615E-1  -7.890591506769867E-1  -5.620087385177612E-1  -9.010806679725647E-2   1.315165417978618E-1  
 1.110277569392348E9    -8.363719284534454E-2   1.230919908461257E-1  -7.890847238838228E-1  -5.554065108299255E-1  -7.919271281317957E-1  -5.573652982711792E-1  -9.108043462038040E-2   1.313199891491662E-1  
 1.112528132033008E9    -8.343505114316940E-2   1.206479336463665E-1  -7.916463022142748E-1  -5.501064062118530E-1  -7.967838382140471E-1  -5.524975061416626E-1  -9.025259315967560E-2   1.307835000750538E-1  
 1.114778694673668E9    -8.433276414871216E-2   1.189486797113412E-1  -7.959133446975181E-1  -5.477107167243958E-1  -8.001440630209538E-1  -5.473805665969849E-1  -9.085824340581894E-2   1.301311866582580E-1  
 1.117029257314329E9    -8.323988318443298E-2   1.171218106247121E-1  -7.990459225530280E-1  -5.432203412055969E-1  -8.031540056796913E-1  -5.438153743743897E-1  -9.122832864522934E-2   1.302217103798626E-1  
 1.119279819954989E9    -8.254242688417435E-2   1.157668653225073E-1  -8.024350196296464E-1  -5.412768125534058E-1  -8.064529642607404E-1  -5.399677753448486E-1  -8.973073214292526E-2   1.297666724413995E-1  
 1.121530382595649E9    -8.125173300504684E-2   1.154621483145406E-1  -8.071338848687407E-1  -5.361446142196655E-1  -8.088038143345817E-1  -5.334305167198181E-1  -8.864022046327591E-2   1.302521956187034E-1  
 1.123780945236309E9    -7.917066663503647E-2   1.142184077294791E-1  -8.099122715458452E-1  -5.322377085685730E-1  -8.108386942025805E-1  -5.278454422950745E-1  -8.625467121601105E-2   1.296269753280595E-1  
 1.126031507876969E9    -7.789973169565201E-2   1.142833848185343E-1  -8.140501484442594E-1  -5.268804430961609E-1  -8.123116971485376E-1  -5.231264233589172E-1  -8.451358973979950E-2   1.309706795948447E-1  
 1.128282070517629E9    -7.590732723474503E-2   1.137224540462696E-1  -8.171360459972133E-1  -5.220398902893066E-1  -8.151953163802592E-1  -5.196864008903503E-1  -8.296763896942139E-2   1.309255892861172E-1  
 1.130532633158290E9    -7.316967844963074E-2   1.163235276070821E-1  -8.204588370063143E-1  -5.166065096855164E-1  -8.156537154277426E-1  -5.142267942428589E-1  -8.051093667745590E-2   1.312977058741809E-1  
 1.132783195798950E9    -7.207571715116501E-2   1.183975285503811E-1  -8.241336540949832E-1  -5.094894170761108E-1  -8.195215709071269E-1  -5.070059895515442E-1  -7.952605932950974E-2   1.322288029238746E-1  
 1.135033758439610E9    -6.959788501262665E-2   1.205753400067218E-1  -8.246958204058986E-1  -5.063736438751221E-1  -8.193038592917822E-1  -5.058570504188538E-1  -7.711932063102722E-2   1.334495366586822E-1  
 1.137284321080270E9    -6.718325614929199E-2   1.244795500715645E-1  -8.276714200887874E-1  -5.001158714294434E-1  -8.222523911991936E-1  -5.024994611740112E-1  -7.567802071571350E-2   1.352080503341423E-1  
 1.139534883720930E9    -6.587547063827515E-2   1.268551824581807E-1  -8.305312570126994E-1  -4.950464665889740E-1  -8.236145845824739E-1  -4.971448481082916E-1  -7.444509118795395E-2   1.369958698054362E-1  
 1.141785446361590E9    -6.388469040393829E-2   1.308559047556234E-1  -8.309636103987600E-1  -4.902317821979523E-1  -8.245333833252497E-1  -4.949400424957275E-1  -7.307992875576019E-2   1.387941322171450E-1  
 1.144036009002251E9    -6.440363824367523E-2   1.335364188364121E-1  -8.327747326479522E-1  -4.856932461261749E-1  -8.271362411042468E-1  -4.895952939987183E-1  -7.227678596973419E-2   1.403808537905839E-1  
 1.146286571642911E9    -6.252092868089676E-2   1.362385382472076E-1  -8.330509622631344E-1  -4.811262786388397E-1  -8.292708063128402E-1  -4.879283607006073E-1  -7.156159728765488E-2   1.414280968384932E-1  
 1.148537134283571E9    -6.409798562526703E-2   1.398644967646393E-1  -8.350059110193767E-1  -4.763346016407013E-1  -8.319387464322573E-1  -4.831272065639496E-1  -7.115843892097473E-2   1.428856917522304E-1  
 1.150787696924231E9    -6.355274468660355E-2   1.403234648367692E-1  -8.371139499040750E-1  -4.721900224685669E-1  -8.338688328747383E-1  -4.814685881137848E-1  -7.174517214298248E-2   1.433830030380694E-1  
 1.153038259564891E9    -6.418216973543167E-2   1.404061431354643E-1  -8.361719342670096E-1  -4.688769578933716E-1  -8.371976444265407E-1  -4.778380095958710E-1  -7.160870730876923E-2   1.443573356318114E-1  
 1.155288822205551E9    -6.496630609035492E-2   1.401490516927484E-1  -8.385124266434917E-1  -4.649398326873779E-1  -8.397695939819920E-1  -4.749454259872437E-1  -7.317128032445908E-2   1.444573095403420E-1  
 1.157539384846211E9    -6.664540618658066E-2   1.406096155089220E-1  -8.415643467431856E-1  -4.616695940494537E-1  -8.435453241407854E-1  -4.695903062820435E-1  -7.381528615951538E-2   1.442313431171037E-1  
 1.159789947486872E9    -6.796811521053314E-2   1.381831810128074E-1  -8.416061819332446E-1  -4.588941335678101E-1  -8.472998251467050E-1  -4.670850634574890E-1  -7.395689189434052E-2   1.435714058400977E-1  
 1.162040510127532E9    -6.900154054164887E-2   1.365379160168163E-1  -8.443530142933927E-1  -4.576122164726257E-1  -8.504165256236764E-1  -4.611382782459259E-1  -7.458677887916565E-2   1.430721164144360E-1  
 1.164291072768192E9    -7.029924541711807E-2   1.338294125974743E-1  -8.462647609940943E-1  -4.535686373710632E-1  -8.546106185341065E-1  -4.586128294467926E-1  -7.625354081392288E-2   1.426655596869783E-1  
 1.166541635408852E9    -7.053235173225403E-2   1.310328364555001E-1  -8.517122728014747E-1  -4.504874050617218E-1  -8.580704910572601E-1  -4.535182118415833E-1  -7.721463590860367E-2   1.414904874202603E-1  
 1.168792198049512E9    -7.118096202611923E-2   1.298956321273704E-1  -8.542981007652850E-1  -4.477442502975464E-1  -8.604234077986024E-1  -4.476320445537567E-1  -7.664599269628525E-2   1.410219320740994E-1  
 1.171042760690172E9    -7.101980596780777E-2   1.274115214898940E-1  -8.572159333721283E-1  -4.437052011489868E-1  -8.635714234503836E-1  -4.428705871105194E-1  -7.595920562744141E-2   1.418576774925618E-1  
 1.173293323330833E9    -6.902134418487549E-2   1.255825730002898E-1  -8.612178515580911E-1  -4.396839737892151E-1  -8.649806071829451E-1  -4.376483559608460E-1  -7.405360788106918E-2   1.409070953414137E-1  
 1.175543885971493E9    -6.684168428182602E-2   1.246090186142008E-1  -8.655815928245763E-1  -4.372357726097107E-1  -8.671737481414524E-1  -4.341066777706146E-1  -7.152339071035385E-2   1.404169744649557E-1  
 1.177794448612153E9    -6.498820334672928E-2   1.236930510544630E-1  -8.691221291327020E-1  -4.311422109603882E-1  -8.705983951024823E-1  -4.269579052925110E-1  -6.987582892179489E-2   1.404848275666052E-1  
 1.180045011252813E9    -6.250622123479843E-2   1.240850818864301E-1  -8.716897142141404E-1  -4.260874986648560E-1  -8.714167930930896E-1  -4.221248328685761E-1  -6.726744771003723E-2   1.403794130813596E-1  
 1.182295573893473E9    -6.004810705780983E-2   1.233383765024671E-1  -8.761326605100465E-1  -4.210924208164215E-1  -8.728364326148075E-1  -4.161953032016754E-1  -6.319329887628555E-2   1.408241505104929E-1  
 1.184546136534133E9    -5.642167478799820E-2   1.258969646146408E-1  -8.784223302805042E-1  -4.144428074359894E-1  -8.735614360806210E-1  -4.127550423145294E-1  -6.089402735233307E-2   1.407806560914759E-1  
 1.186796699174794E9    -5.529649928212166E-2   1.278083981327117E-1  -8.810362344008911E-1  -4.078221619129181E-1  -8.750205902966838E-1  -4.062051475048065E-1  -5.860192328691483E-2   1.412300894766547E-1  
 1.189047261815454E9    -5.219849199056625E-2   1.316993882367990E-1  -8.827946458820432E-1  -4.018938839435577E-1  -8.757674598147103E-1  -4.014771282672882E-1  -5.561882629990578E-2   1.417005927362421E-1  
 1.191297824456114E9    -5.026179179549217E-2   1.340839842830922E-1  -8.846602582984185E-1  -3.958669304847717E-1  -8.777357365629923E-1  -3.969015777111054E-1  -5.402721837162972E-2   1.436986866326517E-1  
 1.193548387096774E9    -4.977003112435341E-2   1.376665440505885E-1  -8.856867899985725E-1  -3.909617662429810E-1  -8.790405003134334E-1  -3.936538994312286E-1  -5.200134962797165E-2   1.463289787293541E-1  
 1.195798949737434E9    -4.868046194314957E-2   1.425782491956864E-1  -8.856115662356684E-1  -3.854534924030304E-1  -8.796524677880357E-1  -3.887026906013489E-1  -4.957368224859238E-2   1.473661631476484E-1  
 1.198049512378094E9    -4.723328724503517E-2   1.448418590739029E-1  -8.876851278227900E-1  -3.795371353626251E-1  -8.821004562359234E-1  -3.853081464767456E-1  -4.788621142506599E-2   1.494845431067765E-1  
 1.200300075018755E9    -4.718863964080811E-2   1.485452344189441E-1  -8.878599388975235E-1  -3.740111291408539E-1  -8.841261776847242E-1  -3.817474246025085E-1  -4.780241101980209E-2   1.515044846638767E-1  
 1.202550637659415E9    -4.719673097133637E-2   1.498247824998586E-1  -8.880722860787317E-1  -3.702341020107269E-1  -8.852827789007026E-1  -3.784469068050385E-1  -4.922705516219139E-2   1.537709980569001E-1  
 1.204801200300075E9    -4.796204343438149E-2   1.519079073677250E-1  -8.887236561678754E-1  -3.637997210025787E-1  -8.863155033825622E-1  -3.747095167636871E-1  -4.812917113304138E-2   1.575357004742365E-1  
 1.207051762940735E9    -4.811849817633629E-2   1.535502854165587E-1  -8.891445109735316E-1  -3.610362112522125E-1  -8.889881212090042E-1  -3.719317615032196E-1  -4.868981242179871E-2   1.590005069501534E-1  
 1.209302325581395E9    -5.033260583877564E-2   1.525112834274864E-1  -8.899554228964068E-1  -3.562952280044556E-1  -8.914496083242341E-1  -3.673079013824463E-1  -5.051995813846588E-2   1.596265200979534E-1  
