#  HZ   S   RI   R     50.0 
! Rohde & Schwarz ZVL13 2Ports - Version 3.31 - 1303.6509k13 SN: 101088
! Date: 2023-03-09 13:56:44
! Data & Calibration Information:
! Trc4:S11(TOSM) Trc2:S21(TOSM) Trc3:S12(TOSM) Trc5:S22(TOSM)
! 
! 
! 
 1.000000000000000E9    -9.998384915292263E-2   9.109818411376473E-2  -6.295070874914925E-1  -7.421408188343048E-1  -6.305581170061149E-1  -7.429816567897797E-1  -1.074605950713158E-1   9.549306483611667E-2  
 1.002250562640660E9    -1.001626630127430E-1   9.128337372403456E-2  -6.348392989910083E-1  -7.389691299200059E-1  -6.333530942657315E-1  -7.413032692670823E-1  -1.088807614892721E-1   9.669547862347860E-2  
 1.004501125281320E9    -1.012161821871996E-1   9.226383634058094E-2  -6.379221816803509E-1  -7.366750466823578E-1  -6.382892248532793E-1  -7.370835858583450E-1  -1.091888237744570E-1   9.667262222410353E-2  
 1.006751687921981E9    -1.020453432947397E-1   9.258609820999446E-2  -6.419178648976219E-1  -7.334563803672791E-1  -6.422968612174851E-1  -7.343286794424057E-1  -1.099384563416243E-1   9.814950953962999E-2  
 1.009002250562641E9    -1.034028653055430E-1   9.255237354860268E-2  -6.464814368875782E-1  -7.309004157781601E-1  -6.464875186283775E-1  -7.309400880336764E-1  -1.099427212029696E-1   9.920407845023724E-2  
 1.011252813203301E9    -1.031268531829119E-1   9.256039521419823E-2  -6.511369642575487E-1  -7.282950472831726E-1  -6.509598563743901E-1  -7.269009685516358E-1  -1.098875094950199E-1   9.964296257278951E-2  
 1.013503375843961E9    -1.026102863997221E-1   9.255784389278650E-2  -6.562197868835926E-1  -7.240065395832063E-1  -6.548053371099509E-1  -7.228941327333452E-1  -1.097548379004002E-1   9.987662967622994E-2  
 1.015753938484621E9    -1.015691994130612E-1   9.145424011421427E-2  -6.611842733336559E-1  -7.199881619215013E-1  -6.590912793873595E-1  -7.175486731529235E-1  -1.094700882583857E-1   1.018709609117623E-1  
 1.018004501125281E9    -1.002961021661759E-1   9.211934534357957E-2  -6.645072462615703E-1  -7.167783278226851E-1  -6.631246481719049E-1  -7.131788152456284E-1  -1.092483406513929E-1   1.006659653385095E-1  
 1.020255063765942E9    -9.907787218689920E-2   9.311359328534541E-2  -6.691523726117414E-1  -7.119958138465883E-1  -6.659601947270747E-1  -7.093936085700990E-1  -1.072995617240667E-1   1.019054008141378E-1  
 1.022505626406602E9    -9.726120293140413E-2   9.287711249564953E-2  -6.733480991520637E-1  -7.079616564512253E-1  -6.694595646257354E-1  -7.055501407384872E-1  -1.079333371669054E-1   1.022717365939322E-1  
 1.024756189047262E9    -9.619219601154329E-2   9.553572854868793E-2  -6.762273802625710E-1  -7.027747231721878E-1  -6.718046159921183E-1  -7.020048189163208E-1  -1.071577980369330E-1   1.028231372659658E-1  
 1.027006751687922E9    -9.528022997081281E-2   9.473105778190333E-2  -6.806979170950075E-1  -6.974861192703248E-1  -6.757738242170652E-1  -6.960386478900910E-1  -1.072527406364680E-1   1.031028015707973E-1  
 1.029257314328582E9    -9.386928550899031E-2   9.650660560011137E-2  -6.828426455525719E-1  -6.936306625604630E-1  -6.781194782163850E-1  -6.932744485139849E-1  -1.061944996565581E-1   1.044231137810261E-1  
 1.031507876969242E9    -9.199233651161196E-2   9.938029974349713E-2  -6.852959500672861E-1  -6.902576547861099E-1  -6.816738928602835E-1  -6.899117845296859E-1  -1.050628902763128E-1   1.054078759500077E-1  
 1.033758439609903E9    -9.141778521239757E-2   9.989607692011729E-2  -6.890801862677638E-1  -6.851507371664048E-1  -6.834728931900613E-1  -6.865641498565676E-1  -1.045555032044649E-1   1.080708667833213E-1  
 1.036009002250563E9    -9.060639180243017E-2   1.026853252068068E-1  -6.907718489124924E-1  -6.812861853837967E-1  -6.858780068207487E-1  -6.831892812252044E-1  -1.038267310708761E-1   1.091678928498045E-1  
 1.038259564891223E9    -8.919655233621600E-2   1.041088776644843E-1  -6.932035034966746E-1  -6.785823863744738E-1  -6.884637421782532E-1  -6.802755165100098E-1  -1.033204256743193E-1   1.100052263223124E-1  
 1.040510127531883E9    -8.879059821367265E-2   1.071173599176787E-1  -6.948908111479503E-1  -6.747043615579605E-1  -6.906593883897592E-1  -6.767030227184298E-1  -1.026204135268927E-1   1.115948452367793E-1  
 1.042760690172543E9    -8.907071277499201E-2   1.061796770014335E-1  -6.983959103546129E-1  -6.712191337347030E-1  -6.946168162909528E-1  -6.741005384922029E-1  -1.016244745999575E-1   1.119214860882020E-1  
 1.045011252813203E9    -8.840767510235310E-2   1.087400638480935E-1  -7.000050269006123E-1  -6.676844668388366E-1  -6.980931429762441E-1  -6.716875553131103E-1  -1.003370984643698E-1   1.130466831690958E-1  
 1.047261815453864E9    -8.995837137103083E-2   1.084650238862607E-1  -7.033360296679536E-1  -6.642645025253298E-1  -7.009055792099481E-1  -6.692602890729905E-1  -1.006233239173889E-1   1.139271552783445E-1  
 1.049512378094524E9    -9.030203260481359E-2   1.090268415986089E-1  -7.060045176365409E-1  -6.621465861797333E-1  -7.054603049877116E-1  -6.654376143217087E-1  -1.003864822536707E-1   1.147011141553843E-1  
 1.051762940735184E9    -9.258590810000895E-2   1.088692282368265E-1  -7.089224852164512E-1  -6.590929901599886E-1  -7.084671797632884E-1  -6.642058444023132E-1  -1.002814564853907E-1   1.134267864426684E-1  
 1.054013503375844E9    -9.281810350716115E-2   1.083733493625416E-1  -7.128574860270197E-1  -6.563644415140153E-1  -7.134704861397431E-1  -6.593812185525895E-1  -9.999870024621488E-2   1.153411974281677E-1  
 1.056264066016504E9    -9.481284454464913E-2   1.080328538637488E-1  -7.170954212837092E-1  -6.525963038206102E-1  -7.186961783260191E-1  -6.551567584276199E-1  -1.000672172755003E-1   1.164710581266888E-1  
 1.058514628657164E9    -9.641550332307816E-2   1.090278522110568E-1  -7.188120461501550E-1  -6.516346883773804E-1  -7.226124013013746E-1  -6.520740467309955E-1  -9.945000842213631E-2   1.167995816868864E-1  
 1.060765191297825E9    -9.640673890709878E-2   1.076815774538043E-1  -7.239788629712357E-1  -6.474117642641067E-1  -7.247267058967284E-1  -6.500868612527849E-1  -1.002837441861630E-1   1.176837392098210E-1  
 1.063015753938485E9    -9.665656715631486E-2   1.083721778326769E-1  -7.290195877114676E-1  -6.435381972789765E-1  -7.313890932240071E-1  -6.424898737668993E-1  -9.921143561601642E-2   1.192738830486534E-1  
 1.065266316579145E9    -9.685426168143752E-2   1.084944816969433E-1  -7.333721595017595E-1  -6.400725871324540E-1  -7.337724006028260E-1  -6.386086750030519E-1  -9.841902248561382E-2   1.206645939906117E-1  
 1.067516879219805E9    -9.626318566501141E-2   1.070870489854462E-1  -7.374739272020002E-1  -6.363836270570754E-1  -7.377124166137273E-1  -6.337476718425751E-1  -9.800356082618236E-2   1.202977368214057E-1  
 1.069767441860465E9    -9.640543505549432E-2   1.076607511069956E-1  -7.415844145472861E-1  -6.326410669088364E-1  -7.405745823379328E-1  -6.295458173751832E-1  -9.736210510134699E-2   1.219288767891437E-1  
 1.072018004501125E9    -9.571121528744699E-2   1.077729176767310E-1  -7.451200976813415E-1  -6.263081014156341E-1  -7.426167796641248E-1  -6.253755027055742E-1  -9.695890635252000E-2   1.221497741020862E-1  
 1.074268567141785E9    -9.368478916585447E-2   1.080166494493535E-1  -7.503569075513288E-1  -6.221083527803423E-1  -7.464012942426433E-1  -6.196755355596545E-1  -9.565276138484478E-2   1.226434848649624E-1  
 1.076519129782446E9    -9.331485360860826E-2   1.092423663080884E-1  -7.530110382204520E-1  -6.168581193685532E-1  -7.491868710115068E-1  -6.151198589801790E-1  -9.512960143387320E-2   1.241495485360622E-1  
 1.078769692423106E9    -9.048229441046717E-2   1.111511532244330E-1  -7.559747940427760E-1  -6.133169734477997E-1  -7.512745027053904E-1  -6.105051988363267E-1  -9.426315762102605E-2   1.243945035021649E-1  
 1.081020255063766E9    -8.983373045921327E-2   1.122203709358740E-1  -7.588660626323049E-1  -6.074531984329223E-1  -7.544074366495707E-1  -6.054437130689623E-1  -9.409274250268937E-2   1.246657705439322E-1  
 1.083270817704426E9    -8.864371031522751E-2   1.149241809635869E-1  -7.609433631267242E-1  -6.023290705680848E-1  -7.553786905065970E-1  -6.033994990587233E-1  -9.349481895565988E-2   1.257833695491007E-1  
 1.085521380345086E9    -8.690895408391954E-2   1.161000834238845E-1  -7.630333394288512E-1  -5.977996677160263E-1  -7.576927673821959E-1  -5.997641664743423E-1  -9.347000524401666E-2   1.269610331517582E-1  
 1.087771942985746E9    -8.546297930181028E-2   1.188448423262678E-1  -7.634108026510910E-1  -5.959189516305925E-1  -7.593826553535410E-1  -5.957676547765731E-1  -9.347631372511388E-2   1.274218527682348E-1  
 1.090022505626407E9    -8.362935520708562E-2   1.214154154710201E-1  -7.661217256224634E-1  -5.906664192676545E-1  -7.609259472486585E-1  -5.934568327665329E-1  -9.173121944069863E-2   1.290634938655209E-1  
 1.092273068267067E9    -8.264415659010412E-2   1.224160299957826E-1  -7.687826409275204E-1  -5.850596606731415E-1  -7.630986908509168E-1  -5.891179972887038E-1  -9.203557178378106E-2   1.296162320153169E-1  
 1.094523630907727E9    -8.296215489506721E-2   1.230555708844778E-1  -7.710103422252088E-1  -5.802772784233095E-1  -7.668404204454262E-1  -5.855697423219681E-1  -9.102893538773062E-2   1.305010555505314E-1  
 1.096774193548387E9    -8.132793329656123E-2   1.246237277589070E-1  -7.720550974252300E-1  -5.777453303337098E-1  -7.698298649008240E-1  -5.819758540391923E-1  -9.081810601055623E-2   1.308639770302334E-1  
 1.099024756189047E9    -8.236343957483769E-2   1.250632867640816E-1  -7.739787521890075E-1  -5.733794707059861E-1  -7.720742433842807E-1  -5.791253852844240E-1  -9.075181126594542E-2   1.311991143373242E-1  
 1.101275318829707E9    -8.202624030411246E-2   1.258404987684049E-1  -7.761096127379323E-1  -5.707574617862701E-1  -7.773158746673080E-1  -5.745967429876328E-1  -8.988653570413589E-2   1.313249024395904E-1  
 1.103525881470368E9    -8.220564551651478E-2   1.253923028380360E-1  -7.796539058785068E-1  -5.674064010381699E-1  -7.790063312821576E-1  -5.721361452341079E-1  -9.008483015000821E-2   1.315763819321529E-1  
 1.105776444111028E9    -8.277575694024564E-2   1.241844586365251E-1  -7.808309447832577E-1  -5.657657217979433E-1  -7.824584833209813E-1  -5.698356354236603E-1  -9.056139931082727E-2   1.307296553230768E-1  
 1.108027006751688E9    -8.290313459932804E-2   1.226553870407209E-1  -7.838806176007129E-1  -5.619228249788284E-1  -7.857444204141401E-1  -5.665821564197541E-1  -9.042950026690960E-2   1.308288096525162E-1  
 1.110277569392348E9    -8.314687348902226E-2   1.228013206540665E-1  -7.867934269701391E-1  -5.604120355844499E-1  -7.894335921992046E-1  -5.623370844125749E-1  -8.985249832272531E-2   1.314461239842840E-1  
 1.112528132033008E9    -8.207353070378305E-2   1.211267621481316E-1  -7.897554266736316E-1  -5.553129601478577E-1  -7.941477893095065E-1  -5.575551360845564E-1  -8.883587792515756E-2   1.315980915586239E-1  
 1.114778694673668E9    -8.238586656749247E-2   1.207073442617082E-1  -7.933882979545168E-1  -5.535217815637589E-1  -7.968467303314855E-1  -5.523905295133591E-1  -8.846672289073469E-2   1.306884525433067E-1  
 1.117029257314329E9    -8.081179462373259E-2   1.193526665963561E-1  -7.965862037394252E-1  -5.496973091363907E-1  -8.006021039679100E-1  -5.486168795824051E-1  -8.845879532396793E-2   1.314358531321585E-1  
 1.119279819954989E9    -8.031695231795312E-2   1.187247671065955E-1  -8.004958061682935E-1  -5.468019652366638E-1  -8.035036067498594E-1  -5.454306548833847E-1  -8.698412992060184E-2   1.312441577285043E-1  
 1.121530382595649E9    -7.898630566895010E-2   1.183536679879666E-1  -8.055426739457492E-1  -5.414856076240541E-1  -8.055246565386152E-1  -5.388324838876726E-1  -8.532099090516568E-2   1.320133596544576E-1  
 1.123780945236309E9    -7.695912338793280E-2   1.176651202873413E-1  -8.085160070857700E-1  -5.382595568895341E-1  -8.085775922132514E-1  -5.337432134151460E-1  -8.328209333121779E-2   1.314326471693829E-1  
 1.126031507876969E9    -7.614597916603090E-2   1.180075597033313E-1  -8.126973543813343E-1  -5.333372622728347E-1  -8.104620155051761E-1  -5.287756693363191E-1  -8.242554336786272E-2   1.327684433951146E-1  
 1.128282070517629E9    -7.467309758067132E-2   1.177140431006663E-1  -8.159137552208732E-1  -5.276217484474183E-1  -8.134532274440025E-1  -5.240974074602128E-1  -8.140168569982052E-2   1.321332427456808E-1  
 1.130532633158290E9    -7.263608142733576E-2   1.201984953747078E-1  -8.197248521186211E-1  -5.225930708646774E-1  -8.146169626470832E-1  -5.185971903800964E-1  -7.977357566356662E-2   1.326772126889778E-1  
 1.132783195798950E9    -7.195633500814437E-2   1.215751098866490E-1  -8.219179101764325E-1  -5.165650182962419E-1  -8.169417733172513E-1  -5.147698968648911E-1  -7.987567976117135E-2   1.336072497749846E-1  
 1.135033758439610E9    -6.995088450610638E-2   1.227094573187689E-1  -8.245352652908868E-1  -5.111556869745255E-1  -8.186450328928699E-1  -5.104742699861526E-1  -7.851265549659731E-2   1.345160872277603E-1  
 1.137284321080270E9    -6.880337871611120E-2   1.262532488212692E-1  -8.268585566547593E-1  -5.061126041412354E-1  -8.208323615276041E-1  -5.077618849277497E-1  -7.745823144912720E-2   1.353976219776295E-1  
 1.139534883720930E9    -6.752582721412181E-2   1.277724279574756E-1  -8.294261365288941E-1  -5.014933186769486E-1  -8.217623012945440E-1  -5.032879072427751E-1  -7.763878732919695E-2   1.376605921532718E-1  
 1.141785446361590E9    -6.693002700805664E-2   1.308784346507693E-1  -8.305818074182795E-1  -4.963634350895881E-1  -8.235963490418522E-1  -4.996005114912986E-1  -7.690385110676290E-2   1.387207190364350E-1  
 1.144036009002251E9    -6.649624124169351E-2   1.328487709976929E-1  -8.317862906726644E-1  -4.911666220426561E-1  -8.248830060416991E-1  -4.953843542933464E-1  -7.722099915146830E-2   1.401833655935272E-1  
 1.146286571642911E9    -6.609192825853824E-2   1.356238785012957E-1  -8.329536192584897E-1  -4.868107053637505E-1  -8.276782450344289E-1  -4.922173085808754E-1  -7.558848440647127E-2   1.409465447641099E-1  
 1.148537134283571E9    -6.715023130178451E-2   1.375681142814355E-1  -8.341494370943509E-1  -4.812654867768288E-1  -8.302970618397065E-1  -4.881715422868729E-1  -7.544532790780066E-2   1.424530311392625E-1  
 1.150787696924231E9    -6.594625361263752E-2   1.381565659099158E-1  -8.366002639073308E-1  -4.775340154767037E-1  -8.326606601794684E-1  -4.866505771875382E-1  -7.553781807422638E-2   1.432860757308614E-1  
 1.153038259564891E9    -6.670352965593338E-2   1.386794624566099E-1  -8.353692802933880E-1  -4.738187843561174E-1  -8.346497853095328E-1  -4.820590782165528E-1  -7.475963085889818E-2   1.440172624257965E-1  
 1.155288822205551E9    -6.739798136055469E-2   1.381950839610861E-1  -8.377393189516205E-1  -4.704980799555779E-1  -8.377981951691946E-1  -4.786020609736443E-1  -7.588187679648401E-2   1.436787090870709E-1  
 1.157539384846211E9    -6.802908062934877E-2   1.388389495844434E-1  -8.403302761103169E-1  -4.664663484692574E-1  -8.418431165603568E-1  -4.746720007061959E-1  -7.561428956687451E-2   1.437845096652164E-1  
 1.159789947486872E9    -6.905507959425450E-2   1.375374172380869E-1  -8.411064318049264E-1  -4.634898394346237E-1  -8.451059499840432E-1  -4.714321243762971E-1  -7.492564976215364E-2   1.432602863106420E-1  
 1.162040510127532E9    -6.883885912597179E-2   1.361809067256487E-1  -8.436451580788495E-1  -4.619609656929971E-1  -8.485688638808824E-1  -4.670907545089723E-1  -7.529679819941521E-2   1.426960591686476E-1  
 1.164291072768192E9    -6.930644474923613E-2   1.346128572723108E-1  -8.453979334630316E-1  -4.590537738800050E-1  -8.522176885962303E-1  -4.635320141911507E-1  -7.541708864271642E-2   1.428079793149381E-1  
 1.166541635408852E9    -6.897928215563298E-2   1.324644151129393E-1  -8.492250427250725E-1  -4.563223353028297E-1  -8.552066964167917E-1  -4.588092759251595E-1  -7.514305979013443E-2   1.416230968209951E-1  
 1.168792198049512E9    -6.928481817245484E-2   1.321291594214287E-1  -8.523755172687595E-1  -4.535480383038520E-1  -8.581961442228825E-1  -4.533939445018768E-1  -7.458486333489418E-2   1.414410443101542E-1  
 1.171042760690172E9    -6.848901189863682E-2   1.310073414815912E-1  -8.560410972637809E-1  -4.497080767154694E-1  -8.609966487177543E-1  -4.480882367491723E-1  -7.345048144459725E-2   1.427918645763446E-1  
 1.173293323330833E9    -6.628026045858862E-2   1.292066850266099E-1  -8.589245372372145E-1  -4.454611930251122E-1  -8.627746133598617E-1  -4.431532895565034E-1  -7.165995664894583E-2   1.420345099148254E-1  
 1.175543885971493E9    -6.458742305636406E-2   1.288097519851914E-1  -8.630425223416194E-1  -4.435053390264512E-1  -8.645866435739619E-1  -4.389315512776375E-1  -6.938380599021911E-2   1.424122772363594E-1  
 1.177794448612153E9    -6.252566076815129E-2   1.287541498705311E-1  -8.676960320999685E-1  -4.363926184177400E-1  -8.686103349991396E-1  -4.321510717272759E-1  -6.754175327718259E-2   1.420763644714859E-1  
 1.180045011252813E9    -6.078104261308910E-2   1.285892536810468E-1  -8.712309236499106E-1  -4.315350186824800E-1  -8.695888156874831E-1  -4.268870052695276E-1  -6.581377238035203E-2   1.422361948126287E-1  
 1.182295573893473E9    -5.918764337897301E-2   1.279721863612892E-1  -8.749503507047776E-1  -4.271852785348893E-1  -8.710366002716123E-1  -4.212098097801209E-1  -6.227560754865408E-2   1.424861017957340E-1  
 1.184546136534133E9    -5.643887970596553E-2   1.300240828931282E-1  -8.775958810781201E-1  -4.215417370200157E-1  -8.720614221869821E-1  -4.176692453026772E-1  -6.085691682994366E-2   1.428064064411541E-1  
 1.186796699174794E9    -5.600735470652581E-2   1.306900586011046E-1  -8.802935147221283E-1  -4.139585983753205E-1  -8.737556451282390E-1  -4.118886122107506E-1  -5.939821951091291E-2   1.431366483130260E-1  
 1.189047261815454E9    -5.379829980432988E-2   1.335210536686482E-1  -8.821475271449845E-1  -4.085197687149048E-1  -8.748897988673066E-1  -4.071337783336639E-1  -5.748861674219370E-2   1.438294269304227E-1  
 1.191297824456114E9    -5.223562955856323E-2   1.354284381012117E-1  -8.838239720139898E-1  -4.025008380413055E-1  -8.760434679176865E-1  -4.030456897616387E-1  -5.657997783273458E-2   1.455700801964872E-1  
 1.193548387096774E9    -5.217889413237572E-2   1.382369216448350E-1  -8.852823849287788E-1  -3.971666777133943E-1  -8.778775832471081E-1  -3.989818695187570E-1  -5.505403283983471E-2   1.478448488214159E-1  
 1.195798949737434E9    -5.097786668688060E-2   1.417877552518617E-1  -8.853525758407449E-1  -3.911830043792725E-1  -8.788111618292522E-1  -3.942943716049195E-1  -5.371171858161689E-2   1.491958627428268E-1  
 1.198049512378094E9    -4.970907252281905E-2   1.436002483458573E-1  -8.871216158143772E-1  -3.850747033953667E-1  -8.806500542288592E-1  -3.910337176918983E-1  -5.291507024317980E-2   1.504185805949340E-1  
 1.200300075018755E9    -4.951850604265928E-2   1.459427248838207E-1  -8.880108280778624E-1  -3.798525747656822E-1  -8.824005098698600E-1  -3.872666007280350E-1  -5.247435379773379E-2   1.523214134269360E-1  
 1.202550637659415E9    -4.997179355472326E-2   1.481368503987679E-1  -8.880760747002959E-1  -3.758330640196801E-1  -8.838033799797658E-1  -3.833685350418091E-1  -5.297344043850899E-2   1.541379750109528E-1  
 1.204801200300075E9    -5.039702218025923E-2   1.485469052647118E-1  -8.878091449889082E-1  -3.687530326843262E-1  -8.860679499957056E-1  -3.795433399081231E-1  -5.223678570240736E-2   1.575566105949432E-1  
 1.207051762940735E9    -4.911758728325368E-2   1.504656855579551E-1  -8.885999737636836E-1  -3.668898916244506E-1  -8.870792956956498E-1  -3.769648066163063E-1  -5.192292928695679E-2   1.584405888871139E-1  
 1.209302325581395E9    -5.135126437991858E-2   1.497770728086042E-1  -8.890890214081304E-1  -3.622597682476044E-1  -8.899061700254169E-1  -3.726859623193741E-1  -5.268954999744893E-2   1.590842189999383E-1  
