#  HZ   S   RI   R     50.0 
! Rohde & Schwarz ZVL13 2Ports - Version 3.31 - 1303.6509k13 SN: 101088
! Date: 2023-03-09 14:14:41
! Data & Calibration Information:
! Trc4:S11(TOSM) Trc2:S21(TOSM) Trc3:S12(TOSM) Trc5:S22(TOSM)
! 
! 
! 
 1.000000000000000E9    -9.916760772466660E-2   9.267810286543712E-2  -6.317196730043395E-1  -7.386209964752197E-1  -6.327291967420500E-1  -7.408289909362793E-1  -1.066797450184822E-1   9.679587477014522E-2  
 1.002250562640660E9    -9.958125650882721E-2   9.177388908584641E-2  -6.372314749852024E-1  -7.355811595916748E-1  -6.365441944462724E-1  -7.384581565856934E-1  -1.087384000420570E-1   9.643945906381565E-2  
 1.004501125281320E9    -1.014870032668114E-1   9.335598910278953E-2  -6.410908178709368E-1  -7.333213686943054E-1  -6.414311836762877E-1  -7.338677644729614E-1  -1.099712848663330E-1   9.576409828073755E-2  
 1.006751687921981E9    -1.031206250190735E-1   9.279933359819088E-2  -6.444512434116601E-1  -7.300246357917786E-1  -6.452983315437672E-1  -7.312651276588440E-1  -1.111051291227341E-1   9.685083504731210E-2  
 1.009002250562641E9    -1.053289249539375E-1   9.175073276450607E-2  -6.491876612933105E-1  -7.277612090110779E-1  -6.493786571989871E-1  -7.277002930641174E-1  -1.114214956760407E-1   9.759196785428444E-2  
 1.011252813203301E9    -1.045255884528160E-1   9.078520370565058E-2  -6.547375667531695E-1  -7.237938046455383E-1  -6.555326089715932E-1  -7.223850488662720E-1  -1.110308393836021E-1   9.784242516175920E-2  
 1.013503375843961E9    -1.044134348630905E-1   8.998189822499858E-2  -6.594858473485266E-1  -7.187247872352600E-1  -6.586857724082282E-1  -7.196182608604431E-1  -1.111161783337593E-1   9.749302252962247E-2  
 1.015753938484621E9    -1.034618318080902E-1   8.878837466317552E-2  -6.644022863238719E-1  -7.153547406196594E-1  -6.620905677173337E-1  -7.138080596923828E-1  -1.109994277358055E-1   9.901528284731326E-2  
 1.018004501125281E9    -1.022245138883591E-1   8.912218176635840E-2  -6.663625065699320E-1  -7.119922637939453E-1  -6.663999394532975E-1  -7.094190716743469E-1  -1.104740947484970E-1   9.792454737233984E-2  
 1.020255063765942E9    -1.004134863615036E-1   9.006173360246830E-2  -6.714315064947736E-1  -7.059913277626038E-1  -6.687256972842651E-1  -7.056511044502258E-1  -1.076266914606094E-1   9.912098218166258E-2  
 1.022505626406602E9    -9.841682761907578E-2   8.911357974056262E-2  -6.751305589178345E-1  -7.022766470909119E-1  -6.728810345216950E-1  -7.011100649833679E-1  -1.079108268022537E-1   1.002554722495960E-1  
 1.024756189047262E9    -9.689741581678391E-2   9.172725096825217E-2  -6.786301999899732E-1  -6.968537569046021E-1  -6.741012001590979E-1  -6.975588798522949E-1  -1.064689829945564E-1   1.013284573100566E-1  
 1.027006751687922E9    -9.541003406047821E-2   9.121627924338302E-2  -6.827670694704375E-1  -6.924448609352112E-1  -6.776852116784538E-1  -6.911637783050537E-1  -1.058115959167481E-1   1.019067186043002E-1  
 1.029257314328582E9    -9.332864731550217E-2   9.312823811530316E-2  -6.845902372904716E-1  -6.882343888282776E-1  -6.826239067713875E-1  -6.876564621925354E-1  -1.039159074425697E-1   1.036683568858032E-1  
 1.031507876969242E9    -9.013958275318146E-2   9.682635116458804E-2  -6.869465327020530E-1  -6.850793957710266E-1  -6.828371414006834E-1  -6.878148913383484E-1  -1.023144498467445E-1   1.059861765082522E-1  
 1.033758439609903E9    -8.957128971815109E-2   9.761723056486761E-2  -6.899430175072888E-1  -6.798691153526306E-1  -6.851523598707100E-1  -6.826128363609314E-1  -1.011571958661079E-1   1.088353556714572E-1  
 1.036009002250563E9    -8.778180927038193E-2   1.014371620322324E-1  -6.923421384975761E-1  -6.758978366851807E-1  -6.879875223591674E-1  -6.789095401763916E-1  -1.003685370087624E-1   1.108220969482356E-1  
 1.038259564891223E9    -8.594065159559250E-2   1.035083270760439E-1  -6.948030752482637E-1  -6.733996868133545E-1  -6.906257379545303E-1  -6.756746172904968E-1  -9.945543110370636E-2   1.117211005682741E-1  
 1.040510127531883E9    -8.533022552728653E-2   1.073947778674151E-1  -6.966857564546848E-1  -6.700541377067566E-1  -6.932157465542805E-1  -6.727238297462463E-1  -9.869007021188736E-2   1.130010314780716E-1  
 1.042760690172543E9    -8.485961705446243E-2   1.076590392802598E-1  -6.997647588830651E-1  -6.663709282875061E-1  -6.964124466532831E-1  -6.705571413040161E-1  -9.784118086099625E-2   1.135428372119919E-1  
 1.045011252813203E9    -8.509074151515961E-2   1.104995553439944E-1  -7.013689902968552E-1  -6.638752818107605E-1  -7.008385572624671E-1  -6.673981547355652E-1  -9.677097201347351E-2   1.146141290830579E-1  
 1.047261815453864E9    -8.673673123121262E-2   1.106818672540086E-1  -7.053230810670287E-1  -6.593608260154724E-1  -7.034055667370894E-1  -6.650285124778748E-1  -9.771338850259781E-2   1.154437571399808E-1  
 1.049512378094524E9    -8.774359524250031E-2   1.106896878802518E-1  -7.079900521780221E-1  -6.574566364288330E-1  -7.079585339570312E-1  -6.614511609077454E-1  -9.830115735530853E-2   1.157880059534443E-1  
 1.051762940735184E9    -9.041564911603928E-2   1.105746438084507E-1  -7.108948346642523E-1  -6.545878052711487E-1  -7.116754720335089E-1  -6.599979400634766E-1  -9.906644374132156E-2   1.140156310535233E-1  
 1.054013503375844E9    -9.205596148967743E-2   1.098370292073004E-1  -7.146959702425879E-1  -6.516377925872803E-1  -7.163626210743974E-1  -6.554647088050842E-1  -9.958630055189133E-2   1.158545996211078E-1  
 1.056264066016504E9    -9.496585279703140E-2   1.082714576730077E-1  -7.186766137205305E-1  -6.482130289077759E-1  -7.218838370276770E-1  -6.513005495071411E-1  -1.004271134734154E-1   1.162449106008018E-1  
 1.058514628657164E9    -9.646251797676086E-2   1.087358247820613E-1  -7.215316233748261E-1  -6.464841961860657E-1  -7.251258886805249E-1  -6.474755406379700E-1  -1.001642793416977E-1   1.156350643479963E-1  
 1.060765191297825E9    -9.728562086820602E-2   1.067598336434326E-1  -7.272919865547436E-1  -6.412026882171631E-1  -7.290737883683390E-1  -6.438157558441162E-1  -1.013354733586311E-1   1.159679163286037E-1  
 1.063015753938485E9    -9.808163344860077E-2   1.067526918118645E-1  -7.296754423143352E-1  -6.395845413208008E-1  -7.340719632285714E-1  -6.384126543998718E-1  -1.011588349938393E-1   1.168423526534448E-1  
 1.065266316579145E9    -9.881257265806198E-2   1.063385823357463E-1  -7.351368506295943E-1  -6.363274455070496E-1  -7.364057312428026E-1  -6.341467499732971E-1  -1.004960462450981E-1   1.185310223807638E-1  
 1.067516879219805E9    -9.900514781475067E-2   1.036559482831196E-1  -7.395712333562649E-1  -6.314710974693298E-1  -7.402065942001092E-1  -6.288286447525024E-1  -1.003957465291023E-1   1.174135711749538E-1  
 1.069767441860465E9    -9.868671745061874E-2   1.039417388608147E-1  -7.435112557643961E-1  -6.274395585060120E-1  -7.430470929745363E-1  -6.251502633094788E-1  -9.923696517944336E-2   1.192750257505232E-1  
 1.072018004501125E9    -9.781012684106827E-2   1.034773163520763E-1  -7.468441149809150E-1  -6.216486692428589E-1  -7.451378841803542E-1  -6.210623979568481E-1  -9.807989746332169E-2   1.195800880542964E-1  
 1.074268567141785E9    -9.528312087059021E-2   1.030444912041316E-1  -7.528184195723385E-1  -6.150580644607544E-1  -7.491062267667255E-1  -6.140451431274414E-1  -9.639474004507065E-2   1.198764201026776E-1  
 1.076519129782446E9    -9.461266547441483E-2   1.050981906859705E-1  -7.548603536726222E-1  -6.122975349426270E-1  -7.504764619601159E-1  -6.118443608283997E-1  -9.492296725511551E-2   1.221773237074150E-1  
 1.078769692423106E9    -9.057700634002686E-2   1.068426706898806E-1  -7.580447469789091E-1  -6.082282066345215E-1  -7.535787859673402E-1  -6.051664948463440E-1  -9.336047619581223E-2   1.229837514051662E-1  
 1.081020255063766E9    -8.968309313058853E-2   1.082768083610810E-1  -7.604953084788287E-1  -6.017009019851685E-1  -7.558949467477172E-1  -6.013436913490295E-1  -9.222545474767685E-2   1.237338577740342E-1  
 1.083270817704426E9    -8.783735334873200E-2   1.119074655036372E-1  -7.623474101685602E-1  -5.966536402702332E-1  -7.569938571068179E-1  -5.995203256607056E-1  -9.083674848079681E-2   1.253282297899534E-1  
 1.085521380345086E9    -8.527027815580368E-2   1.140469143436322E-1  -7.639847063698290E-1  -5.920246243476868E-1  -7.592902004355028E-1  -5.952945351600647E-1  -8.990211039781570E-2   1.270581052238593E-1  
 1.087771942985746E9    -8.309329301118851E-2   1.174764482449437E-1  -7.652450874683252E-1  -5.906066894531250E-1  -7.618166507753066E-1  -5.904625058174133E-1  -8.951532095670700E-2   1.283413115365682E-1  
 1.090022505626407E9    -8.069662749767304E-2   1.209000289806738E-1  -7.675937714941399E-1  -5.851798653602600E-1  -7.625068987233230E-1  -5.887519121170044E-1  -8.720061182975769E-2   1.298820824095788E-1  
 1.092273068267067E9    -7.956335693597794E-2   1.227534806958668E-1  -7.703907297378124E-1  -5.779429674148560E-1  -7.648733110199218E-1  -5.839923620223999E-1  -8.716654032468796E-2   1.309972805073604E-1  
 1.094523630907727E9    -7.941621541976929E-2   1.232868795327627E-1  -7.703499040431847E-1  -5.760823488235474E-1  -7.692829396994525E-1  -5.801808834075928E-1  -8.587480336427689E-2   1.316916832980643E-1  
 1.096774193548387E9    -7.817988097667694E-2   1.261722358614019E-1  -7.732931709031027E-1  -5.732234120368958E-1  -7.714551301535232E-1  -5.781167745590210E-1  -8.672823756933212E-2   1.322171957489668E-1  
 1.099024756189047E9    -7.945895195007324E-2   1.269004842717298E-1  -7.752576045108965E-1  -5.686603188514710E-1  -7.752221918980812E-1  -5.746361017227173E-1  -8.686336129903793E-2   1.327259943694018E-1  
 1.101275318829707E9    -8.013494312763214E-2   1.273638081893055E-1  -7.772233857363279E-1  -5.658910870552063E-1  -7.801863493559328E-1  -5.704860091209412E-1  -8.701612055301666E-2   1.325885043714316E-1  
 1.103525881470368E9    -8.002891391515732E-2   1.268843655885489E-1  -7.814209019044250E-1  -5.619973540306091E-1  -7.815986382651972E-1  -5.672703981399536E-1  -8.826552331447601E-2   1.330733587070340E-1  
 1.105776444111028E9    -8.194763958454132E-2   1.251956310690157E-1  -7.832787729367875E-1  -5.598593950271606E-1  -7.853129865834018E-1  -5.665333271026611E-1  -8.936565369367600E-2   1.313547928815506E-1  
 1.108027006751688E9    -8.305288106203079E-2   1.232671586255618E-1  -7.862124519195775E-1  -5.565392971038818E-1  -7.885723440911129E-1  -5.621981024742127E-1  -9.014171361923218E-2   1.310819469527137E-1  
 1.110277569392348E9    -8.366264402866364E-2   1.229764862197316E-1  -7.889821819771057E-1  -5.549038648605347E-1  -7.924965310085905E-1  -5.569228529930115E-1  -9.049352258443832E-2   1.311524392712609E-1  
 1.112528132033008E9    -8.367047458887100E-2   1.206023856474348E-1  -7.914190193559869E-1  -5.504479408264160E-1  -7.967795080084072E-1  -5.533892512321472E-1  -9.072131663560867E-2   1.307908844818376E-1  
 1.114778694673668E9    -8.448369801044464E-2   1.195350951813218E-1  -7.952075760568342E-1  -5.485885143280029E-1  -8.002783898468653E-1  -5.482127666473389E-1  -9.122829884290695E-2   1.296789786486124E-1  
 1.117029257314329E9    -8.318604528903961E-2   1.171712000593024E-1  -7.990702480875556E-1  -5.437595844268799E-1  -8.036006872935723E-1  -5.444420576095581E-1  -9.131789952516556E-2   1.300720908145470E-1  
 1.119279819954989E9    -8.322937786579132E-2   1.155209483681075E-1  -8.027584748750023E-1  -5.418980717658997E-1  -8.066601233063171E-1  -5.397292971611023E-1  -9.014404565095902E-2   1.298817016856026E-1  
 1.121530382595649E9    -8.129641413688660E-2   1.147886003887854E-1  -8.073520326414041E-1  -5.367842316627502E-1  -8.077880227623627E-1  -5.343376994132996E-1  -8.833805471658707E-2   1.305075630952264E-1  
 1.123780945236309E9    -7.941314578056335E-2   1.137155587679038E-1  -8.115000480448651E-1  -5.304942131042481E-1  -8.108675392828052E-1  -5.291609764099121E-1  -8.612709492444992E-2   1.294058431520210E-1  
 1.126031507876969E9    -7.796839624643326E-2   1.138181409415541E-1  -8.135921068983357E-1  -5.284784436225891E-1  -8.135200216138320E-1  -5.228479504585266E-1  -8.531232178211212E-2   1.307811883895340E-1  
 1.128282070517629E9    -7.611898332834244E-2   1.135192846088180E-1  -8.174981354576633E-1  -5.216870903968811E-1  -8.154861983581692E-1  -5.197904109954834E-1  -8.325263112783432E-2   1.303216557714271E-1  
 1.130532633158290E9    -7.360831648111343E-2   1.167959536920187E-1  -8.202313130894935E-1  -5.174083709716797E-1  -8.167076763250859E-1  -5.140716433525085E-1  -8.048187941312790E-2   1.312455223821422E-1  
 1.132783195798950E9    -7.217534631490707E-2   1.182632443864078E-1  -8.229822653369302E-1  -5.109893679618835E-1  -8.182827641663357E-1  -5.092926621437073E-1  -7.963763922452927E-2   1.319118361004937E-1  
 1.135033758439610E9    -6.952489912509918E-2   1.201571773975784E-1  -8.256196935648862E-1  -5.058224201202393E-1  -8.206041731059344E-1  -5.049029588699341E-1  -7.710254192352295E-2   1.334433440738533E-1  
 1.137284321080270E9    -6.770098209381104E-2   1.240708707862137E-1  -8.277890016650514E-1  -5.013235211372376E-1  -8.238606621402133E-1  -5.001732110977173E-1  -7.587916404008865E-2   1.342121145474517E-1  
 1.139534883720930E9    -6.511045992374420E-2   1.272934613582074E-1  -8.297581218954855E-1  -4.962260425090790E-1  -8.230264349927925E-1  -4.991247653961182E-1  -7.406529039144516E-2   1.371967710962418E-1  
 1.141785446361590E9    -6.377738714218140E-2   1.306557580223773E-1  -8.312739926466644E-1  -4.903987646102905E-1  -8.244584379825959E-1  -4.947047829627991E-1  -7.306025922298431E-2   1.392414876905310E-1  
 1.144036009002251E9    -6.345099210739136E-2   1.328812542258364E-1  -8.325729304347370E-1  -4.859665632247925E-1  -8.269627718539121E-1  -4.903736412525177E-1  -7.341698557138443E-2   1.403206290775924E-1  
 1.146286571642911E9    -6.267344951629639E-2   1.369231607905244E-1  -8.345115337320671E-1  -4.813122749328613E-1  -8.288619220806563E-1  -4.869000017642975E-1  -7.160126417875290E-2   1.414767911747756E-1  
 1.148537134283571E9    -6.333734095096588E-2   1.396124480562199E-1  -8.347306685385174E-1  -4.762229621410370E-1  -8.316318965873319E-1  -4.842189550399780E-1  -7.092201709747315E-2   1.428955904205895E-1  
 1.150787696924231E9    -6.334669888019562E-2   1.400063698919298E-1  -8.371815921226531E-1  -4.724260866641998E-1  -8.347432583960028E-1  -4.822229444980621E-1  -7.123492658138275E-2   1.437122743309515E-1  
 1.153038259564891E9    -6.498799473047257E-2   1.409992145183528E-1  -8.367500889581798E-1  -4.686316549777985E-1  -8.365239672489789E-1  -4.772078096866608E-1  -7.104652374982834E-2   1.445117376159840E-1  
 1.155288822205551E9    -6.555936485528946E-2   1.405670312791524E-1  -8.395198002706430E-1  -4.651190638542175E-1  -8.394733644320792E-1  -4.746739566326141E-1  -7.329621165990830E-2   1.442608370704269E-1  
 1.157539384846211E9    -6.731656938791275E-2   1.402509157826726E-1  -8.417737416573299E-1  -4.624775350093842E-1  -8.449121330324853E-1  -4.694628119468689E-1  -7.368642091751099E-2   1.441583959052688E-1  
 1.159789947486872E9    -6.894876807928085E-2   1.380041191140418E-1  -8.425199628415026E-1  -4.592591524124146E-1  -8.474618986409392E-1  -4.677860140800476E-1  -7.389067858457565E-2   1.432977246020939E-1  
 1.162040510127532E9    -6.961867213249207E-2   1.359221771307796E-1  -8.449495798364638E-1  -4.571377933025360E-1  -8.508773973098408E-1  -4.627139866352081E-1  -7.571916282176971E-2   1.426260812944517E-1  
 1.164291072768192E9    -7.051067799329758E-2   1.339663349046275E-1  -8.477630983285271E-1  -4.537369906902313E-1  -8.548149770426823E-1  -4.586491882801056E-1  -7.657582312822342E-2   1.428492625074828E-1  
 1.166541635408852E9    -7.113115489482880E-2   1.304289322460239E-1  -8.515777775808699E-1  -4.513721466064453E-1  -8.574289894515984E-1  -4.540564715862274E-1  -7.659825682640076E-2   1.411032715077843E-1  
 1.168792198049512E9    -7.141950726509094E-2   1.295145819572852E-1  -8.546927004109612E-1  -4.479181766510010E-1  -8.616392598351542E-1  -4.480516910552979E-1  -7.754635065793991E-2   1.401006663107360E-1  
 1.171042760690172E9    -7.144170254468918E-2   1.270053772646947E-1  -8.574967612227106E-1  -4.451931118965149E-1  -8.630806692198785E-1  -4.420402646064758E-1  -7.644426822662354E-2   1.419921442409343E-1  
 1.173293323330833E9    -6.876281648874283E-2   1.247879326411269E-1  -8.601524345693358E-1  -4.407713115215302E-1  -8.652287083316814E-1  -4.383497834205627E-1  -7.455787807703018E-2   1.404847471648607E-1  
 1.175543885971493E9    -6.737402081489563E-2   1.237223266701924E-1  -8.647865339559360E-1  -4.376630187034607E-1  -8.679114648565784E-1  -4.332255721092224E-1  -7.220013439655304E-2   1.411310266932004E-1  
 1.177794448612153E9    -6.456085294485092E-2   1.233212259795269E-1  -8.694201070265206E-1  -4.304335713386536E-1  -8.705932774643181E-1  -4.270673692226410E-1  -7.006058841943741E-2   1.401500961888867E-1  
 1.180045011252813E9    -6.258524954319000E-2   1.237929596112216E-1  -8.727110061619883E-1  -4.272468090057373E-1  -8.714327707742607E-1  -4.219662547111511E-1  -6.809205561876297E-2   1.404636849147727E-1  
 1.182295573893473E9    -6.038745120167732E-2   1.231868396892191E-1  -8.761611474771839E-1  -4.215581119060516E-1  -8.729822834299830E-1  -4.165458083152771E-1  -6.310254335403442E-2   1.402783705879905E-1  
 1.184546136534133E9    -5.665262416005135E-2   1.254789305196520E-1  -8.784743704341880E-1  -4.153774082660675E-1  -8.741755145431767E-1  -4.118310511112213E-1  -6.123612448573113E-2   1.405498958763640E-1  
 1.186796699174794E9    -5.537426844239235E-2   1.273909698984566E-1  -8.815816943372459E-1  -4.083923995494843E-1  -8.755049372783482E-1  -4.059082269668579E-1  -5.878515914082527E-2   1.411007433948703E-1  
 1.189047261815454E9    -5.344229936599731E-2   1.306400762879906E-1  -8.823203892362281E-1  -4.022207260131836E-1  -8.773354805368354E-1  -3.990104198455811E-1  -5.571300908923149E-2   1.414020727387782E-1  
 1.191297824456114E9    -5.009124055504799E-2   1.340017048257679E-1  -8.841843741153541E-1  -3.967283964157105E-1  -8.765347065266474E-1  -3.989284634590149E-1  -5.327095091342926E-2   1.433325906682267E-1  
 1.193548387096774E9    -4.951037093997002E-2   1.380553482558289E-1  -8.858949194564881E-1  -3.912350237369537E-1  -8.797937043737902E-1  -3.939103782176971E-1  -5.132707580924034E-2   1.462657210839530E-1  
 1.195798949737434E9    -4.827126115560532E-2   1.422972413807740E-1  -8.857520867512030E-1  -3.852233290672302E-1  -8.800494780998097E-1  -3.894168734550476E-1  -4.970289766788483E-2   1.472664248933412E-1  
 1.198049512378094E9    -4.802881553769112E-2   1.460843452255151E-1  -8.876846285958271E-1  -3.789276480674744E-1  -8.822030073763760E-1  -3.855197727680206E-1  -4.864532873034477E-2   1.494071024940455E-1  
 1.200300075018755E9    -4.649725556373596E-2   1.479644916451603E-1  -8.888032906829573E-1  -3.744377195835114E-1  -8.837290202587311E-1  -3.824407160282135E-1  -4.826840758323669E-2   1.523457389935845E-1  
 1.202550637659415E9    -4.676428437232971E-2   1.510300265633592E-1  -8.879789216674249E-1  -3.696547746658325E-1  -8.854654137632945E-1  -3.789792656898499E-1  -4.850086569786072E-2   1.540746762293868E-1  
 1.204801200300075E9    -4.863866418600082E-2   1.519036339918989E-1  -8.880730707206408E-1  -3.637062013149262E-1  -8.869764051294068E-1  -3.747128844261169E-1  -4.811682924628258E-2   1.569255882044652E-1  
 1.207051762940735E9    -4.700905084609985E-2   1.536409690423353E-1  -8.890385180916738E-1  -3.619286417961121E-1  -8.881141739975029E-1  -3.724084198474884E-1  -4.901371151208878E-2   1.584576730345776E-1  
 1.209302325581395E9    -5.054694786667824E-2   1.522441984651431E-1  -8.902649940259919E-1  -3.569773137569428E-1  -8.918094878253464E-1  -3.671725094318390E-1  -5.079134553670883E-2   1.599626614543913E-1  
