#  HZ   S   RI   R     50.0 
! Rohde & Schwarz ZVL13 2Ports - Version 3.31 - 1303.6509k13 SN: 101088
! Date: 2023-03-09 14:14:08
! Data & Calibration Information:
! Trc4:S11(TOSM) Trc2:S21(TOSM) Trc3:S12(TOSM) Trc5:S22(TOSM)
! 
! 
! 
 1.000000000000000E9    -9.873153269290924E-2   9.341784707190237E-2  -6.322969854386382E-1  -7.380833625793457E-1  -6.334371359836850E-1  -7.395235896110535E-1  -1.068296208977699E-1   9.663197839510769E-2  
 1.002250562640660E9    -9.969410300254822E-2   9.241337539966156E-2  -6.372085823264355E-1  -7.355703711509705E-1  -6.363717345951969E-1  -7.391115427017212E-1  -1.092336177825928E-1   9.619260519936457E-2  
 1.004501125281320E9    -1.015381813049316E-1   9.321685446790186E-2  -6.405862331312198E-1  -7.326061725616455E-1  -6.429428254260229E-1  -7.336208224296570E-1  -1.095346212387085E-1   9.650488610235440E-2  
 1.006751687921981E9    -1.029048785567284E-1   9.296383096551708E-2  -6.446956367130098E-1  -7.293792963027954E-1  -6.462549240089536E-1  -7.307714819908142E-1  -1.112629398703575E-1   9.717879575963770E-2  
 1.009002250562641E9    -1.051968261599541E-1   9.160600685697307E-2  -6.485541437592778E-1  -7.264038324356079E-1  -6.498465681586668E-1  -7.277758717536926E-1  -1.114495322108269E-1   9.762731730450934E-2  
 1.011252813203301E9    -1.048094779253006E-1   9.096110326707360E-2  -6.541770545765989E-1  -7.236678600311279E-1  -6.550536830170631E-1  -7.223886251449585E-1  -1.110246777534485E-1   9.758283222508149E-2  
 1.013503375843961E9    -1.046102717518807E-1   9.005899158220859E-2  -6.588266425928477E-1  -7.188965082168579E-1  -6.587198513388455E-1  -7.183547616004944E-1  -1.105409190058708E-1   9.749907948100278E-2  
 1.015753938484621E9    -1.040691286325455E-1   8.826795927082984E-2  -6.636061121541160E-1  -7.147373557090759E-1  -6.629718829640331E-1  -7.127371430397034E-1  -1.106164678931236E-1   9.946496937190993E-2  
 1.018004501125281E9    -1.020012497901917E-1   8.916279161361872E-2  -6.671067535977210E-1  -7.111535668373108E-1  -6.666086215239756E-1  -7.095936536788940E-1  -1.100346893072128E-1   9.813927397480278E-2  
 1.020255063765942E9    -1.007058396935463E-1   8.901832913408499E-2  -6.712039047891667E-1  -7.069230675697327E-1  -6.690744666205453E-1  -7.044509053230286E-1  -1.077091544866562E-1   9.954086651118356E-2  
 1.022505626406602E9    -9.843626618385315E-2   8.894807137232279E-2  -6.750353554206452E-1  -7.023616433143616E-1  -6.728361223563546E-1  -7.012880444526672E-1  -1.078638806939125E-1   1.003395793185333E-1  
 1.024756189047262E9    -9.677578508853912E-2   9.221053870519953E-2  -6.785105533579229E-1  -6.972579360008240E-1  -6.744270095075526E-1  -6.986404061317444E-1  -1.064302995800972E-1   1.010727148721610E-1  
 1.027006751687922E9    -9.543616324663162E-2   9.109990093671876E-2  -6.827834758306637E-1  -6.916202902793884E-1  -6.777578107275265E-1  -6.912944912910461E-1  -1.056835278868675E-1   1.018922127557464E-1  
 1.029257314328582E9    -9.354474395513535E-2   9.319862426748123E-2  -6.843451477838733E-1  -6.885172724723816E-1  -6.815345375994989E-1  -6.881902217864990E-1  -1.040051653981209E-1   1.039536973327055E-1  
 1.031507876969242E9    -9.088358283042908E-2   9.675510311973709E-2  -6.869307840124430E-1  -6.844863891601563E-1  -6.845024593498890E-1  -6.852889657020569E-1  -1.020595952868462E-1   1.059226860161828E-1  
 1.033758439609903E9    -8.930478990077972E-2   9.873002678961146E-2  -6.900253602257325E-1  -6.796746253967285E-1  -6.854444179668814E-1  -6.819210052490234E-1  -1.012524962425232E-1   1.089884359739371E-1  
 1.036009002250563E9    -8.763737976551056E-2   1.015160727393421E-1  -6.919717744486149E-1  -6.756016016006470E-1  -6.877599515870178E-1  -6.789140105247498E-1  -1.003797501325607E-1   1.101853392387530E-1  
 1.038259564891223E9    -8.585435897111893E-2   1.038736810446988E-1  -6.947132626956352E-1  -6.725775599479675E-1  -6.910812840527253E-1  -6.763257384300232E-1  -9.933251142501831E-2   1.118970470524349E-1  
 1.040510127531883E9    -8.541440963745117E-2   1.072799131568192E-1  -6.959275515095474E-1  -6.687744259834290E-1  -6.926615265803409E-1  -6.727637648582459E-1  -9.882914274930954E-2   1.138296943672930E-1  
 1.042760690172543E9    -8.598042279481888E-2   1.072099305573633E-1  -6.995986406636693E-1  -6.666816473007202E-1  -6.971347323080213E-1  -6.696565747261047E-1  -9.761600941419601E-2   1.140831699508797E-1  
 1.045011252813203E9    -8.570541441440582E-2   1.100991117758322E-1  -7.014662455579009E-1  -6.626863479614258E-1  -7.003362236133002E-1  -6.675536036491394E-1  -9.728439897298813E-2   1.150793206785616E-1  
 1.047261815453864E9    -8.679632097482681E-2   1.105052094871488E-1  -7.051846573374422E-1  -6.598693728446960E-1  -7.037959608540991E-1  -6.648163795471191E-1  -9.809766709804535E-2   1.155389894772290E-1  
 1.049512378094524E9    -8.799197524785996E-2   1.108174647281402E-1  -7.079244208601855E-1  -6.568566560745239E-1  -7.081144240284729E-1  -6.624242067337036E-1  -9.848111867904663E-2   1.159554608260883E-1  
 1.051762940735184E9    -9.095142781734467E-2   1.105684863482309E-1  -7.112411617114814E-1  -6.544950604438782E-1  -7.113676683102156E-1  -6.597200632095337E-1  -9.850377589464188E-2   1.141827178047063E-1  
 1.054013503375844E9    -9.165544062852860E-2   1.093380505987037E-1  -7.149685946856833E-1  -6.518706679344177E-1  -7.162991728616934E-1  -6.554583311080933E-1  -9.941267222166061E-2   1.156024512058430E-1  
 1.056264066016504E9    -9.460988640785217E-2   1.085386538745271E-1  -7.192233667353142E-1  -6.486108303070068E-1  -7.212423589099102E-1  -6.515789628028870E-1  -1.006393432617188E-1   1.157618634222464E-1  
 1.058514628657164E9    -9.650643914937973E-2   1.091014955749353E-1  -7.218926753887568E-1  -6.462908983230591E-1  -7.256524922774924E-1  -6.485902070999146E-1  -1.001612916588783E-1   1.152643392501151E-1  
 1.060765191297825E9    -9.772074222564697E-2   1.069233329079987E-1  -7.268046343458436E-1  -6.417618393898010E-1  -7.274421582009829E-1  -6.453440785408020E-1  -1.016640886664391E-1   1.162978856495676E-1  
 1.063015753938485E9    -9.842647612094879E-2   1.069706336841890E-1  -7.313236123096082E-1  -6.383914351463318E-1  -7.342662593234642E-1  -6.380614042282105E-1  -1.011156737804413E-1   1.174233930066530E-1  
 1.065266316579145E9    -9.872281551361084E-2   1.064179398179150E-1  -7.354592124600273E-1  -6.349948644638062E-1  -7.369103001685045E-1  -6.343113183975220E-1  -1.002648919820786E-1   1.183146340227829E-1  
 1.067516879219805E9    -9.878154844045639E-2   1.038051204307848E-1  -7.398926606286456E-1  -6.317719817161560E-1  -7.401936203567316E-1  -6.297498345375061E-1  -1.001863032579422E-1   1.177286406809476E-1  
 1.069767441860465E9    -9.893637895584106E-2   1.039103502295921E-1  -7.439583068745395E-1  -6.265640854835510E-1  -7.429893835678365E-1  -6.241504549980164E-1  -9.926301985979080E-2   1.190635142459367E-1  
 1.072018004501125E9    -9.785121679306030E-2   1.028213744491441E-1  -7.477219560803140E-1  -6.210373640060425E-1  -7.450619856211196E-1  -6.204682588577271E-1  -9.830268472433090E-2   1.196037824796282E-1  
 1.074268567141785E9    -9.551787376403809E-2   1.038418947488195E-1  -7.514574406345570E-1  -6.159096956253052E-1  -7.491726416380816E-1  -6.145609021186829E-1  -9.645386785268784E-2   1.207162378100125E-1  
 1.076519129782446E9    -9.431768208742142E-2   1.053189799134480E-1  -7.545161332260081E-1  -6.110201478004456E-1  -7.507624463768492E-1  -6.112588644027710E-1  -9.517886489629746E-2   1.219518424884115E-1  
 1.078769692423106E9    -9.072168171405792E-2   1.068065852763467E-1  -7.576716218891042E-1  -6.071089506149292E-1  -7.543383815812824E-1  -6.048143506050110E-1  -9.301924705505371E-2   1.229778855178689E-1  
 1.081020255063766E9    -8.963273465633392E-2   1.082462052705785E-1  -7.602647705111925E-1  -6.019308567047119E-1  -7.572042926874123E-1  -6.002783179283142E-1  -9.235436469316483E-2   1.240005827536143E-1  
 1.083270817704426E9    -8.741872012615204E-2   1.115812689376777E-1  -7.621247476579007E-1  -5.973213911056519E-1  -7.574602137116576E-1  -5.985905528068543E-1  -9.027039259672165E-2   1.252671783230016E-1  
 1.085521380345086E9    -8.464290201663971E-2   1.139432140221389E-1  -7.644996135466335E-1  -5.915162563323975E-1  -7.589691298474559E-1  -5.956158041954041E-1  -8.984752744436264E-2   1.270444422250209E-1  
 1.087771942985746E9    -8.401459455490112E-2   1.171003159258970E-1  -7.648438164542322E-1  -5.904766321182251E-1  -7.620860590502896E-1  -5.911175608634949E-1  -8.952031284570694E-2   1.284443354050673E-1  
 1.090022505626407E9    -8.100714534521103E-2   1.209103950854539E-1  -7.676529173526028E-1  -5.847517251968384E-1  -7.626236139389773E-1  -5.887435674667358E-1  -8.729775995016098E-2   1.303918564568082E-1  
 1.092273068267067E9    -7.889670133590698E-2   1.221253702621124E-1  -7.695656898381760E-1  -5.803555250167847E-1  -7.652101214112125E-1  -5.845213532447815E-1  -8.746173977851868E-2   1.309185311685802E-1  
 1.094523630907727E9    -8.010517060756683E-2   1.231325030330938E-1  -7.721585030286837E-1  -5.754222273826599E-1  -7.687496782345826E-1  -5.819566845893860E-1  -8.651362359523773E-2   1.319757576209103E-1  
 1.096774193548387E9    -7.809080928564072E-2   1.258124928419290E-1  -7.731000305392132E-1  -5.722106695175171E-1  -7.726821990040369E-1  -5.776512026786804E-1  -8.680023998022080E-2   1.325614562787806E-1  
 1.099024756189047E9    -7.927568256855011E-2   1.266574333246499E-1  -7.753533902770382E-1  -5.681563019752502E-1  -7.739109088138679E-1  -5.745228528976440E-1  -8.648875355720520E-2   1.331126117118601E-1  
 1.101275318829707E9    -7.990258187055588E-2   1.278067826850184E-1  -7.781958728143109E-1  -5.655185580253601E-1  -7.797056871849579E-1  -5.699508190155029E-1  -8.701100945472717E-2   1.328134498650807E-1  
 1.103525881470368E9    -7.985032349824905E-2   1.267645116763819E-1  -7.809765736016919E-1  -5.625681281089783E-1  -7.816069585150692E-1  -5.683508515357971E-1  -8.801547437906265E-2   1.325205200768893E-1  
 1.105776444111028E9    -8.139812946319580E-2   1.253707741546841E-1  -7.830472601987317E-1  -5.607197284698486E-1  -7.845017295869766E-1  -5.649881362915039E-1  -8.891391009092331E-2   1.315008339733879E-1  
 1.108027006751688E9    -8.278650790452957E-2   1.236334943109194E-1  -7.853497322436104E-1  -5.575518012046814E-1  -7.889362502036237E-1  -5.623272657394409E-1  -9.032741934061050E-2   1.310986832503104E-1  
 1.110277569392348E9    -8.421589434146881E-2   1.227253588438539E-1  -7.889432950089991E-1  -5.550076365470886E-1  -7.924982241716225E-1  -5.579571127891541E-1  -9.098156541585922E-2   1.308266436822281E-1  
 1.112528132033008E9    -8.310719579458237E-2   1.206091189593391E-1  -7.922587323658954E-1  -5.500549077987671E-1  -7.969484766681206E-1  -5.526633858680725E-1  -9.069786965847015E-2   1.307435205045968E-1  
 1.114778694673668E9    -8.421607315540314E-2   1.200361740208200E-1  -7.952452443376040E-1  -5.479818582534790E-1  -8.001155841206211E-1  -5.472904443740845E-1  -9.114860743284226E-2   1.295937034670589E-1  
 1.117029257314329E9    -8.312148600816727E-2   1.170119747432954E-1  -7.991030041514327E-1  -5.441110730171204E-1  -8.032218385119830E-1  -5.440196990966797E-1  -9.154795110225678E-2   1.302419909893303E-1  
 1.119279819954989E9    -8.302059024572372E-2   1.156292739083064E-1  -8.026771017719045E-1  -5.423154830932617E-1  -8.060164616367129E-1  -5.402641892433167E-1  -9.012126922607422E-2   1.299467100967873E-1  
 1.121530382595649E9    -8.153153210878372E-2   1.148386057582783E-1  -8.072538207170215E-1  -5.359523892402649E-1  -8.080525735257077E-1  -5.339477062225342E-1  -8.857642114162445E-2   1.302680929443223E-1  
 1.123780945236309E9    -7.938157767057419E-2   1.137648527691270E-1  -8.104859297561179E-1  -5.329168438911438E-1  -8.107543777436197E-1  -5.290219187736511E-1  -8.600903302431107E-2   1.293624430962076E-1  
 1.126031507876969E9    -7.851026207208633E-2   1.137293180617713E-1  -8.138707848226073E-1  -5.273879170417786E-1  -8.131318292996204E-1  -5.230681896209717E-1  -8.456152677536011E-2   1.310444424353299E-1  
 1.128282070517629E9    -7.643952220678330E-2   1.138583671187714E-1  -8.172200221009457E-1  -5.218777060508728E-1  -8.161844338049736E-1  -5.187774300575256E-1  -8.285319060087204E-2   1.303776785396277E-1  
 1.130532633158290E9    -7.319111377000809E-2   1.164536937852562E-1  -8.208851287721843E-1  -5.164179801940918E-1  -8.171162251906393E-1  -5.142555832862854E-1  -8.049221336841583E-2   1.311434435699266E-1  
 1.132783195798950E9    -7.251750677824020E-2   1.184683950897085E-1  -8.232320214746857E-1  -5.112249851226807E-1  -8.184593742138395E-1  -5.087321996688843E-1  -7.910951972007752E-2   1.319686465391196E-1  
 1.135033758439610E9    -6.890121102333069E-2   1.198717317504538E-1  -8.256192305912400E-1  -5.048193931579590E-1  -8.201256880983865E-1  -5.049222111701965E-1  -7.725944370031357E-2   1.337326357955296E-1  
 1.137284321080270E9    -6.710769981145859E-2   1.239720496501471E-1  -8.276425677668993E-1  -5.000470876693726E-1  -8.225096143622137E-1  -5.016891360282898E-1  -7.543861120939255E-2   1.352821561063889E-1  
 1.139534883720930E9    -6.557548791170120E-2   1.271152557798708E-1  -8.302900929975314E-1  -4.959918558597565E-1  -8.234124131695445E-1  -4.985529780387878E-1  -7.453563809394836E-2   1.372255755493457E-1  
 1.141785446361590E9    -6.436188519001007E-2   1.308508935536933E-1  -8.317848060075299E-1  -4.907748103141785E-1  -8.251382011431556E-1  -4.952923655509949E-1  -7.312323898077011E-2   1.385068023223908E-1  
 1.144036009002251E9    -6.297591328620911E-2   1.331976263369779E-1  -8.326514439773831E-1  -4.849743545055389E-1  -8.265268677964429E-1  -4.905467927455902E-1  -7.338788360357285E-2   1.401983571756757E-1  
 1.146286571642911E9    -6.247734650969505E-2   1.368270513698542E-1  -8.335996590068313E-1  -4.808260500431061E-1  -8.296346663740133E-1  -4.867221415042877E-1  -7.096686214208603E-2   1.415381764719717E-1  
 1.148537134283571E9    -6.410843133926392E-2   1.395492864026552E-1  -8.347385902630867E-1  -4.771318137645721E-1  -8.321440681367260E-1  -4.840515851974487E-1  -7.138951122760773E-2   1.431332291056787E-1  
 1.150787696924231E9    -6.235784664750099E-2   1.396929680641620E-1  -8.373505676406581E-1  -4.720104336738586E-1  -8.346523953614530E-1  -4.826494753360748E-1  -7.143209129571915E-2   1.443293272043240E-1  
 1.153038259564891E9    -6.419477611780167E-2   1.414294577697629E-1  -8.369807564653978E-1  -4.683361351490021E-1  -8.366736288175638E-1  -4.769539535045624E-1  -7.017234712839127E-2   1.447373382761911E-1  
 1.155288822205551E9    -6.545064598321915E-2   1.398916327644305E-1  -8.386619180364088E-1  -4.657901525497437E-1  -8.394100451016657E-1  -4.748806357383728E-1  -7.347986847162247E-2   1.436899820618384E-1  
 1.157539384846211E9    -6.696073710918427E-2   1.407863185157759E-1  -8.414024272875921E-1  -4.614054858684540E-1  -8.436847312490763E-1  -4.699786603450775E-1  -7.341042160987854E-2   1.440642315495032E-1  
 1.159789947486872E9    -6.895370036363602E-2   1.385702934487501E-1  -8.432280418820924E-1  -4.586395323276520E-1  -8.485981477584592E-1  -4.658898413181305E-1  -7.413594424724579E-2   1.441493179187170E-1  
 1.162040510127532E9    -6.964738667011261E-2   1.366006234300952E-1  -8.446137718477907E-1  -4.566207826137543E-1  -8.507254642147211E-1  -4.607205390930176E-1  -7.483980059623718E-2   1.433077431731597E-1  
 1.164291072768192E9    -7.045551389455795E-2   1.343516425178504E-1  -8.479075151353197E-1  -4.518871307373047E-1  -8.559409102523243E-1  -4.550009071826935E-1  -7.568319141864777E-2   1.428562177297503E-1  
 1.166541635408852E9    -7.137916982173920E-2   1.301759359302641E-1  -8.503147778478308E-1  -4.528554677963257E-1  -8.581050800257126E-1  -4.536986649036408E-1  -7.742010802030563E-2   1.410257631688899E-1  
 1.168792198049512E9    -7.160671800374985E-2   1.294106414614608E-1  -8.545465280375111E-1  -4.479577541351318E-1  -8.602596226452077E-1  -4.484859108924866E-1  -7.653675228357315E-2   1.408364283687144E-1  
 1.171042760690172E9    -7.122962921857834E-2   1.271479697436835E-1  -8.584700673161154E-1  -4.435265362262726E-1  -8.633470977292093E-1  -4.432165622711182E-1  -7.621450722217560E-2   1.420312885887844E-1  
 1.173293323330833E9    -6.888310611248016E-2   1.249753797143981E-1  -8.603364914536988E-1  -4.395022690296173E-1  -8.651410254287679E-1  -4.369179606437683E-1  -7.453121244907379E-2   1.411599005137751E-1  
 1.175543885971493E9    -6.724210828542709E-2   1.240676853312951E-1  -8.641929101269327E-1  -4.387794137001038E-1  -8.671206557409137E-1  -4.342607557773590E-1  -7.233882695436478E-2   1.409368543476630E-1  
 1.177794448612153E9    -6.476244330406189E-2   1.235139944469960E-1  -8.691494602051652E-1  -4.309607744216919E-1  -8.702920568475393E-1  -4.265137314796448E-1  -6.984927505254746E-2   1.406997037073852E-1  
 1.180045011252813E9    -6.264396011829376E-2   1.237463813487318E-1  -8.718230908566033E-1  -4.259590804576874E-1  -8.714043394554361E-1  -4.216970801353455E-1  -6.754431873559952E-2   1.403490871143985E-1  
 1.182295573893473E9    -6.070413067936897E-2   1.237047559537463E-1  -8.761120003636994E-1  -4.216501712799072E-1  -8.723585707747245E-1  -4.168987572193146E-1  -6.331627070903778E-2   1.402779170935881E-1  
 1.184546136534133E9    -5.685291811823845E-2   1.257803395166889E-1  -8.787670326129046E-1  -4.159315526485443E-1  -8.747676153310613E-1  -4.123994112014771E-1  -6.047736108303070E-2   1.407229012711280E-1  
 1.186796699174794E9    -5.555614829063416E-2   1.272396861475779E-1  -8.819644929462677E-1  -4.082056879997253E-1  -8.751299708840573E-1  -4.064168334007263E-1  -5.844668298959732E-2   1.406282546490670E-1  
 1.189047261815454E9    -5.297249928116798E-2   1.309349744081434E-1  -8.828371246051772E-1  -4.021439552307129E-1  -8.765742584795346E-1  -4.014057815074921E-1  -5.568384751677513E-2   1.417096817343023E-1  
 1.191297824456114E9    -5.054610222578049E-2   1.336195811675827E-1  -8.847120730210133E-1  -3.965590000152588E-1  -8.781540864231269E-1  -3.974265754222870E-1  -5.343118309974670E-2   1.436678568413158E-1  
 1.193548387096774E9    -4.989366978406906E-2   1.377978968417502E-1  -8.855921059980034E-1  -3.905428647994995E-1  -8.791875525426640E-1  -3.931053876876831E-1  -5.157059431076050E-2   1.458987864952439E-1  
 1.195798949737434E9    -4.825367033481598E-2   1.422110076072459E-1  -8.851931031184970E-1  -3.842622041702271E-1  -8.808905103820492E-1  -3.887853324413300E-1  -4.970531538128853E-2   1.479314807819440E-1  
 1.198049512378094E9    -4.652625694870949E-2   1.451441340754315E-1  -8.873854982292238E-1  -3.787730634212494E-1  -8.822497199622927E-1  -3.861173689365387E-1  -4.871523007750511E-2   1.493652412016925E-1  
 1.200300075018755E9    -4.687811061739922E-2   1.481963691245546E-1  -8.878443423437542E-1  -3.747900426387787E-1  -8.835847135621936E-1  -3.818280994892120E-1  -4.728856682777405E-2   1.514156785110440E-1  
 1.202550637659415E9    -4.659410566091538E-2   1.506418016237384E-1  -8.882486136799046E-1  -3.694248199462891E-1  -8.855143191943403E-1  -3.775164783000946E-1  -4.824395850300789E-2   1.535129929364236E-1  
 1.204801200300075E9    -4.874978959560394E-2   1.520339920591839E-1  -8.884632932716391E-1  -3.635955154895783E-1  -8.877937197124610E-1  -3.735232353210449E-1  -4.774631932377815E-2   1.574393640330440E-1  
 1.207051762940735E9    -4.754948243498802E-2   1.539251888720881E-1  -8.898345605503716E-1  -3.612699210643768E-1  -8.887592919895369E-1  -3.722734153270721E-1  -4.929298534989357E-2   1.585094604811425E-1  
 1.209302325581395E9    -5.083515495061874E-2   1.526711789192372E-1  -8.902842633813095E-1  -3.571946322917938E-1  -8.920718858486278E-1  -3.678381741046906E-1  -5.026747658848763E-2   1.597690933139070E-1  
