#  HZ   S   RI   R     50.0 
! Rohde & Schwarz ZVL13 2Ports - Version 3.31 - 1303.6509k13 SN: 101088
! Date: 2023-03-09 14:13:42
! Data & Calibration Information:
! Trc4:S11(TOSM) Trc2:S21(TOSM) Trc3:S12(TOSM) Trc5:S22(TOSM)
! 
! 
! 
 1.000000000000000E9    -9.932774305343628E-2   9.290268560861179E-2  -6.321172661860628E-1  -7.390792965888977E-1  -6.337952560152302E-1  -7.394614219665527E-1  -1.067327186465263E-1   9.631856171424380E-2  
 1.002250562640660E9    -9.971132129430771E-2   9.273141325129153E-2  -6.374566706304585E-1  -7.351279258728027E-1  -6.371247967949079E-1  -7.382419705390930E-1  -1.084433346986771E-1   9.662073929316090E-2  
 1.004501125281320E9    -1.013227552175522E-1   9.309242270490128E-2  -6.408918545669999E-1  -7.331125140190125E-1  -6.418548834999359E-1  -7.339416742324829E-1  -1.092102304100990E-1   9.611332164216563E-2  
 1.006751687921981E9    -1.029925644397736E-1   9.318502850471605E-2  -6.447979676989691E-1  -7.296922206878662E-1  -6.458101764603228E-1  -7.314214706420898E-1  -1.105997189879417E-1   9.701675924204976E-2  
 1.009002250562641E9    -1.049378439784050E-1   9.211393721935457E-2  -6.498246879013961E-1  -7.262002825737000E-1  -6.501746873836203E-1  -7.275400757789612E-1  -1.106165498495102E-1   9.759136287190230E-2  
 1.011252813203301E9    -1.049578338861466E-1   9.119337928595757E-2  -6.540859467337906E-1  -7.241479754447937E-1  -6.551075410739936E-1  -7.223470211029053E-1  -1.110226809978485E-1   9.731155496358222E-2  
 1.013503375843961E9    -1.047176793217659E-1   9.034796400014941E-2  -6.589926169572723E-1  -7.194000482559204E-1  -6.579325420282413E-1  -7.193624377250671E-1  -1.109887436032295E-1   9.781424013405506E-2  
 1.015753938484621E9    -1.033729761838913E-1   8.846818668973189E-2  -6.641969218775635E-1  -7.156414389610291E-1  -6.625873681404704E-1  -7.134055495262146E-1  -1.100025773048401E-1   9.958330449786863E-2  
 1.018004501125281E9    -1.017174795269966E-1   8.878437687347694E-2  -6.685755015776611E-1  -7.101939916610718E-1  -6.675018143021341E-1  -7.074553370475769E-1  -1.099080666899681E-1   9.847167850858847E-2  
 1.020255063765942E9    -1.007679700851440E-1   9.008974572167043E-2  -6.709920138290095E-1  -7.079955935478210E-1  -6.687841804461727E-1  -7.047878503799439E-1  -1.072091907262802E-1   9.959183831323047E-2  
 1.022505626406602E9    -9.818767756223679E-2   8.946981831569488E-2  -6.754096877166900E-1  -7.023560404777527E-1  -6.714214381392255E-1  -7.015763521194458E-1  -1.076924502849579E-1   1.001052507000882E-1  
 1.024756189047262E9    -9.649720042943955E-2   9.158009515657818E-2  -6.782675567893037E-1  -6.973019838333130E-1  -6.742571049728138E-1  -6.972264051437378E-1  -1.060427725315094E-1   1.010536054882565E-1  
 1.027006751687922E9    -9.539125859737396E-2   9.098841036204274E-2  -6.825232585215831E-1  -6.923612356185913E-1  -6.787607865745448E-1  -6.918167471885681E-1  -1.058600395917893E-1   1.023299343336840E-1  
 1.029257314328582E9    -9.304377436637878E-2   9.403425605687873E-2  -6.839223371801304E-1  -6.892652511596680E-1  -6.800481976727503E-1  -6.890206336975098E-1  -1.035088226199150E-1   1.041248053075141E-1  
 1.031507876969242E9    -9.066353738307953E-2   9.644929765689639E-2  -6.873328950514288E-1  -6.842712759971619E-1  -6.844793386077769E-1  -6.850484609603882E-1  -1.024683639407158E-1   1.063044056178788E-1  
 1.033758439609903E9    -8.925799280405045E-2   9.791974615518788E-2  -6.907910505495569E-1  -6.789253950119019E-1  -6.860537672178624E-1  -6.817392706871033E-1  -1.008013635873795E-1   1.091579913892795E-1  
 1.036009002250563E9    -8.753007650375366E-2   1.014325220795591E-1  -6.918340233576809E-1  -6.760337352752686E-1  -6.870719710640512E-1  -6.783348321914673E-1  -1.001783534884453E-1   1.103706411334018E-1  
 1.038259564891223E9    -8.598296344280243E-2   1.038363292674888E-1  -6.951323355443998E-1  -6.725868582725525E-1  -6.902890139089989E-1  -6.766716241836548E-1  -9.979607909917831E-2   1.118571081245912E-1  
 1.040510127531883E9    -8.505829423666000E-2   1.069128691462577E-1  -6.966153570136676E-1  -6.698245406150818E-1  -6.925129307351641E-1  -6.723216176033020E-1  -9.844628721475601E-2   1.133840205030668E-1  
 1.042760690172543E9    -8.522625267505646E-2   1.070509543242063E-1  -6.997686859942156E-1  -6.658219695091248E-1  -6.969985526695461E-1  -6.703048348426819E-1  -9.817929565906525E-2   1.139267892642329E-1  
 1.045011252813203E9    -8.531705290079117E-2   1.101322645744566E-1  -7.019900416720781E-1  -6.624611616134644E-1  -7.002398093550700E-1  -6.674531698226929E-1  -9.714350104331970E-2   1.150970658037780E-1  
 1.047261815453864E9    -8.742198348045349E-2   1.103957210580449E-1  -7.060349781742376E-1  -6.581737399101257E-1  -7.033460821111532E-1  -6.654322743415833E-1  -9.792316704988480E-2   1.156110905187535E-1  
 1.049512378094524E9    -8.786697685718536E-2   1.103796234718118E-1  -7.074764894855196E-1  -6.576037406921387E-1  -7.077223081849957E-1  -6.620102524757385E-1  -9.823071211576462E-2   1.159059403283042E-1  
 1.051762940735184E9    -9.073001146316528E-2   1.104807509699240E-1  -7.107088250043554E-1  -6.540341973304749E-1  -7.117253878571365E-1  -6.595368981361389E-1  -9.870353341102600E-2   1.145926840873040E-1  
 1.054013503375844E9    -9.223943948745728E-2   1.089902033420055E-1  -7.150918210182145E-1  -6.521515250205994E-1  -7.162428517411016E-1  -6.551037430763245E-1  -9.948115795850754E-2   1.155479368683123E-1  
 1.056264066016504E9    -9.453629702329636E-2   1.087568598728975E-1  -7.192828240510067E-1  -6.473100185394287E-1  -7.217155722712733E-1  -6.508983969688416E-1  -1.001797541975975E-1   1.161761182079159E-1  
 1.058514628657164E9    -9.692925959825516E-2   1.088671061293300E-1  -7.214307840539329E-1  -6.461236476898193E-1  -7.256320822824895E-1  -6.477133035659790E-1  -1.004142016172409E-1   1.153440498000150E-1  
 1.060765191297825E9    -9.770809859037399E-2   1.073800523305078E-1  -7.270019708804256E-1  -6.421290040016174E-1  -7.285123843860671E-1  -6.447759270668030E-1  -1.018149033188820E-1   1.160228530999387E-1  
 1.063015753938485E9    -9.825433790683746E-2   1.067245431699525E-1  -7.321029379770723E-1  -6.389256119728088E-1  -7.345609534145809E-1  -6.374828219413757E-1  -1.006506457924843E-1   1.172433906095760E-1  
 1.065266316579145E9    -9.876072406768799E-2   1.058759650121321E-1  -7.348564552951954E-1  -6.348157525062561E-1  -7.367436758014585E-1  -6.336593627929688E-1  -1.005463078618050E-1   1.182140495286468E-1  
 1.067516879219805E9    -9.845629334449768E-2   1.039741373016506E-1  -7.394937487661784E-1  -6.318992376327515E-1  -7.409242261310044E-1  -6.291565299034119E-1  -1.001263782382011E-1   1.181756102648221E-1  
 1.069767441860465E9    -9.850119799375534E-2   1.035985898366469E-1  -7.436659503558629E-1  -6.271009445190430E-1  -7.430365187627970E-1  -6.250000000000000E-1  -9.914282709360123E-2   1.192798567687364E-1  
 1.072018004501125E9    -9.753425419330597E-2   1.038093134662770E-1  -7.471755625925765E-1  -6.211094856262207E-1  -7.449130390529395E-1  -6.206438541412354E-1  -9.833657741546631E-2   1.194756672909247E-1  
 1.074268567141785E9    -9.554856270551682E-2   1.043096469253419E-1  -7.526605790699681E-1  -6.172680854797363E-1  -7.488038177171458E-1  -6.148865222930908E-1  -9.652489423751831E-2   1.205103615255506E-1  
 1.076519129782446E9    -9.445735067129135E-2   1.045913282442136E-1  -7.551787340972855E-1  -6.107426285743713E-1  -7.510237990356165E-1  -6.099896430969238E-1  -9.475725889205933E-2   1.220759172849550E-1  
 1.078769692423106E9    -9.090247005224228E-2   1.072688782199226E-1  -7.580281158419694E-1  -6.070923805236816E-1  -7.540808992336356E-1  -6.056602001190186E-1  -9.342784434556961E-2   1.231640376024210E-1  
 1.081020255063766E9    -8.978438377380371E-2   1.083009452569390E-1  -7.620144788642644E-1  -5.994772911071777E-1  -7.565759422826621E-1  -6.002897024154663E-1  -9.270699322223663E-2   1.240202087920232E-1  
 1.083270817704426E9    -8.721614629030228E-2   1.115355367800514E-1  -7.622204596640870E-1  -5.966308116912842E-1  -7.565963325747900E-1  -5.992437601089478E-1  -9.054964035749435E-2   1.257063426233553E-1  
 1.085521380345086E9    -8.520630747079849E-2   1.140113566880684E-1  -7.639955035144422E-1  -5.923838615417481E-1  -7.593149202020175E-1  -5.944062471389771E-1  -8.981422334909439E-2   1.269661220238410E-1  
 1.087771942985746E9    -8.405313640832901E-2   1.169975642691150E-1  -7.648670183993566E-1  -5.909725427627564E-1  -7.615981006444914E-1  -5.908055305480957E-1  -8.902692049741745E-2   1.275618620582348E-1  
 1.090022505626407E9    -8.074204623699188E-2   1.205845295369630E-1  -7.670208866312899E-1  -5.854092240333557E-1  -7.635982196834079E-1  -5.887461304664612E-1  -8.680985122919083E-2   1.301299722042101E-1  
 1.092273068267067E9    -7.929303497076035E-2   1.222009551603874E-1  -7.692107584349561E-1  -5.793696641921997E-1  -7.652746520768536E-1  -5.837913155555725E-1  -8.689799159765244E-2   1.307885334746458E-1  
 1.094523630907727E9    -7.970146834850311E-2   1.235458363582762E-1  -7.724974385679940E-1  -5.747264027595520E-1  -7.685616586786709E-1  -5.813692212104797E-1  -8.657295256853104E-2   1.319614767880154E-1  
 1.096774193548387E9    -7.875872403383255E-2   1.263272337028716E-1  -7.735027877903411E-1  -5.728269219398499E-1  -7.725852949349528E-1  -5.761260390281677E-1  -8.602628111839294E-2   1.334239583023192E-1  
 1.099024756189047E9    -7.928295433521271E-2   1.260813867837542E-1  -7.755040787447244E-1  -5.673495531082153E-1  -7.745417133513201E-1  -5.753329992294312E-1  -8.717524260282517E-2   1.329895295996627E-1  
 1.101275318829707E9    -7.977616786956787E-2   1.269315531194033E-1  -7.770372045323092E-1  -5.660855174064636E-1  -7.802058243552673E-1  -5.700404644012451E-1  -8.626984059810638E-2   1.326866845238152E-1  
 1.103525881470368E9    -8.134127408266068E-2   1.270534706821026E-1  -7.818174898628312E-1  -5.622546672821045E-1  -7.814451695408300E-1  -5.682798027992249E-1  -8.780905604362488E-2   1.321237662767606E-1  
 1.105776444111028E9    -8.178799599409103E-2   1.253025892452753E-1  -7.830531194925130E-1  -5.600280761718750E-1  -7.850144276466373E-1  -5.659267902374268E-1  -8.953932672739029E-2   1.315823071248297E-1  
 1.108027006751688E9    -8.222535997629166E-2   1.233254056007563E-1  -7.853748764474091E-1  -5.571636557579041E-1  -7.889462172172832E-1  -5.618503689765930E-1  -9.009075909852982E-2   1.314053573877882E-1  
 1.110277569392348E9    -8.404440432786942E-2   1.226841579354579E-1  -7.885579382475961E-1  -5.555143952369690E-1  -7.925216626343475E-1  -5.579893589019775E-1  -9.072218090295792E-2   1.309551952294003E-1  
 1.112528132033008E9    -8.348067104816437E-2   1.205878331584627E-1  -7.921183571595899E-1  -5.496814846992493E-1  -7.970570569136433E-1  -5.532481670379639E-1  -9.025468677282333E-2   1.310223016759685E-1  
 1.114778694673668E9    -8.371862024068832E-2   1.188594548245795E-1  -7.950670465475431E-1  -5.491007566452026E-1  -7.992499496905822E-1  -5.485937595367432E-1  -9.119990468025208E-2   1.293734335066359E-1  
 1.117029257314329E9    -8.363270014524460E-2   1.172438350996567E-1  -7.986835925477729E-1  -5.444298386573792E-1  -8.035143177725785E-1  -5.441935658454895E-1  -9.124436229467392E-2   1.301192197319797E-1  
 1.119279819954989E9    -8.258593827486038E-2   1.156642010886212E-1  -8.029983188733453E-1  -5.413484573364258E-1  -8.062085941869500E-1  -5.402505397796631E-1  -8.996535092592239E-2   1.302548105681921E-1  
 1.121530382595649E9    -8.136423677206039E-2   1.151120875815490E-1  -8.067923070062559E-1  -5.368711352348328E-1  -8.081530769193566E-1  -5.334888696670532E-1  -8.801873028278351E-2   1.300998032490581E-1  
 1.123780945236309E9    -7.921878993511200E-2   1.140695537342205E-1  -8.097204482506447E-1  -5.328449606895447E-1  -8.106681165427145E-1  -5.291631221771240E-1  -8.593111485242844E-2   1.297517412746426E-1  
 1.126031507876969E9    -7.802890241146088E-2   1.138195484068713E-1  -8.143032886763033E-1  -5.274090766906738E-1  -8.121702216730858E-1  -5.234294533729553E-1  -8.450862765312195E-2   1.310827021695787E-1  
 1.128282070517629E9    -7.616208493709564E-2   1.137023773461656E-1  -8.171666257929545E-1  -5.211161375045776E-1  -8.161400767930906E-1  -5.183700323104858E-1  -8.314883708953857E-2   1.300897725158566E-1  
 1.130532633158290E9    -7.357562333345413E-2   1.161116158030451E-1  -8.203852903021245E-1  -5.163292288780212E-1  -8.166734962129419E-1  -5.131050944328308E-1  -8.064439147710800E-2   1.311404548960105E-1  
 1.132783195798950E9    -7.215535640716553E-2   1.182140583586457E-1  -8.232305851999296E-1  -5.104818940162659E-1  -8.187883939915351E-1  -5.097523927688599E-1  -7.937124371528626E-2   1.324010285517066E-1  
 1.135033758439610E9    -6.940250098705292E-2   1.204959240229149E-1  -8.256051765700169E-1  -5.055039525032044E-1  -8.204939203804670E-1  -5.045512914657593E-1  -7.656829804182053E-2   1.336209163323029E-1  
 1.137284321080270E9    -6.765215098857880E-2   1.248875259862306E-1  -8.280951031520907E-1  -4.992873668670654E-1  -8.222736167038836E-1  -5.016065239906311E-1  -7.535700500011444E-2   1.344267540285332E-1  
 1.139534883720930E9    -6.587467342615128E-2   1.270368787734534E-1  -8.302523374066618E-1  -4.955961108207703E-1  -8.229399216689035E-1  -4.978020191192627E-1  -7.490247488021851E-2   1.373352929232092E-1  
 1.141785446361590E9    -6.444827467203140E-2   1.304942857067839E-1  -8.309261357419087E-1  -4.895529448986054E-1  -8.247710859376363E-1  -4.942700266838074E-1  -7.324821501970291E-2   1.389014632054932E-1  
 1.144036009002251E9    -6.321140378713608E-2   1.336226192911279E-1  -8.323558635828902E-1  -4.849009811878204E-1  -8.275750554300509E-1  -4.901314973831177E-1  -7.247073203325272E-2   1.408927038679937E-1  
 1.146286571642911E9    -6.331856548786163E-2   1.370947171787972E-1  -8.336004956770541E-1  -4.812457859516144E-1  -8.301899760714075E-1  -4.848034679889679E-1  -7.112847268581390E-2   1.409947575407357E-1  
 1.148537134283571E9    -6.412317603826523E-2   1.391195078855601E-1  -8.344960676552011E-1  -4.759079813957214E-1  -8.313579073810600E-1  -4.851678609848023E-1  -7.129554450511932E-2   1.432114560300176E-1  
 1.150787696924231E9    -6.324712932109833E-2   1.401528140927095E-1  -8.374425207036361E-1  -4.729953110218048E-1  -8.345558022796956E-1  -4.826698899269104E-1  -7.207816094160080E-2   1.436616564305834E-1  
 1.153038259564891E9    -6.468283385038376E-2   1.408552335940518E-1  -8.363705788857998E-1  -4.687119424343109E-1  -8.365867355532379E-1  -4.771216511726379E-1  -7.105020433664322E-2   1.446831351225570E-1  
 1.155288822205551E9    -6.561798602342606E-2   1.400843491074869E-1  -8.383858630816121E-1  -4.652049839496613E-1  -8.399215389405820E-1  -4.736138284206390E-1  -7.262407988309860E-2   1.441066154487582E-1  
 1.157539384846211E9    -6.690189242362976E-2   1.401756517132723E-1  -8.415849747851459E-1  -4.613991081714630E-1  -8.441162484494988E-1  -4.694831669330597E-1  -7.349114865064621E-2   1.440842570731119E-1  
 1.159789947486872E9    -6.864190846681595E-2   1.377255375207985E-1  -8.423309212367006E-1  -4.583759605884552E-1  -8.470912750488566E-1  -4.671181440353394E-1  -7.422103732824326E-2   1.432313330894806E-1  
 1.162040510127532E9    -6.936966627836227E-2   1.361708929312171E-1  -8.452099934093084E-1  -4.567593336105347E-1  -8.512515141182744E-1  -4.627024233341217E-1  -7.557481527328491E-2   1.430069233152636E-1  
 1.164291072768192E9    -7.056957483291626E-2   1.337253157089803E-1  -8.473730186856499E-1  -4.534551203250885E-1  -8.544631159027532E-1  -4.581899940967560E-1  -7.638907432556152E-2   1.428026726154082E-1  
 1.166541635408852E9    -7.101822644472122E-2   1.310545825052735E-1  -8.512651474070965E-1  -4.502596557140350E-1  -8.579336061165628E-1  -4.537749290466309E-1  -7.635454088449478E-2   1.409136969286881E-1  
 1.168792198049512E9    -7.170474529266357E-2   1.295146889125323E-1  -8.544057315721737E-1  -4.481083452701569E-1  -8.607503360577069E-1  -4.479063749313355E-1  -7.695703208446503E-2   1.409853110325315E-1  
 1.171042760690172E9    -7.099814713001251E-2   1.273556564907817E-1  -8.576858981487427E-1  -4.440288245677948E-1  -8.633671681682836E-1  -4.424463510513306E-1  -7.582615315914154E-2   1.418019027354309E-1  
 1.173293323330833E9    -6.845696270465851E-2   1.252659629841901E-1  -8.605874105644176E-1  -4.397058188915253E-1  -8.663755066413648E-1  -4.348988533020020E-1  -7.441447675228119E-2   1.404362816089358E-1  
 1.175543885971493E9    -6.739119440317154E-2   1.239994688842869E-1  -8.640548524166929E-1  -4.381369352340698E-1  -8.663670449326226E-1  -4.349338710308075E-1  -7.188658416271210E-2   1.410130341426177E-1  
 1.177794448612153E9    -6.442591547966003E-2   1.234436461959571E-1  -8.697357541099722E-1  -4.303634166717529E-1  -8.712367337848312E-1  -4.248635768890381E-1  -6.958043575286865E-2   1.400806486961944E-1  
 1.180045011252813E9    -6.235701218247414E-2   1.242095865108374E-1  -8.728028510788686E-1  -4.268834888935089E-1  -8.706927108737104E-1  -4.227260947227478E-1  -6.732688099145889E-2   1.406011309134669E-1  
 1.182295573893473E9    -6.029226258397102E-2   1.235808938184404E-1  -8.760316031581884E-1  -4.220063686370850E-1  -8.724462201817439E-1  -4.160018861293793E-1  -6.353476643562317E-2   1.403304868301497E-1  
 1.184546136534133E9    -5.693831667304039E-2   1.263338868150638E-1  -8.781279962223234E-1  -4.159271121025085E-1  -8.740595610067434E-1  -4.134561419487000E-1  -6.104810908436775E-2   1.411433608826207E-1  
 1.186796699174794E9    -5.560563504695892E-2   1.277285256795819E-1  -8.812129450462868E-1  -4.081175923347473E-1  -8.753202704059864E-1  -4.061401188373566E-1  -5.813735723495483E-2   1.407501238543445E-1  
 1.189047261815454E9    -5.268195271492004E-2   1.312185360092097E-1  -8.824737568844245E-1  -4.029611945152283E-1  -8.758007119258542E-1  -4.015903174877167E-1  -5.535447970032692E-2   1.418719076442863E-1  
 1.191297824456114E9    -5.056048557162285E-2   1.343251252816771E-1  -8.844350111450651E-1  -3.965860903263092E-1  -8.773603518419459E-1  -3.971353173255920E-1  -5.421322211623192E-2   1.431845015946317E-1  
 1.193548387096774E9    -5.000247806310654E-2   1.372811327131331E-1  -8.854248604547870E-1  -3.905904591083527E-1  -8.789947303063939E-1  -3.936634957790375E-1  -5.166715383529663E-2   1.459615178820199E-1  
 1.195798949737434E9    -4.821547493338585E-2   1.421754831075266E-1  -8.854726584525670E-1  -3.852637410163879E-1  -8.800532966866812E-1  -3.883411288261414E-1  -4.968317225575447E-2   1.478868095993719E-1  
 1.198049512378094E9    -4.711404442787170E-2   1.447653853961189E-1  -8.867275762498553E-1  -3.788074851036072E-1  -8.820833089637838E-1  -3.854975700378418E-1  -4.871195182204247E-2   1.493331629487080E-1  
 1.200300075018755E9    -4.745565727353096E-2   1.484650477821503E-1  -8.878381839080474E-1  -3.744906783103943E-1  -8.842901881099740E-1  -3.816431760787964E-1  -4.762803018093109E-2   1.514286103636994E-1  
 1.202550637659415E9    -4.723697528243065E-2   1.513383706078373E-1  -8.887363104457132E-1  -3.698086142539978E-1  -8.843817569698669E-1  -3.781238198280335E-1  -4.892665520310402E-2   1.532980319325906E-1  
 1.204801200300075E9    -4.841756820678711E-2   1.512425201692617E-1  -8.880503371911376E-1  -3.636455237865448E-1  -8.869153588681105E-1  -3.752959072589874E-1  -4.870192334055901E-2   1.571181615729954E-1  
 1.207051762940735E9    -4.732454568147659E-2   1.537022749695194E-1  -8.887209344643404E-1  -3.613108694553375E-1  -8.883976708776056E-1  -3.719420731067658E-1  -4.807248339056969E-2   1.586554895647920E-1  
 1.209302325581395E9    -5.113077163696289E-2   1.523489339616173E-1  -8.902844589048101E-1  -3.583643436431885E-1  -8.922651523223281E-1  -3.664128482341766E-1  -5.049242451786995E-2   1.601681886943477E-1  
