#  HZ   S   RI   R     50.0 
! Rohde & Schwarz ZVL13 2Ports - Version 3.31 - 1303.6509k13 SN: 101088
! Date: 2023-03-09 14:12:20
! Data & Calibration Information:
! Trc4:S11(TOSM) Trc2:S21(TOSM) Trc3:S12(TOSM) Trc5:S22(TOSM)
! 
! 
! 
 1.000000000000000E9    -9.846510738134384E-2   9.305493893784581E-2  -6.325552800450021E-1  -7.370831370353699E-1  -6.338285650953920E-1  -7.400626540184021E-1  -1.066217720508575E-1   9.673160961866763E-2  
 1.002250562640660E9    -9.985487163066864E-2   9.319785401844381E-2  -6.379697168455232E-1  -7.344350218772888E-1  -6.381567906594838E-1  -7.374206781387329E-1  -1.088392287492752E-1   9.706954404232343E-2  
 1.004501125281320E9    -1.012669503688812E-1   9.366155853447800E-2  -6.413318838845301E-1  -7.320815324783325E-1  -6.421258892016544E-1  -7.333417534828186E-1  -1.094594672322273E-1   9.595170213243497E-2  
 1.006751687921981E9    -1.031626313924789E-1   9.284724231815343E-2  -6.430830680342440E-1  -7.305360436439514E-1  -6.472891014079149E-1  -7.296988964080811E-1  -1.106707677245140E-1   9.694988588458291E-2  
 1.009002250562641E9    -1.052186191082001E-1   9.190915876004281E-2  -6.496686428431712E-1  -7.267943620681763E-1  -6.499465630166350E-1  -7.283645272254944E-1  -1.108205169439316E-1   9.790447653571871E-2  
 1.011252813203301E9    -1.045560985803604E-1   9.122935878614974E-2  -6.547848740542044E-1  -7.237597703933716E-1  -6.556024117662739E-1  -7.226869463920593E-1  -1.108150258660317E-1   9.744492809004207E-2  
 1.013503375843961E9    -1.045717522501946E-1   8.993674009321968E-2  -6.592343303920892E-1  -7.192037105560303E-1  -6.576366644469812E-1  -7.192308306694031E-1  -1.107907146215439E-1   9.772138334607541E-2  
 1.015753938484621E9    -1.032840833067894E-1   8.903196426055567E-2  -6.640662678438180E-1  -7.149081826210022E-1  -6.620330371632469E-1  -7.132171988487244E-1  -1.102667748928070E-1   9.920380798855663E-2  
 1.018004501125281E9    -1.020714938640595E-1   8.992859481153845E-2  -6.676415824578020E-1  -7.109359502792358E-1  -6.656403233512662E-1  -7.096914052963257E-1  -1.098125055432320E-1   9.819032904497668E-2  
 1.020255063765942E9    -1.009849160909653E-1   8.988127237522030E-2  -6.713314437231346E-1  -7.063592076301575E-1  -6.688046989058425E-1  -7.053950428962708E-1  -1.069489270448685E-1   1.001070095922728E-1  
 1.022505626406602E9    -9.868719428777695E-2   8.953871845229409E-2  -6.754739682620273E-1  -7.023419141769409E-1  -6.722069845725923E-1  -7.016659379005432E-1  -1.076584979891777E-1   1.006873989891533E-1  
 1.024756189047262E9    -9.668192267417908E-2   9.228136437955602E-2  -6.779357891291570E-1  -6.964348554611206E-1  -6.743635577759951E-1  -6.973484754562378E-1  -1.060042604804039E-1   1.017824605186167E-1  
 1.027006751687922E9    -9.497519582509995E-2   9.150656077969117E-2  -6.816380999841271E-1  -6.923307180404663E-1  -6.783962979435976E-1  -6.900869607925415E-1  -1.053801476955414E-1   1.023912701451545E-1  
 1.029257314328582E9    -9.323191642761231E-2   9.348108965416672E-2  -6.851622902936897E-1  -6.875376105308533E-1  -6.807688538634295E-1  -6.880007982254028E-1  -1.036302149295807E-1   1.044233813329567E-1  
 1.031507876969242E9    -9.054786711931229E-2   9.702928690203884E-2  -6.868350032721405E-1  -6.844155192375183E-1  -6.837820633102351E-1  -6.853898763656616E-1  -1.027186140418053E-1   1.058667957590532E-1  
 1.033758439609903E9    -8.967372775077820E-2   9.860591457222843E-2  -6.904823810563523E-1  -6.797800660133362E-1  -6.853465361140263E-1  -6.821151971817017E-1  -1.007694751024246E-1   1.085537456497514E-1  
 1.036009002250563E9    -8.720504492521286E-2   1.026075407843218E-1  -6.922523745441802E-1  -6.751539111137390E-1  -6.872180463315236E-1  -6.784889698028565E-1  -1.003502756357193E-1   1.106960289882218E-1  
 1.038259564891223E9    -8.656857907772064E-2   1.036573962817579E-1  -6.944271582791096E-1  -6.735623478889465E-1  -6.923941080875279E-1  -6.749364137649536E-1  -9.978909790515900E-2   1.117267568975859E-1  
 1.040510127531883E9    -8.510307967662811E-2   1.081514088299020E-1  -6.961838625437761E-1  -6.689438223838806E-1  -6.915262803368872E-1  -6.722828745841980E-1  -9.869173169136047E-2   1.135488722884211E-1  
 1.042760690172543E9    -8.565800637006760E-2   1.076130514541830E-1  -6.993024667031240E-1  -6.668512225151062E-1  -6.962562603450798E-1  -6.703788638114929E-1  -9.809516370296478E-2   1.136687967781910E-1  
 1.045011252813203E9    -8.561910688877106E-2   1.106656220385274E-1  -7.013479482708106E-1  -6.633337736129761E-1  -7.006692448183737E-1  -6.669274568557739E-1  -9.695628285408020E-2   1.149017712039123E-1  
 1.047261815453864E9    -8.727185428142548E-2   1.104889760022965E-1  -7.061472917163898E-1  -6.575573682785034E-1  -7.034127355415784E-1  -6.646668314933777E-1  -9.860840439796448E-2   1.154377169780915E-1  
 1.049512378094524E9    -8.789875358343124E-2   1.109609142606163E-1  -7.077999970366597E-1  -6.577176451683044E-1  -7.071098277526747E-1  -6.618897914886475E-1  -9.848561137914658E-2   1.157275360263034E-1  
 1.051762940735184E9    -9.085044264793396E-2   1.106409810874079E-1  -7.105220987998003E-1  -6.538013815879822E-1  -7.103654810359685E-1  -6.601737737655640E-1  -9.903310984373093E-2   1.143013470617318E-1  
 1.054013503375844E9    -9.169191122055054E-2   1.092993483795125E-1  -7.134089073086737E-1  -6.517833471298218E-1  -7.167252859622729E-1  -6.557542681694031E-1  -9.953720867633820E-2   1.153848100357364E-1  
 1.056264066016504E9    -9.475145488977432E-2   1.085298656638525E-1  -7.183843822530622E-1  -6.492494940757752E-1  -7.220494565566640E-1  -6.504518985748291E-1  -1.005123183131218E-1   1.163182908865118E-1  
 1.058514628657164E9    -9.748465567827225E-2   1.089215586149865E-1  -7.213620308690838E-1  -6.460053920745850E-1  -7.255026677107566E-1  -6.470751166343689E-1  -1.001484692096710E-1   1.155095573342658E-1  
 1.060765191297825E9    -9.716532379388809E-2   1.069633279325291E-1  -7.257361911798095E-1  -6.420479416847229E-1  -7.285892982387806E-1  -6.450549960136414E-1  -1.017492264509201E-1   1.163167891025855E-1  
 1.063015753938485E9    -9.795190393924713E-2   1.071582321740355E-1  -7.308903391905962E-1  -6.386572122573853E-1  -7.341289655660925E-1  -6.377153396606445E-1  -1.008296459913254E-1   1.172044552472034E-1  
 1.065266316579145E9    -9.882290661334992E-2   1.062197628810375E-1  -7.355271313048578E-1  -6.355403661727905E-1  -7.360321619428558E-1  -6.346570849418640E-1  -1.003931686282158E-1   1.182363572007358E-1  
 1.067516879219805E9    -9.855311363935471E-2   1.044647276896289E-1  -7.396124550624490E-1  -6.309027671813965E-1  -7.402946888921342E-1  -6.291463375091553E-1  -9.998057782649994E-2   1.178415506007034E-1  
 1.069767441860465E9    -9.861290454864502E-2   1.043684856700563E-1  -7.435394943990539E-1  -6.279515027999878E-1  -7.444432430112307E-1  -6.240819096565247E-1  -9.799192100763321E-2   1.197007595412584E-1  
 1.072018004501125E9    -9.781525284051895E-2   1.043600019879541E-1  -7.468849044694541E-1  -6.208543777465820E-1  -7.441110332971257E-1  -6.213625073432922E-1  -9.829619526863098E-2   1.195366808127530E-1  
 1.074268567141785E9    -9.516553580760956E-2   1.038905796812614E-1  -7.515577314026859E-1  -6.171476840972900E-1  -7.483670209960637E-1  -6.144605278968811E-1  -9.609474986791611E-2   1.206614582507321E-1  
 1.076519129782446E9    -9.397534281015396E-2   1.058141096752487E-1  -7.552235356945595E-1  -6.101214885711670E-1  -7.509589743328806E-1  -6.114171743392944E-1  -9.505885839462280E-2   1.220696535552877E-1  
 1.078769692423106E9    -9.073007106781006E-2   1.069333655100013E-1  -7.575467030832057E-1  -6.061642765998840E-1  -7.540287098429053E-1  -6.053766608238220E-1  -9.317506849765778E-2   1.234660908953282E-1  
 1.081020255063766E9    -8.936277031898499E-2   1.087132783228504E-1  -7.595549429801546E-1  -6.014689207077026E-1  -7.567147762378920E-1  -6.007835865020752E-1  -9.229986369609833E-2   1.242368704716399E-1  
 1.083270817704426E9    -8.690588176250458E-2   1.126732149707792E-1  -7.621964556161357E-1  -5.974162220954895E-1  -7.576166084156254E-1  -5.984926819801331E-1  -9.085325151681900E-2   1.258646007608734E-1  
 1.085521380345086E9    -8.486109972000122E-2   1.144247637017553E-1  -7.636120260688377E-1  -5.918831825256348E-1  -7.593015514266042E-1  -5.942823886871338E-1  -9.005182981491089E-2   1.269213381828714E-1  
 1.087771942985746E9    -8.329834043979645E-2   1.174984039944302E-1  -7.648902597252352E-1  -5.901278257369995E-1  -7.618726445395644E-1  -5.902538895606995E-1  -8.936846256256104E-2   1.280722891845774E-1  
 1.090022505626407E9    -8.125980943441391E-2   1.209311947320169E-1  -7.672010533329005E-1  -5.847745537757874E-1  -7.627982931037951E-1  -5.887818336486816E-1  -8.723583072423935E-2   1.298132242963353E-1  
 1.092273068267067E9    -7.912169396877289E-2   1.229881095752217E-1  -7.694683918066831E-1  -5.792868733406067E-1  -7.649640798412573E-1  -5.844947099685669E-1  -8.691733330488205E-2   1.309445814099161E-1  
 1.094523630907727E9    -7.950483262538910E-2   1.235463062081403E-1  -7.716605931060691E-1  -5.741887688636780E-1  -7.691949957945322E-1  -5.804600119590759E-1  -8.628522604703903E-2   1.322843975655770E-1  
 1.096774193548387E9    -7.770504802465439E-2   1.256753587128368E-1  -7.733287037096149E-1  -5.722183585166931E-1  -7.721702219663823E-1  -5.773010849952698E-1  -8.695776015520096E-2   1.327601817954377E-1  
 1.099024756189047E9    -7.959508150815964E-2   1.266178611741614E-1  -7.748154394364043E-1  -5.680250525474548E-1  -7.749945045892603E-1  -5.752669572830200E-1  -8.712289482355118E-2   1.326445373180462E-1  
 1.101275318829707E9    -8.008576929569244E-2   1.281122251775148E-1  -7.785874675549817E-1  -5.636229515075684E-1  -7.792695400082863E-1  -5.710209608078003E-1  -8.680368214845657E-2   1.330067963093091E-1  
 1.103525881470368E9    -8.049234002828598E-2   1.264221790014013E-1  -7.809244219271048E-1  -5.631629228591919E-1  -7.817952161746560E-1  -5.692762136459351E-1  -8.877833932638168E-2   1.325616184156652E-1  
 1.105776444111028E9    -8.154082298278809E-2   1.255204129682657E-1  -7.829496301011684E-1  -5.596163272857666E-1  -7.841237718856957E-1  -5.646739602088928E-1  -8.910766988992691E-2   1.318006422865400E-1  
 1.108027006751688E9    -8.279947191476822E-2   1.233575452929900E-1  -7.860916499328385E-1  -5.566380023956299E-1  -7.887681627786907E-1  -5.617294311523438E-1  -9.027519822120667E-2   1.313203360294558E-1  
 1.110277569392348E9    -8.362907916307449E-2   1.234357241469173E-1  -7.905207004534132E-1  -5.529826879501343E-1  -7.927442778979161E-1  -5.579478740692139E-1  -9.061384201049805E-2   1.314507548767251E-1  
 1.112528132033008E9    -8.339051157236099E-2   1.204346448685899E-1  -7.920422220170669E-1  -5.497367978096008E-1  -7.975181651714232E-1  -5.523361563682556E-1  -9.039591997861862E-2   1.310588941018481E-1  
 1.114778694673668E9    -8.423342555761337E-2   1.195485873926157E-1  -7.949667731838570E-1  -5.475233197212219E-1  -7.985311689998835E-1  -5.486986637115479E-1  -9.095467627048492E-2   1.294980545518984E-1  
 1.117029257314329E9    -8.319596946239471E-2   1.173606352574140E-1  -7.988499766742236E-1  -5.442341566085815E-1  -8.024706444029657E-1  -5.447732210159302E-1  -9.141324460506439E-2   1.306488936931086E-1  
 1.119279819954989E9    -8.272203803062439E-2   1.157904385674450E-1  -8.028425545337881E-1  -5.399916172027588E-1  -8.058092832330148E-1  -5.403205156326294E-1  -8.885493874549866E-2   1.298439772317576E-1  
 1.121530382595649E9    -8.099617063999176E-2   1.151079179473631E-1  -8.091342608239623E-1  -5.327083468437195E-1  -8.087941194636289E-1  -5.336185693740845E-1  -8.772255480289459E-2   1.301517760907264E-1  
 1.123780945236309E9    -7.881022989749908E-2   1.142742638823973E-1  -8.100754306560480E-1  -5.316008925437927E-1  -8.111327753110698E-1  -5.283116698265076E-1  -8.590088039636612E-2   1.296559469613783E-1  
 1.126031507876969E9    -7.840167731046677E-2   1.146306597464219E-1  -8.128516061667873E-1  -5.290395617485046E-1  -8.113994140378101E-1  -5.262705087661743E-1  -8.453970402479172E-2   1.314609631590316E-1  
 1.128282070517629E9    -7.583126425743103E-2   1.139587356985083E-1  -8.170645000609655E-1  -5.239707827568054E-1  -8.149744109920787E-1  -5.184342265129089E-1  -8.235580474138260E-2   1.307000834374706E-1  
 1.130532633158290E9    -7.362067699432373E-2   1.167335653102783E-1  -8.205794471446732E-1  -5.165920853614807E-1  -8.159641507628651E-1  -5.137330293655396E-1  -8.016321063041687E-2   1.312538181448428E-1  
 1.132783195798950E9    -7.169152051210403E-2   1.186151312745770E-1  -8.233302873430064E-1  -5.100461244583130E-1  -8.200502398809574E-1  -5.078764557838440E-1  -7.978927344083786E-2   1.324217853165418E-1  
 1.135033758439610E9    -6.895080953836441E-2   1.203521086989638E-1  -8.247583233149372E-1  -5.053906440734863E-1  -8.197097127317367E-1  -5.051579475402832E-1  -7.657697051763535E-2   1.329650375378890E-1  
 1.137284321080270E9    -6.713045388460159E-2   1.245583327079028E-1  -8.273119573265459E-1  -4.999979138374329E-1  -8.217431356981356E-1  -5.028904676437378E-1  -7.525359839200974E-2   1.348111258216236E-1  
 1.139534883720930E9    -6.499396264553070E-2   1.269503058180519E-1  -8.300089077634615E-1  -4.945656359195709E-1  -8.222735134997334E-1  -4.986648857593536E-1  -7.495909929275513E-2   1.372347209631566E-1  
 1.141785446361590E9    -6.416480243206024E-2   1.309708409931047E-1  -8.308849391099149E-1  -4.901127815246582E-1  -8.247355605435927E-1  -4.942675530910492E-1  -7.301700115203857E-2   1.388602015136418E-1  
 1.144036009002251E9    -6.370491534471512E-2   1.335517314074015E-1  -8.327158193142855E-1  -4.852290451526642E-1  -8.269647741837249E-1  -4.894863665103912E-1  -7.290523499250412E-2   1.406404579480798E-1  
 1.146286571642911E9    -6.244352087378502E-2   1.371655569850332E-1  -8.345188131951838E-1  -4.809997677803040E-1  -8.295354575515757E-1  -4.873624145984650E-1  -7.139584422111511E-2   1.419478857322694E-1  
 1.148537134283571E9    -6.431773304939270E-2   1.390924044998186E-1  -8.343153691667562E-1  -4.763010442256928E-1  -8.319043003717069E-1  -4.838031530380249E-1  -7.129555195569992E-2   1.432036457491492E-1  
 1.150787696924231E9    -6.239214539527893E-2   1.402225044699003E-1  -8.370128819465718E-1  -4.724368751049042E-1  -8.338546362502186E-1  -4.816585183143616E-1  -7.156153023242950E-2   1.438193234386066E-1  
 1.153038259564891E9    -6.445510685443878E-2   1.415519718875362E-1  -8.369303665370895E-1  -4.684741795063019E-1  -8.362827250537157E-1  -4.769645035266876E-1  -7.077854871749878E-2   1.446831059503121E-1  
 1.155288822205551E9    -6.534359604120255E-2   1.400538954671151E-1  -8.393156408057781E-1  -4.648799300193787E-1  -8.396423583763273E-1  -4.743881225585938E-1  -7.307035475969315E-2   1.442037080928922E-1  
 1.157539384846211E9    -6.715399771928787E-2   1.401047294321754E-1  -8.411221736960908E-1  -4.622153341770172E-1  -8.434518749114577E-1  -4.704551696777344E-1  -7.390158623456955E-2   1.435466377477200E-1  
 1.159789947486872E9    -6.794249266386032E-2   1.379694661874524E-1  -8.413926837169918E-1  -4.585007131099701E-1  -8.473826045226636E-1  -4.669880270957947E-1  -7.395351678133011E-2   1.438226269006898E-1  
 1.162040510127532E9    -6.904420256614685E-2   1.364643052810816E-1  -8.456546829067395E-1  -4.557758569717407E-1  -8.507411850884380E-1  -4.623962640762329E-1  -7.515980303287506E-2   1.433824125637627E-1  
 1.164291072768192E9    -7.046940922737122E-2   1.335187944829379E-1  -8.468794696695758E-1  -4.538272619247437E-1  -8.545870027714206E-1  -4.593535661697388E-1  -7.600557804107666E-2   1.427231895472891E-1  
 1.166541635408852E9    -7.022333890199661E-2   1.313203170306609E-1  -8.506609979956767E-1  -4.499555230140686E-1  -8.573263827494290E-1  -4.535112977027893E-1  -7.677760720252991E-2   1.415986806858635E-1  
 1.168792198049512E9    -7.160784304141998E-2   1.301641706806256E-1  -8.547988076732505E-1  -4.477545022964478E-1  -8.604203082398902E-1  -4.481543004512787E-1  -7.629468291997910E-2   1.409382646805559E-1  
 1.171042760690172E9    -7.075905799865723E-2   1.282735790313496E-1  -8.587618465631249E-1  -4.428999423980713E-1  -8.636888675675800E-1  -4.419525265693665E-1  -7.588231563568115E-2   1.418127416573497E-1  
 1.173293323330833E9    -6.876091659069061E-2   1.251910739185425E-1  -8.605923334871412E-1  -4.398402273654938E-1  -8.651220120908557E-1  -4.371887445449829E-1  -7.423123717308044E-2   1.406087051841459E-1  
 1.175543885971493E9    -6.705492734909058E-2   1.242452853770595E-1  -8.629553557721570E-1  -4.402265548706055E-1  -8.661056063125033E-1  -4.352776706218720E-1  -7.190086692571640E-2   1.414073014257347E-1  
 1.177794448612153E9    -6.431052833795548E-2   1.241367500442547E-1  -8.683431147404133E-1  -4.307684004306793E-1  -8.701334442302509E-1  -4.273604452610016E-1  -6.992421299219132E-2   1.404760034140620E-1  
 1.180045011252813E9    -6.209741905331612E-2   1.234249188110749E-1  -8.718924429274934E-1  -4.255700707435608E-1  -8.711534062300700E-1  -4.220418930053711E-1  -6.713642179965973E-2   1.402945733402353E-1  
 1.182295573893473E9    -5.993973836302757E-2   1.235409644173467E-1  -8.758225726144265E-1  -4.200464189052582E-1  -8.722374771162949E-1  -4.159370660781860E-1  -6.309546530246735E-2   1.405019439922894E-1  
 1.184546136534133E9    -5.680671334266663E-2   1.258594336356093E-1  -8.782616266178357E-1  -4.157132506370544E-1  -8.739924151496411E-1  -4.119826853275299E-1  -6.092636287212372E-2   1.409370221151559E-1  
 1.186796699174794E9    -5.530231073498726E-2   1.276839872649328E-1  -8.814649445975874E-1  -4.074218273162842E-1  -8.749880713793173E-1  -4.066418409347534E-1  -5.856497213244438E-2   1.408264388618292E-1  
 1.189047261815454E9    -5.206701159477234E-2   1.313654603545749E-1  -8.832782482356144E-1  -4.019190073013306E-1  -8.768613618937997E-1  -4.014375805854797E-1  -5.502698570489883E-2   1.421095508253744E-1  
 1.191297824456114E9    -5.023416504263878E-2   1.338324694569776E-1  -8.840406317417198E-1  -3.963689804077148E-1  -8.776642866851121E-1  -3.963985443115234E-1  -5.364678427577019E-2   1.437128162162413E-1  
 1.193548387096774E9    -4.969164356589317E-2   1.388711929406999E-1  -8.864466022165358E-1  -3.904484212398529E-1  -8.788891829302660E-1  -3.934838771820068E-1  -5.147735029459000E-2   1.459537061130553E-1  
 1.195798949737434E9    -4.842909798026085E-2   1.428236963709338E-1  -8.854667459762335E-1  -3.860046565532684E-1  -8.799801218205755E-1  -3.892174661159515E-1  -4.957908391952515E-2   1.473798562859121E-1  
 1.198049512378094E9    -4.726052656769753E-2   1.453156975005958E-1  -8.872009093065429E-1  -3.809075057506561E-1  -8.825864332371521E-1  -3.840386271476746E-1  -4.838965833187103E-2   1.497706923538537E-1  
 1.200300075018755E9    -4.697601869702339E-2   1.483300479953269E-1  -8.879930849223640E-1  -3.737391531467438E-1  -8.837090274063298E-1  -3.816571831703186E-1  -4.735503718256950E-2   1.522299824355947E-1  
 1.202550637659415E9    -4.776681214570999E-2   1.507762658551690E-1  -8.883507405226924E-1  -3.697609007358551E-1  -8.855124935467662E-1  -3.770005702972412E-1  -4.808667302131653E-2   1.536140169205029E-1  
 1.204801200300075E9    -4.843409359455109E-2   1.516981127784729E-1  -8.881059961936542E-1  -3.633013963699341E-1  -8.878977344796124E-1  -3.749094605445862E-1  -4.818998277187347E-2   1.579265245720342E-1  
 1.207051762940735E9    -4.802077263593674E-2   1.535220824251295E-1  -8.891914620762870E-1  -3.617727756500244E-1  -8.880602342919531E-1  -3.727322220802307E-1  -4.851297289133072E-2   1.581020560464072E-1  
 1.209302325581395E9    -5.080964043736458E-2   1.526500095907049E-1  -8.903397225325644E-1  -3.568246662616730E-1  -8.911048040278888E-1  -3.672358691692352E-1  -5.007294192910194E-2   1.594347046018294E-1  
