#  HZ   S   RI   R     50.0 
! Rohde & Schwarz ZVL13 2Ports - Version 3.31 - 1303.6509k13 SN: 101088
! Date: 2023-03-09 14:11:31
! Data & Calibration Information:
! Trc4:S11(TOSM) Trc2:S21(TOSM) Trc3:S12(TOSM) Trc5:S22(TOSM)
! 
! 
! 
 1.000000000000000E9    -9.869705140590668E-2   9.241300922909800E-2  -6.317838061148584E-1  -7.384477853775024E-1  -6.334357189476647E-1  -7.392274141311646E-1  -1.069216951727867E-1   9.685310213445594E-2  
 1.002250562640660E9    -1.000611186027527E-1   9.250631961799399E-2  -6.373408816496937E-1  -7.354706525802612E-1  -6.365448240260958E-1  -7.371898889541626E-1  -1.087762936949730E-1   9.741028984997791E-2  
 1.004501125281320E9    -1.011701226234436E-1   9.318051790083599E-2  -6.410002598146769E-1  -7.315480113029480E-1  -6.421277604805789E-1  -7.331507802009583E-1  -1.094575226306915E-1   9.654675059048615E-2  
 1.006751687921981E9    -1.027884483337402E-1   9.285134069921720E-2  -6.444250038612842E-1  -7.293279170989990E-1  -6.456507205380888E-1  -7.307882308959961E-1  -1.107884347438812E-1   9.702903407409522E-2  
 1.009002250562641E9    -1.050066351890564E-1   9.206116747206469E-2  -6.487994150805729E-1  -7.263029217720032E-1  -6.498499416403070E-1  -7.272506356239319E-1  -1.113178208470345E-1   9.804078431398976E-2  
 1.011252813203301E9    -1.045770496129990E-1   9.141235313940659E-2  -6.540885808245991E-1  -7.233374714851379E-1  -6.546796467355684E-1  -7.230966687202454E-1  -1.110331416130066E-1   9.761023595488375E-2  
 1.013503375843961E9    -1.042374223470688E-1   9.038558220944284E-2  -6.590492347339890E-1  -7.194082736968994E-1  -6.582546634549351E-1  -7.188674211502075E-1  -1.105190217494965E-1   9.765580483706371E-2  
 1.015753938484621E9    -1.032639816403389E-1   8.931162564834314E-2  -6.634531224796356E-1  -7.150660157203674E-1  -6.620412702241582E-1  -7.129493951797485E-1  -1.103164106607437E-1   9.923561508729338E-2  
 1.018004501125281E9    -1.017985939979553E-1   8.972580158366900E-2  -6.668623390154903E-1  -7.110453248023987E-1  -6.652151352402526E-1  -7.092784047126770E-1  -1.094852611422539E-1   9.822172873525900E-2  
 1.020255063765942E9    -1.007225364446640E-1   8.974803105203223E-2  -6.710652355947883E-1  -7.058941125869751E-1  -6.687135907768296E-1  -7.046513557434082E-1  -1.073826476931572E-1   9.957015070049491E-2  
 1.022505626406602E9    -9.848278015851975E-2   8.909155714281070E-2  -6.748525083986252E-1  -7.028988599777222E-1  -6.718209251568171E-1  -6.999304294586182E-1  -1.074961274862289E-1   1.005601113927096E-1  
 1.024756189047262E9    -9.689237177371979E-2   9.240119107860158E-2  -6.782614624610304E-1  -6.968496441841126E-1  -6.736908234343826E-1  -6.970702409744263E-1  -1.061222106218338E-1   1.017020328668750E-1  
 1.027006751687922E9    -9.552727639675140E-2   9.138101446844336E-2  -6.823103368347038E-1  -6.928721666336060E-1  -6.780590003128763E-1  -6.913357377052307E-1  -1.053717955946922E-1   1.025456205704814E-1  
 1.029257314328582E9    -9.301535785198212E-2   9.393571250932584E-2  -6.847999679077399E-1  -6.874883174896240E-1  -6.804582845568515E-1  -6.882700324058533E-1  -1.040859743952751E-1   1.049914473246490E-1  
 1.031507876969242E9    -8.998221158981323E-2   9.686646516493831E-2  -6.873214179010292E-1  -6.848222017288208E-1  -6.840941268573879E-1  -6.848428845405579E-1  -1.021891161799431E-1   1.054340523645939E-1  
 1.033758439609903E9    -8.932474255561829E-2   9.815210695505809E-2  -6.904517208471557E-1  -6.794316172599793E-1  -6.850967994602579E-1  -6.820731759071350E-1  -1.014701798558235E-1   1.092037780814811E-1  
 1.036009002250563E9    -8.771678805351257E-2   1.025012393529938E-1  -6.928264633531509E-1  -6.760356426239014E-1  -6.877610631451480E-1  -6.787951588630676E-1  -1.007185205817223E-1   1.104331218987175E-1  
 1.038259564891223E9    -8.621933311223984E-2   1.041217266786282E-1  -6.945736507740481E-1  -6.725093126296997E-1  -6.906140838764592E-1  -6.763112545013428E-1  -9.956629574298859E-2   1.122028319107095E-1  
 1.040510127531883E9    -8.544464409351349E-2   1.076432051272573E-1  -6.953634673478154E-1  -6.699615716934204E-1  -6.925154745145459E-1  -6.715337634086609E-1  -9.802492707967758E-2   1.131577883223127E-1  
 1.042760690172543E9    -8.621466159820557E-2   1.081610256898611E-1  -6.996522943892807E-1  -6.669655442237854E-1  -6.962898389240209E-1  -6.693299412727356E-1  -9.735598415136337E-2   1.143334780634740E-1  
 1.045011252813203E9    -8.525685966014862E-2   1.098488999219274E-1  -7.007224068571666E-1  -6.623720526695252E-1  -7.000941054026825E-1  -6.670209765434265E-1  -9.737770259380341E-2   1.150665715965246E-1  
 1.047261815453864E9    -8.669714629650116E-2   1.108664656610602E-1  -7.053345232036398E-1  -6.578767299652100E-1  -7.034001531387697E-1  -6.650533080101013E-1  -9.828064590692520E-2   1.158079849036903E-1  
 1.049512378094524E9    -8.790826052427292E-2   1.110407913561137E-1  -7.078987627845034E-1  -6.567483544349670E-1  -7.074263222978755E-1  -6.616710424423218E-1  -9.837259352207184E-2   1.162698301991259E-1  
 1.051762940735184E9    -9.094372391700745E-2   1.108595560434098E-1  -7.108842093035964E-1  -6.533027291297913E-1  -7.113703773831409E-1  -6.602691411972046E-1  -9.936356544494629E-2   1.145608533887154E-1  
 1.054013503375844E9    -9.166286885738373E-2   1.094686021543366E-1  -7.142336528189015E-1  -6.517728567123413E-1  -7.159661204085542E-1  -6.549943685531616E-1  -9.939399361610413E-2   1.156837643735732E-1  
 1.056264066016504E9    -9.481258690357208E-2   1.088568131249346E-1  -7.191963662428502E-1  -6.478585004806519E-1  -7.209861139007325E-1  -6.513401269912720E-1  -1.002859920263290E-1   1.162191502990057E-1  
 1.058514628657164E9    -9.689905494451523E-2   1.090537207702681E-1  -7.216025863214811E-1  -6.459341049194336E-1  -7.252254942396256E-1  -6.479262709617615E-1  -1.000688821077347E-1   1.160898210178727E-1  
 1.060765191297825E9    -9.711428731679916E-2   1.072891703102575E-1  -7.278717010689483E-1  -6.407156586647034E-1  -7.273343125471419E-1  -6.450120210647583E-1  -1.008867695927620E-1   1.166776199463608E-1  
 1.063015753938485E9    -9.780451655387878E-2   1.071222411521312E-1  -7.314732983166423E-1  -6.378247737884522E-1  -7.338993975506984E-1  -6.387842893600464E-1  -1.012588590383530E-1   1.169359981551144E-1  
 1.065266316579145E9    -9.849500656127930E-2   1.063589245809990E-1  -7.352968770677184E-1  -6.348692774772644E-1  -7.360040037763403E-1  -6.340637207031250E-1  -1.002842336893082E-1   1.185669175647274E-1  
 1.067516879219805E9    -9.847125411033630E-2   1.047935234074855E-1  -7.395865828233111E-1  -6.304665207862854E-1  -7.393113988991944E-1  -6.295775771141052E-1  -9.995565563440323E-2   1.177113029063977E-1  
 1.069767441860465E9    -9.817440062761307E-2   1.044363599185104E-1  -7.436305575189902E-1  -6.275227069854736E-1  -7.428596402549896E-1  -6.244049668312073E-1  -9.919148683547974E-2   1.194689756231007E-1  
 1.072018004501125E9    -9.761845320463181E-2   1.038605391975589E-1  -7.471267875655033E-1  -6.200899481773377E-1  -7.449349501428749E-1  -6.204505562782288E-1  -9.781228005886078E-2   1.195211286369505E-1  
 1.074268567141785E9    -9.499548375606537E-2   1.042839822824265E-1  -7.520373509467425E-1  -6.169610619544983E-1  -7.486240731257338E-1  -6.159356832504273E-1  -9.607432037591934E-2   1.205665408558110E-1  
 1.076519129782446E9    -9.403985738754273E-2   1.056358045890828E-1  -7.543492430649053E-1  -6.107997298240662E-1  -7.512967950453984E-1  -6.103857755661011E-1  -9.485002607107163E-2   1.223401282034473E-1  
 1.078769692423106E9    -9.049604088068008E-2   1.070315038501077E-1  -7.573859278163303E-1  -6.069465875625610E-1  -7.532626104156396E-1  -6.052116751670837E-1  -9.301259368658066E-2   1.232465697771154E-1  
 1.081020255063766E9    -8.909815549850464E-2   1.091324557042780E-1  -7.597320929063139E-1  -6.018717288970947E-1  -7.561635539384505E-1  -6.003565192222595E-1  -9.193564951419830E-2   1.240613860337607E-1  
 1.083270817704426E9    -8.710107952356339E-2   1.120403189615242E-1  -7.629410892391093E-1  -5.961455702781677E-1  -7.562078707042751E-1  -5.989044904708862E-1  -9.114409983158112E-2   1.251122485276587E-1  
 1.085521380345086E9    -8.531005680561066E-2   1.139969172222532E-1  -7.641815855305788E-1  -5.923054814338684E-1  -7.594398843060534E-1  -5.949842333793640E-1  -8.939444273710251E-2   1.276877007287815E-1  
 1.087771942985746E9    -8.288421481847763E-2   1.171567852112860E-1  -7.643208177006178E-1  -5.904411077499390E-1  -7.615338493260042E-1  -5.907212495803833E-1  -8.916179090738297E-2   1.281306946912793E-1  
 1.090022505626407E9    -8.091701567173004E-2   1.207842341891954E-1  -7.673032705900051E-1  -5.849366784095764E-1  -7.623517093941368E-1  -5.888853669166565E-1  -8.810856938362122E-2   1.301305293721180E-1  
 1.092273068267067E9    -8.003668487071991E-2   1.227272352086126E-1  -7.693991968307409E-1  -5.794818401336670E-1  -7.649909594769021E-1  -5.844834446907044E-1  -8.724515885114670E-2   1.311204122346908E-1  
 1.094523630907727E9    -7.954363524913788E-2   1.240494948809505E-1  -7.720239709850245E-1  -5.748510956764221E-1  -7.680449073814304E-1  -5.811602473258972E-1  -8.707726746797562E-2   1.325003047305502E-1  
 1.096774193548387E9    -7.834132760763168E-2   1.259616672829207E-1  -7.729265844275896E-1  -5.731733441352844E-1  -7.715958790512683E-1  -5.769824981689453E-1  -8.627960830926895E-2   1.328809238822409E-1  
 1.099024756189047E9    -7.960047572851181E-2   1.266174082682413E-1  -7.749247798577120E-1  -5.676046013832092E-1  -7.740600336642152E-1  -5.745336413383484E-1  -8.742026239633560E-2   1.328932923233128E-1  
 1.101275318829707E9    -7.952768355607987E-2   1.273658086829200E-1  -7.773350395070796E-1  -5.651477575302124E-1  -7.790044371879277E-1  -5.705034136772156E-1  -8.693025261163712E-2   1.330273449732611E-1  
 1.103525881470368E9    -8.037973940372467E-2   1.266592249197904E-1  -7.800442255300015E-1  -5.626900196075440E-1  -7.806150140283492E-1  -5.682257413864136E-1  -8.779823780059815E-2   1.324077984595297E-1  
 1.105776444111028E9    -8.152829110622406E-2   1.253338495790720E-1  -7.819988061481878E-1  -5.604953765869141E-1  -7.843758261394369E-1  -5.655317306518555E-1  -8.930628001689911E-2   1.311412705257170E-1  
 1.108027006751688E9    -8.282615244388580E-2   1.229636800281888E-1  -7.848647594634419E-1  -5.566238760948181E-1  -7.884408853715366E-1  -5.618480443954468E-1  -9.027276933193207E-2   1.314608295008279E-1  
 1.110277569392348E9    -8.331558853387833E-2   1.231852529448133E-1  -7.884858726469839E-1  -5.549112558364868E-1  -7.919983146276775E-1  -5.573123693466187E-1  -9.034769237041473E-2   1.319328541318186E-1  
 1.112528132033008E9    -8.340668678283691E-2   1.207115664721807E-1  -7.909768043853427E-1  -5.506286621093750E-1  -7.970851883090281E-1  -5.521241426467896E-1  -9.058237075805664E-2   1.312555487641938E-1  
 1.114778694673668E9    -8.436795324087143E-2   1.195885591994823E-1  -7.953374393776442E-1  -5.479843616485596E-1  -7.995730720772194E-1  -5.475443601608276E-1  -9.067623317241669E-2   1.297368857684050E-1  
 1.117029257314329E9    -8.287014812231064E-2   1.171240479903736E-1  -7.987236424138435E-1  -5.429087281227112E-1  -8.029757028522983E-1  -5.439723134040833E-1  -9.090100973844528E-2   1.304681034527385E-1  
 1.119279819954989E9    -8.209241926670075E-2   1.159975679947035E-1  -8.022670293525263E-1  -5.417406558990479E-1  -8.054127421928415E-1  -5.400130152702332E-1  -8.966902643442154E-2   1.300270607978283E-1  
 1.121530382595649E9    -8.066529780626297E-2   1.151562812139260E-1  -8.070407187366715E-1  -5.353745818138123E-1  -8.083511202786885E-1  -5.337064266204834E-1  -8.771429955959320E-2   1.305966202328818E-1  
 1.123780945236309E9    -7.900013774633408E-2   1.140243450194428E-1  -8.098427798299743E-1  -5.314987301826477E-1  -8.101402182112960E-1  -5.281312465667725E-1  -8.534006029367447E-2   1.297928774105766E-1  
 1.126031507876969E9    -7.763405889272690E-2   1.140510644968538E-1  -8.136622462991998E-1  -5.277652740478516E-1  -8.124791300579555E-1  -5.224407315254211E-1  -8.433752506971359E-2   1.310719793686180E-1  
 1.128282070517629E9    -7.568589597940445E-2   1.142139293477096E-1  -8.170543271578226E-1  -5.219095349311829E-1  -8.149452053985967E-1  -5.197124481201172E-1  -8.235126733779907E-2   1.311131877600781E-1  
 1.130532633158290E9    -7.309444993734360E-2   1.170352839993300E-1  -8.194560432450616E-1  -5.165656805038452E-1  -8.162056605549142E-1  -5.136489868164063E-1  -8.061236143112183E-2   1.313826440861841E-1  
 1.132783195798950E9    -7.193627953529358E-2   1.187617456230437E-1  -8.235613984004271E-1  -5.107794404029846E-1  -8.176907792971857E-1  -5.098698139190674E-1  -7.906973361968994E-2   1.323178373715202E-1  
 1.135033758439610E9    -6.880462914705277E-2   1.202006935820241E-1  -8.252052447389510E-1  -5.051425695419312E-1  -8.196368345313415E-1  -5.048900246620178E-1  -7.729854434728622E-2   1.333984595370530E-1  
 1.137284321080270E9    -6.742831319570541E-2   1.247144579676488E-1  -8.279767304327963E-1  -4.995596110820770E-1  -8.221770575027648E-1  -5.015635490417481E-1  -7.529170066118240E-2   1.347587887609150E-1  
 1.139534883720930E9    -6.487414240837097E-2   1.268955621745235E-1  -8.300122644827161E-1  -4.953660070896149E-1  -8.223943409712311E-1  -4.972814321517944E-1  -7.498397678136826E-2   1.368659062625048E-1  
 1.141785446361590E9    -6.425906717777252E-2   1.314404339353237E-1  -8.307963192224432E-1  -4.898806512355804E-1  -8.244406239634471E-1  -4.931722879409790E-1  -7.242508232593536E-2   1.385946624652389E-1  
 1.144036009002251E9    -6.372067332267761E-2   1.333476310200945E-1  -8.318203143744738E-1  -4.857232272624970E-1  -8.261439588088680E-1  -4.895936846733093E-1  -7.285231351852417E-2   1.405612567956443E-1  
 1.146286571642911E9    -6.309302896261215E-2   1.371824011315999E-1  -8.332824093647158E-1  -4.816392064094544E-1  -8.287071609669652E-1  -4.858338832855225E-1  -7.097539305686951E-2   1.403609630832131E-1  
 1.148537134283571E9    -6.429009139537811E-2   1.398324925746851E-1  -8.347917615478943E-1  -4.757337570190430E-1  -8.320309387919961E-1  -4.825655221939087E-1  -7.119370996952057E-2   1.432281415260339E-1  
 1.150787696924231E9    -6.286187469959259E-2   1.401975484048656E-1  -8.381892313298464E-1  -4.712803959846497E-1  -8.344913038190757E-1  -4.814906716346741E-1  -7.175724953413010E-2   1.438944134261727E-1  
 1.153038259564891E9    -6.387145072221756E-2   1.407528632288690E-1  -8.353209748920027E-1  -4.679633677005768E-1  -8.350147400810305E-1  -4.780910611152649E-1  -7.103377580642700E-2   1.445419218304170E-1  
 1.155288822205551E9    -6.532329320907593E-2   1.402302193321615E-1  -8.384425496675507E-1  -4.647670388221741E-1  -8.395525710453230E-1  -4.733726680278778E-1  -7.305540144443512E-2   1.443806581667795E-1  
 1.157539384846211E9    -6.764095276594162E-2   1.405251966560680E-1  -8.405259351011852E-1  -4.627564847469330E-1  -8.442210476733068E-1  -4.683976769447327E-1  -7.298865914344788E-2   1.440776267183965E-1  
 1.159789947486872E9    -6.774676591157913E-2   1.388569535226696E-1  -8.423669482290668E-1  -4.577603936195374E-1  -8.462223736504968E-1  -4.666728973388672E-1  -7.382489740848541E-2   1.434359102596301E-1  
 1.162040510127532E9    -6.939859688282013E-2   1.362468926951122E-1  -8.448208679379613E-1  -4.576915800571442E-1  -8.500689638525790E-1  -4.624114632606506E-1  -7.498448342084885E-2   1.426444365838402E-1  
 1.164291072768192E9    -7.039581239223480E-2   1.337901718934134E-1  -8.467131221288206E-1  -4.536708593368530E-1  -8.539273049696592E-1  -4.582163095474243E-1  -7.556702196598053E-2   1.430799047588704E-1  
 1.166541635408852E9    -7.061700522899628E-2   1.305728645457757E-1  -8.508083256745083E-1  -4.503088295459747E-1  -8.570390781030953E-1  -4.544177353382111E-1  -7.641804963350296E-2   1.414846139660233E-1  
 1.168792198049512E9    -7.148795574903488E-2   1.293629449455110E-1  -8.541738675143530E-1  -4.483201503753662E-1  -8.602015731160637E-1  -4.483721554279327E-1  -7.691635191440582E-2   1.407611850170820E-1  
 1.171042760690172E9    -7.124868035316467E-2   1.275073042723551E-1  -8.575513930948472E-1  -4.440991580486298E-1  -8.630883777695706E-1  -4.433126747608185E-1  -7.581692188978195E-2   1.417978013047050E-1  
 1.173293323330833E9    -6.829001754522324E-2   1.256586772886575E-1  -8.603998581589111E-1  -4.392434060573578E-1  -8.644808060525320E-1  -4.374648332595825E-1  -7.408807426691055E-2   1.412648047537090E-1  
 1.175543885971493E9    -6.708076596260071E-2   1.249899392002147E-1  -8.634593730802442E-1  -4.384454488754273E-1  -8.664967610607950E-1  -4.342446625232697E-1  -7.109517604112625E-2   1.411940348360196E-1  
 1.177794448612153E9    -6.492886692285538E-2   1.242897694496264E-1  -8.686306257498344E-1  -4.306322038173676E-1  -8.698209683673387E-1  -4.268096387386322E-1  -6.949284672737122E-2   1.404914682752590E-1  
 1.180045011252813E9    -6.251007318496704E-2   1.245048425107280E-1  -8.714268017791971E-1  -4.261742830276489E-1  -8.708761862950666E-1  -4.215113818645477E-1  -6.730169057846069E-2   1.405413680326379E-1  
 1.182295573893473E9    -5.960515141487122E-2   1.238179590550634E-1  -8.754338820958942E-1  -4.200955629348755E-1  -8.723991970502300E-1  -4.155414700508118E-1  -6.296815723180771E-2   1.406072452187992E-1  
 1.184546136534133E9    -5.658598244190216E-2   1.260160112389744E-1  -8.779443927136441E-1  -4.144132733345032E-1  -8.738095259732778E-1  -4.112519621849060E-1  -6.055724993348122E-2   1.408784129288236E-1  
 1.186796699174794E9    -5.500812456011772E-2   1.275233134392053E-1  -8.809556485027440E-1  -4.078862667083740E-1  -8.747232633657772E-1  -4.058937132358551E-1  -5.847307667136192E-2   1.413533365080277E-1  
 1.189047261815454E9    -5.238965526223183E-2   1.324153905211256E-1  -8.827487209351511E-1  -4.025954008102417E-1  -8.765387376105672E-1  -4.023631215095520E-1  -5.565043166279793E-2   1.421974900738596E-1  
 1.191297824456114E9    -4.992067068815231E-2   1.339499358614789E-1  -8.838903152083119E-1  -3.963856995105743E-1  -8.768617639662503E-1  -3.974760770797730E-1  -5.389420315623283E-2   1.438450970538928E-1  
 1.193548387096774E9    -4.964132234454155E-2   1.378595494009488E-1  -8.845021987232149E-1  -3.906016945838928E-1  -8.784591988024963E-1  -3.934723436832428E-1  -5.152047052979469E-2   1.461330105435083E-1  
 1.195798949737434E9    -4.822187125682831E-2   1.429163282609626E-1  -8.854873645244598E-1  -3.854586780071259E-1  -8.802765099314466E-1  -3.877963721752167E-1  -4.968677461147308E-2   1.481824169025938E-1  
 1.198049512378094E9    -4.667066037654877E-2   1.453525320209899E-1  -8.875795243251259E-1  -3.791525065898895E-1  -8.817550361631651E-1  -3.860672116279602E-1  -4.889256879687309E-2   1.494416382388867E-1  
 1.200300075018755E9    -4.598136618733406E-2   1.480954451789482E-1  -8.881266021955743E-1  -3.730624616146088E-1  -8.839891358446820E-1  -3.828837275505066E-1  -4.828277230262756E-2   1.523280479978401E-1  
 1.202550637659415E9    -4.688521847128868E-2   1.508945712963720E-1  -8.875870318911439E-1  -3.696781694889069E-1  -8.848387059858323E-1  -3.780646622180939E-1  -4.873749986290932E-2   1.536500474559826E-1  
 1.204801200300075E9    -4.861658439040184E-2   1.512229523646775E-1  -8.877108909869889E-1  -3.640836179256439E-1  -8.868729356438736E-1  -3.747444450855255E-1  -4.861477762460709E-2   1.577087213744962E-1  
 1.207051762940735E9    -4.835642129182816E-2   1.527488366642537E-1  -8.886773476577646E-1  -3.624731302261353E-1  -8.882938006828209E-1  -3.720199465751648E-1  -4.887747019529343E-2   1.589267219607763E-1  
 1.209302325581395E9    -5.009215325117111E-2   1.519078502393880E-1  -8.890093617485220E-1  -3.567327260971069E-1  -8.913841526424805E-1  -3.675385713577271E-1  -5.022805184125900E-2   1.606393740424517E-1  
