#  HZ   S   RI   R     50.0 
! Rohde & Schwarz ZVL13 2Ports - Version 3.31 - 1303.6509k13 SN: 101088
! Date: 2023-03-09 14:09:54
! Data & Calibration Information:
! Trc4:S11(TOSM) Trc2:S21(TOSM) Trc3:S12(TOSM) Trc5:S22(TOSM)
! 
! 
! 
 1.000000000000000E9    -9.880941361188889E-2   9.308674893516243E-2  -6.334461988913248E-1  -7.363398075103760E-1  -6.337336436502634E-1  -7.387959361076355E-1  -1.068715304136276E-1   9.692824922559866E-2  
 1.002250562640660E9    -9.943326562643051E-2   9.317135344285732E-2  -6.368180509188182E-1  -7.343463301658630E-1  -6.358660576928845E-1  -7.372372746467590E-1  -1.086047738790512E-1   9.675121918478123E-2  
 1.004501125281320E9    -1.010452732443810E-1   9.335146801200353E-2  -6.406559298203147E-1  -7.317661046981812E-1  -6.406978988491913E-1  -7.330226898193359E-1  -1.092933341860771E-1   9.645596258705259E-2  
 1.006751687921981E9    -1.021137014031410E-1   9.300371583278820E-2  -6.450369233718243E-1  -7.284637093544006E-1  -6.452251178530870E-1  -7.297216653823853E-1  -1.103678047657013E-1   9.717459975554904E-2  
 1.009002250562641E9    -1.040496155619621E-1   9.262562903040013E-2  -6.489827150862128E-1  -7.248066663742065E-1  -6.494346281715200E-1  -7.267737984657288E-1  -1.103058606386185E-1   9.807053902257248E-2  
 1.011252813203301E9    -1.047754138708115E-1   9.169430519035654E-2  -6.541471655332815E-1  -7.229204773902893E-1  -6.543036253167421E-1  -7.215514183044434E-1  -1.102470085024834E-1   9.824010794628631E-2  
 1.013503375843961E9    -1.040015891194344E-1   9.027006889655062E-2  -6.589389873610902E-1  -7.174843549728394E-1  -6.581870652841944E-1  -7.175661921501160E-1  -1.097197830677033E-1   9.809415010438562E-2  
 1.015753938484621E9    -1.031063795089722E-1   8.933755373975146E-2  -6.635006547072312E-1  -7.136723399162293E-1  -6.612850486636140E-1  -7.123742699623108E-1  -1.096767187118530E-1   9.995086534643950E-2  
 1.018004501125281E9    -1.014613658189774E-1   8.940340762192435E-2  -6.674181450963603E-1  -7.102392315864563E-1  -6.666238465390073E-1  -7.083749175071716E-1  -1.093254089355469E-1   9.874651084903291E-2  
 1.020255063765942E9    -9.990142285823822E-2   9.005838776897829E-2  -6.718009060396553E-1  -7.054868936538696E-1  -6.690436439377637E-1  -7.039057016372681E-1  -1.068086251616478E-1   1.001903434925673E-1  
 1.022505626406602E9    -9.811946004629135E-2   8.986369122478007E-2  -6.746447179231057E-1  -7.018842697143555E-1  -6.712671132606561E-1  -7.001726031303406E-1  -1.073126494884491E-1   1.006196296338117E-1  
 1.024756189047262E9    -9.694022685289383E-2   9.256760686183915E-2  -6.781125787528213E-1  -6.968597173690796E-1  -6.742100669900858E-1  -6.952887773513794E-1  -1.056020110845566E-1   1.017910418440617E-1  
 1.027006751687922E9    -9.451483935117722E-2   9.182009630972193E-2  -6.819744101066915E-1  -6.911870241165161E-1  -6.782154047186899E-1  -6.900938153266907E-1  -1.050432324409485E-1   1.024858060339866E-1  
 1.029257314328582E9    -9.288012236356735E-2   9.340681935150352E-2  -6.837593388694123E-1  -6.875793933868408E-1  -6.805329534186051E-1  -6.877617835998535E-1  -1.034940704703331E-1   1.046425570234857E-1  
 1.031507876969242E9    -9.032355248928070E-2   9.743789444889256E-2  -6.870861658397992E-1  -6.827672719955444E-1  -6.833767545800485E-1  -6.843930482864380E-1  -1.017830073833466E-1   1.056831048641990E-1  
 1.033758439609903E9    -8.928542584180832E-2   9.917169432409415E-2  -6.904589901128253E-1  -6.787254810333252E-1  -6.850002482745037E-1  -6.814519762992859E-1  -1.015558838844299E-1   1.089941831065979E-1  
 1.036009002250563E9    -8.778169751167297E-2   1.018195192876600E-1  -6.909080197572445E-1  -6.755635738372803E-1  -6.873681759982898E-1  -6.781761646270752E-1  -9.974792599678040E-2   1.111082806399936E-1  
 1.038259564891223E9    -8.647314459085465E-2   1.044170687768501E-1  -6.944428909044768E-1  -6.726380586624146E-1  -6.902442837627330E-1  -6.749390959739685E-1  -9.929769486188889E-2   1.120059931421681E-1  
 1.040510127531883E9    -8.543721586465836E-2   1.081620748377995E-1  -6.962141926082325E-1  -6.686524748802185E-1  -6.923827571977305E-1  -6.713044643402100E-1  -9.901200979948044E-2   1.130273096890037E-1  
 1.042760690172543E9    -8.562708646059036E-2   1.074969912270647E-1  -6.994629737138379E-1  -6.664723157882690E-1  -6.966579034486904E-1  -6.686673164367676E-1  -9.755101799964905E-2   1.133676557240459E-1  
 1.045011252813203E9    -8.487778902053833E-2   1.101453204005645E-1  -7.011937725242206E-1  -6.621958613395691E-1  -6.993343474265436E-1  -6.666055321693420E-1  -9.701500833034515E-2   1.147370461598111E-1  
 1.047261815453864E9    -8.671992272138596E-2   1.103201348436868E-1  -7.047556302576783E-1  -6.577573418617249E-1  -7.035468593202358E-1  -6.633673310279846E-1  -9.803634881973267E-2   1.165159213907402E-1  
 1.049512378094524E9    -8.806499838829041E-2   1.106729250120527E-1  -7.072787271990469E-1  -6.560760140419006E-1  -7.079802823156203E-1  -6.604301333427429E-1  -9.820035099983215E-2   1.162589612708191E-1  
 1.051762940735184E9    -9.088050574064255E-2   1.106275722916468E-1  -7.106089586551370E-1  -6.536272168159485E-1  -7.112732324516168E-1  -6.597651243209839E-1  -9.934479743242264E-2   1.145044305051829E-1  
 1.054013503375844E9    -9.127496182918549E-2   1.095007901369658E-1  -7.136991614645976E-1  -6.511468291282654E-1  -7.156364380574648E-1  -6.540362238883972E-1  -9.929786622524262E-2   1.157376546491978E-1  
 1.056264066016504E9    -9.416179358959198E-2   1.090484662060058E-1  -7.191144159885430E-1  -6.466820240020752E-1  -7.212025068252610E-1  -6.495018601417542E-1  -1.000261306762695E-1   1.168489524882373E-1  
 1.058514628657164E9    -9.612718969583511E-2   1.091343358865133E-1  -7.205355139596369E-1  -6.454365849494934E-1  -7.257104324346638E-1  -6.459597349166870E-1  -9.981229901313782E-2   1.162180112720822E-1  
 1.060765191297825E9    -9.649237990379334E-2   1.075068614759264E-1  -7.265657204065140E-1  -6.407720446586609E-1  -7.283173531560435E-1  -6.440919637680054E-1  -1.011973619461060E-1   1.168792178948604E-1  
 1.063015753938485E9    -9.739849716424942E-2   1.071178194663128E-1  -7.315880815465955E-1  -6.370669007301331E-1  -7.339999187739928E-1  -6.369476914405823E-1  -1.002303212881088E-1   1.176624133481511E-1  
 1.065266316579145E9    -9.759421646595001E-2   1.067313499968060E-1  -7.348090334365267E-1  -6.339149475097656E-1  -7.371902680941901E-1  -6.319997906684876E-1  -9.982779622077942E-2   1.184780247242602E-1  
 1.067516879219805E9    -9.805116057395935E-2   1.047646021085442E-1  -7.383514809840492E-1  -6.311398744583130E-1  -7.390208273200490E-1  -6.299366950988770E-1  -9.949620813131332E-2   1.186287404896526E-1  
 1.069767441860465E9    -9.767349064350128E-2   1.037000376092635E-1  -7.430447664046624E-1  -6.262820959091187E-1  -7.419552090348967E-1  -6.242981553077698E-1  -9.834501892328262E-2   1.195887198259529E-1  
 1.072018004501125E9    -9.677683562040329E-2   1.044091578131405E-1  -7.469248484014460E-1  -6.201571822166443E-1  -7.450321412083223E-1  -6.200162768363953E-1  -9.749202430248261E-2   1.195926665272829E-1  
 1.074268567141785E9    -9.487442672252655E-2   1.047491789007456E-1  -7.514357370363644E-1  -6.146206855773926E-1  -7.477924680995266E-1  -6.148632764816284E-1  -9.588117897510529E-2   1.208634834030102E-1  
 1.076519129782446E9    -9.417863190174103E-2   1.055523078989615E-1  -7.544359355701297E-1  -6.108803153038025E-1  -7.508089646991839E-1  -6.089692711830139E-1  -9.424223750829697E-2   1.222089794140977E-1  
 1.078769692423106E9    -9.014809876680374E-2   1.074713338922803E-1  -7.573595519172947E-1  -6.062785983085632E-1  -7.537536236521593E-1  -6.045457720756531E-1  -9.237100183963776E-2   1.230822266763488E-1  
 1.081020255063766E9    -8.913739770650864E-2   1.089308043748869E-1  -7.600839550934742E-1  -6.006862521171570E-1  -7.560139295485345E-1  -5.998334288597107E-1  -9.208729863166809E-2   1.241792262530103E-1  
 1.083270817704426E9    -8.708402514457703E-2   1.121937455517226E-1  -7.619435364723450E-1  -5.961691737174988E-1  -7.569440335934746E-1  -5.974008440971375E-1  -9.020747989416122E-2   1.257515194720262E-1  
 1.085521380345086E9    -8.491262793540955E-2   1.141041906751101E-1  -7.637552396555869E-1  -5.910295844078064E-1  -7.588096841507049E-1  -5.941732525825501E-1  -8.936382085084915E-2   1.271980830416955E-1  
 1.087771942985746E9    -8.290194720029831E-2   1.177978384011757E-1  -7.645457185068436E-1  -5.882606506347656E-1  -7.616315751757605E-1  -5.894733071327210E-1  -8.959217369556427E-2   1.281670574039667E-1  
 1.090022505626407E9    -8.035481721162796E-2   1.215363758058812E-1  -7.671114299709965E-1  -5.833894014358521E-1  -7.621672996336862E-1  -5.878110527992249E-1  -8.751988410949707E-2   1.303532041745594E-1  
 1.092273068267067E9    -7.888557016849518E-2   1.227349495198646E-1  -7.694597114201942E-1  -5.792919993400574E-1  -7.640634179186269E-1  -5.837800502777100E-1  -8.765377104282379E-2   1.308079709666570E-1  
 1.094523630907727E9    -7.956652343273163E-2   1.238797371681640E-1  -7.716229487992762E-1  -5.738731622695923E-1  -7.677235000605137E-1  -5.809172987937927E-1  -8.680795878171921E-2   1.317429530039776E-1  
 1.096774193548387E9    -7.830599695444107E-2   1.267250228830119E-1  -7.724235476343719E-1  -5.718052983283997E-1  -7.726427740971685E-1  -5.743266940116882E-1  -8.580022305250168E-2   1.326362477480032E-1  
 1.099024756189047E9    -8.005014061927795E-2   1.265284422895913E-1  -7.747913903244545E-1  -5.673473477363586E-1  -7.734708165930659E-1  -5.740577578544617E-1  -8.638995140790939E-2   1.326702715275536E-1  
 1.101275318829707E9    -7.928809523582459E-2   1.272548315030051E-1  -7.769434851152673E-1  -5.646448135375977E-1  -7.789744365418002E-1  -5.700430870056152E-1  -8.691380918025971E-2   1.326117301327043E-1  
 1.103525881470368E9    -8.064305782318115E-2   1.270976194919817E-1  -7.808581630290011E-1  -5.618726015090942E-1  -7.807172990973300E-1  -5.669925808906555E-1  -8.735820651054382E-2   1.329738891555370E-1  
 1.105776444111028E9    -8.113496005535126E-2   1.258809572613074E-1  -7.826044480987485E-1  -5.594581365585327E-1  -7.843169408450141E-1  -5.638779997825623E-1  -8.899779617786408E-2   1.318511211857817E-1  
 1.108027006751688E9    -8.204068988561630E-2   1.239593786943753E-1  -7.853072692829717E-1  -5.562931895256043E-1  -7.872699454493018E-1  -5.607562065124512E-1  -8.955426514148712E-2   1.316245071315531E-1  
 1.110277569392348E9    -8.256742358207703E-2   1.230918046922078E-1  -7.877539761272508E-1  -5.544406771659851E-1  -7.913144091136050E-1  -5.568842291831970E-1  -8.959339559078217E-2   1.319441893393581E-1  
 1.112528132033008E9    -8.231113106012344E-2   1.209450067894636E-1  -7.908930352529517E-1  -5.485290884971619E-1  -7.963587198657566E-1  -5.514519810676575E-1  -8.975356817245483E-2   1.314911182156474E-1  
 1.114778694673668E9    -8.347053825855255E-2   1.200348715931711E-1  -7.944690179145209E-1  -5.469238758087158E-1  -7.981472600772379E-1  -5.465551018714905E-1  -8.987487852573395E-2   1.303173267589869E-1  
 1.117029257314329E9    -8.195272088050842E-2   1.173663440935677E-1  -7.978964329850629E-1  -5.439888834953308E-1  -8.024582193270730E-1  -5.432835817337036E-1  -9.064160287380219E-2   1.305765056034678E-1  
 1.119279819954989E9    -8.214440196752548E-2   1.164388773764347E-1  -8.027868534744629E-1  -5.394784808158875E-1  -8.056816231488446E-1  -5.389226078987122E-1  -8.910005539655685E-2   1.298977240533883E-1  
 1.121530382595649E9    -8.059453219175339E-2   1.154768331278149E-1  -8.068025480578579E-1  -5.349245071411133E-1  -8.071168281005663E-1  -5.329294800758362E-1  -8.703060448169708E-2   1.307427446896832E-1  
 1.123780945236309E9    -7.847422361373901E-2   1.143432738371458E-1  -8.093803393073518E-1  -5.324124693870544E-1  -8.097364769023815E-1  -5.278735160827637E-1  -8.566377311944962E-2   1.303716139891102E-1  
 1.126031507876969E9    -7.719291001558304E-2   1.144677007396540E-1  -8.133652653875043E-1  -5.268191695213318E-1  -8.119227548569381E-1  -5.226802825927734E-1  -8.416341990232468E-2   1.311341755443460E-1  
 1.128282070517629E9    -7.507148385047913E-2   1.145706257081421E-1  -8.171099851869547E-1  -5.193621516227722E-1  -8.145943846870777E-1  -5.184812545776367E-1  -8.250616490840912E-2   1.307479596307498E-1  
 1.130532633158290E9    -7.277903705835342E-2   1.172416385498725E-1  -8.201623763822979E-1  -5.163912177085877E-1  -8.152352225429680E-1  -5.129031538963318E-1  -7.993984222412109E-2   1.319647433797544E-1  
 1.132783195798950E9    -7.088276743888855E-2   1.187706139145998E-1  -8.227631065769658E-1  -5.096706151962280E-1  -8.177169489047439E-1  -5.079616308212280E-1  -7.942824065685272E-2   1.327049045742960E-1  
 1.135033758439610E9    -6.803889572620392E-2   1.207159806440554E-1  -8.256459025682330E-1  -5.048542022705078E-1  -8.199829250704142E-1  -5.037624239921570E-1  -7.676966488361359E-2   1.336364987520350E-1  
 1.137284321080270E9    -6.678646057844162E-2   1.246521133103622E-1  -8.269384566756546E-1  -4.997420608997345E-1  -8.221124414611031E-1  -5.014163255691528E-1  -7.493288815021515E-2   1.348786176700797E-1  
 1.139534883720930E9    -6.505921483039856E-2   1.275527149119026E-1  -8.297457684415506E-1  -4.944891035556793E-1  -8.226102417265813E-1  -4.970468282699585E-1  -7.437814772129059E-2   1.367465394355285E-1  
 1.141785446361590E9    -6.361237168312073E-2   1.307292819812221E-1  -8.306875492906339E-1  -4.900012016296387E-1  -8.248932770818467E-1  -4.931341707706451E-1  -7.260689884424210E-2   1.386644457947386E-1  
 1.144036009002251E9    -6.327062845230103E-2   1.333490475951517E-1  -8.324926991038704E-1  -4.841538369655609E-1  -8.260376772073407E-1  -4.885292947292328E-1  -7.266876846551895E-2   1.412431692150136E-1  
 1.146286571642911E9    -6.327918916940689E-2   1.370758439208759E-1  -8.349228303210706E-1  -4.784877896308899E-1  -8.296934627641855E-1  -4.829560518264771E-1  -7.134054601192474E-2   1.414031598966420E-1  
 1.148537134283571E9    -6.274811178445816E-2   1.396252071109174E-1  -8.329561081374731E-1  -4.766269922256470E-1  -8.298664972159174E-1  -4.853124618530273E-1  -6.993781030178070E-2   1.428975723155326E-1  
 1.150787696924231E9    -6.295502930879593E-2   1.401457375521275E-1  -8.370283865203454E-1  -4.716234207153320E-1  -8.337144275423328E-1  -4.812101125717163E-1  -7.097079604864121E-2   1.439685305611903E-1  
 1.153038259564891E9    -6.329802423715591E-2   1.407350784877005E-1  -8.359163157923718E-1  -4.673785269260407E-1  -8.352252678839780E-1  -4.765148162841797E-1  -7.046722620725632E-2   1.447750358796443E-1  
 1.155288822205551E9    -6.520088762044907E-2   1.403897419372689E-1  -8.381725555171767E-1  -4.645892381668091E-1  -8.393598264539780E-1  -4.729183614253998E-1  -7.268879562616348E-2   1.446941830768304E-1  
 1.157539384846211E9    -6.654614955186844E-2   1.405337361720599E-1  -8.406101598800315E-1  -4.605726003646851E-1  -8.434854138335206E-1  -4.680381417274475E-1  -7.281719148159027E-2   1.446630798018097E-1  
 1.159789947486872E9    -6.842506676912308E-2   1.391676979687238E-1  -8.420664078380260E-1  -4.566756188869476E-1  -8.480768278689076E-1  -4.634916484355927E-1  -7.272152602672577E-2   1.447452271574484E-1  
 1.162040510127532E9    -6.900547444820404E-2   1.364380012149568E-1  -8.439410508898810E-1  -4.584127068519592E-1  -8.505913022204413E-1  -4.591544866561890E-1  -7.427431643009186E-2   1.428211310934328E-1  
 1.164291072768192E9    -7.005234062671661E-2   1.336688912427908E-1  -8.460666581193131E-1  -4.541739523410797E-1  -8.533999089303908E-1  -4.596777260303497E-1  -7.592873275279999E-2   1.430624354899315E-1  
 1.166541635408852E9    -7.028827816247940E-2   1.312877017836568E-1  -8.507897727145384E-1  -4.494632780551910E-1  -8.566994403867234E-1  -4.532457590103149E-1  -7.568547874689102E-2   1.416158117596603E-1  
 1.168792198049512E9    -7.077068090438843E-2   1.300896873741113E-1  -8.530388703856729E-1  -4.472610354423523E-1  -8.597019953921847E-1  -4.470856785774231E-1  -7.623634487390518E-2   1.412447498204272E-1  
 1.171042760690172E9    -7.022283971309662E-2   1.286697062610196E-1  -8.578313539954749E-1  -4.433570802211762E-1  -8.631680910502468E-1  -4.426498711109161E-1  -7.464356720447540E-2   1.424535729702185E-1  
 1.173293323330833E9    -6.848508864641190E-2   1.261901665753662E-1  -8.600888299032341E-1  -4.387197196483612E-1  -8.643686948794134E-1  -4.372463822364807E-1  -7.364547252655029E-2   1.409307459042383E-1  
 1.175543885971493E9    -6.661280244588852E-2   1.250015753364303E-1  -8.645055196596239E-1  -4.368025362491608E-1  -8.660218753057050E-1  -4.335868954658508E-1  -7.053284347057343E-2   1.411765877722604E-1  
 1.177794448612153E9    -6.361641734838486E-2   1.245902266930147E-1  -8.678571392114796E-1  -4.306243360042572E-1  -8.701113846264733E-1  -4.256441891193390E-1  -6.850603967905045E-2   1.413458243146315E-1  
 1.180045011252813E9    -6.182816252112389E-2   1.243367130421767E-1  -8.712651828826175E-1  -4.243877232074738E-1  -8.707744121800567E-1  -4.217094779014587E-1  -6.679803878068924E-2   1.407049347039016E-1  
 1.182295573893473E9    -5.905726552009583E-2   1.239999979828737E-1  -8.757298949611848E-1  -4.196546077728272E-1  -8.720759097772057E-1  -4.158145189285278E-1  -6.225716695189476E-2   1.409384440582709E-1  
 1.184546136534133E9    -5.652311444282532E-2   1.269664344297283E-1  -8.776803888831141E-1  -4.156154394149780E-1  -8.726406072022227E-1  -4.122320413589478E-1  -5.995871871709824E-2   1.417910352762609E-1  
 1.186796699174794E9    -5.479713901877403E-2   1.284293855284099E-1  -8.801702156504925E-1  -4.076679944992065E-1  -8.740626686701668E-1  -4.057695865631104E-1  -5.828099697828293E-2   1.418178772288042E-1  
 1.189047261815454E9    -5.200778320431709E-2   1.314733140729688E-1  -8.820382243519839E-1  -4.015451967716217E-1  -8.758932928061802E-1  -4.012507200241089E-1  -5.528194829821587E-2   1.426739870373526E-1  
 1.191297824456114E9    -4.882778972387314E-2   1.335251872137380E-1  -8.845791297547567E-1  -3.933955729007721E-1  -8.767023686710821E-1  -3.961240053176880E-1  -5.354370176792145E-2   1.442669052151143E-1  
 1.193548387096774E9    -4.984989017248154E-2   1.381596820561887E-1  -8.846531100547932E-1  -3.907190561294556E-1  -8.783987385428320E-1  -3.932997286319733E-1  -5.162448436021805E-2   1.466076026757710E-1  
 1.195798949737434E9    -4.803122952580452E-2   1.427999780219314E-1  -8.847678640805787E-1  -3.847809135913849E-1  -8.794877639240928E-1  -3.878450989723206E-1  -4.920078441500664E-2   1.481344387296938E-1  
 1.198049512378094E9    -4.677191376686096E-2   1.447694954158439E-1  -8.865955132942807E-1  -3.783742785453796E-1  -8.813223236854865E-1  -3.843978941440582E-1  -4.791036620736122E-2   1.493187229176115E-1  
 1.200300075018755E9    -4.664779826998711E-2   1.479958605567311E-1  -8.880998048210377E-1  -3.743149638175964E-1  -8.824558445310157E-1  -3.816019892692566E-1  -4.811291024088860E-2   1.513889561326686E-1  
 1.202550637659415E9    -4.675799980759621E-2   1.504062493363566E-1  -8.875211815881303E-1  -3.697665631771088E-1  -8.831849913592043E-1  -3.774669170379639E-1  -4.839021340012550E-2   1.528415158881906E-1  
 1.204801200300075E9    -4.852715134620667E-2   1.518359249750177E-1  -8.881063549839865E-1  -3.624387681484222E-1  -8.876618815635550E-1  -3.734442591667175E-1  -4.850719496607781E-2   1.580575343206676E-1  
 1.207051762940735E9    -4.692897200584412E-2   1.530858069175005E-1  -8.885491295231585E-1  -3.599252104759216E-1  -8.881540053640666E-1  -3.717361092567444E-1  -4.917510971426964E-2   1.588483912732220E-1  
 1.209302325581395E9    -4.922921210527420E-2   1.518832378137350E-1  -8.898665254522915E-1  -3.559412658214569E-1  -8.907655698168954E-1  -3.675909042358398E-1  -5.008449032902718E-2   1.598722838040089E-1  
