#  HZ   S   RI   R     50.0 
! Rohde & Schwarz ZVL13 2Ports - Version 3.31 - 1303.6509k13 SN: 101088
! Date: 2023-03-09 14:10:44
! Data & Calibration Information:
! Trc4:S11(TOSM) Trc2:S21(TOSM) Trc3:S12(TOSM) Trc5:S22(TOSM)
! 
! 
! 
 1.000000000000000E9    -9.882600605487824E-2   9.349000392371587E-2  -6.322913358164713E-1  -7.374733090400696E-1  -6.330934661625765E-1  -7.395840883255005E-1  -1.069270446896553E-1   9.629250792444656E-2  
 1.002250562640660E9    -9.988836944103241E-2   9.342956903515401E-2  -6.374448882896781E-1  -7.343491315841675E-1  -6.374421545199950E-1  -7.373107075691223E-1  -1.088792309165001E-1   9.760273957950497E-2  
 1.004501125281320E9    -1.014346927404404E-1   9.329012434732144E-2  -6.403305608124712E-1  -7.315691113471985E-1  -6.412548424445191E-1  -7.331988215446472E-1  -1.091620177030563E-1   9.645225405729407E-2  
 1.006751687921981E9    -1.026013344526291E-1   9.304263960048521E-2  -6.440197041599127E-1  -7.288278341293335E-1  -6.457099382913366E-1  -7.300459146499634E-1  -1.109161600470543E-1   9.670583742695672E-2  
 1.009002250562641E9    -1.042898967862129E-1   9.218668509558063E-2  -6.490210125767488E-1  -7.254280447959900E-1  -6.493791276784184E-1  -7.267436981201172E-1  -1.105179265141487E-1   9.802395859706348E-2  
 1.011252813203301E9    -1.044425591826439E-1   9.131403782121823E-2  -6.542387711030917E-1  -7.229142189025879E-1  -6.551648079216764E-1  -7.215727567672730E-1  -1.107468828558922E-1   9.845033514191194E-2  
 1.013503375843961E9    -1.037076488137245E-1   9.104070181543993E-2  -6.592078995716825E-1  -7.178652286529541E-1  -6.586693780515489E-1  -7.189953327178955E-1  -1.104820221662521E-1   9.798698132654868E-2  
 1.015753938484621E9    -1.035088002681732E-1   8.972098031416191E-2  -6.642082450074227E-1  -7.140699625015259E-1  -6.621762069209682E-1  -7.125947475433350E-1  -1.095991805195808E-1   9.945668608194147E-2  
 1.018004501125281E9    -1.017084121704102E-1   8.928480315495396E-2  -6.668822724915473E-1  -7.112138271331787E-1  -6.666033339109574E-1  -7.083516716957092E-1  -1.095304489135742E-1   9.873618197006583E-2  
 1.020255063765942E9    -1.000806093215942E-1   9.005281790309862E-2  -6.709132617324963E-1  -7.067432403564453E-1  -6.691885176037139E-1  -7.034382224082947E-1  -1.070640906691551E-1   1.002189042703166E-1  
 1.022505626406602E9    -9.793718159198761E-2   8.948087292301861E-2  -6.754072278722649E-1  -7.011435031890869E-1  -6.719371086784102E-1  -7.010440230369568E-1  -1.075441613793373E-1   1.006406433763274E-1  
 1.024756189047262E9    -9.632453322410584E-2   9.193882679102072E-2  -6.786231749140838E-1  -6.968284249305725E-1  -6.745216174555285E-1  -6.964352726936340E-1  -1.060293838381767E-1   1.019051526746229E-1  
 1.027006751687922E9    -9.483933448791504E-2   9.157783782863413E-2  -6.819489461223610E-1  -6.920939683914185E-1  -6.782786101838136E-1  -6.897922754287720E-1  -1.053520888090134E-1   1.026013860776104E-1  
 1.029257314328582E9    -9.313992410898209E-2   9.379501025521138E-2  -6.841908697678510E-1  -6.874650716781616E-1  -6.809877224863602E-1  -6.885824799537659E-1  -1.039406806230545E-1   1.042212802685150E-1  
 1.031507876969242E9    -9.068947285413742E-2   9.750193908694996E-2  -6.851317479682452E-1  -6.855801343917847E-1  -6.855414464998654E-1  -6.828783154487610E-1  -1.023244559764862E-1   1.064391768036944E-1  
 1.033758439609903E9    -8.947063982486725E-2   9.872437401427305E-2  -6.904275890286046E-1  -6.785371303558350E-1  -6.849646912643945E-1  -6.819853186607361E-1  -1.008021757006645E-1   1.090135483338427E-1  
 1.036009002250563E9    -8.791081607341766E-2   1.014259180498641E-1  -6.915404223069179E-1  -6.762207150459290E-1  -6.880000396067603E-1  -6.779763102531433E-1  -1.002923846244812E-1   1.109706177508433E-1  
 1.038259564891223E9    -8.602319657802582E-2   1.042298890805572E-1  -6.955183932424407E-1  -6.727430820465088E-1  -6.906033358234920E-1  -6.757050752639771E-1  -9.955396503210068E-2   1.119557031321892E-1  
 1.040510127531883E9    -8.540063351392746E-2   1.079933693290140E-1  -6.955201569892645E-1  -6.702339053153992E-1  -6.926552665552967E-1  -6.724224686622620E-1  -9.890348464250565E-2   1.133294040581863E-1  
 1.042760690172543E9    -8.629022538661957E-2   1.082822044128984E-1  -7.000128200276120E-1  -6.650882363319397E-1  -6.975664942310322E-1  -6.681143045425415E-1  -9.777506440877914E-2   1.142142373566243E-1  
 1.045011252813203E9    -8.513229340314865E-2   1.099562122300124E-1  -7.008315412587856E-1  -6.625383496284485E-1  -7.003679758768651E-1  -6.670260429382324E-1  -9.702784568071365E-2   1.149259746626030E-1  
 1.047261815453864E9    -8.750805258750916E-2   1.105671915579887E-1  -7.057260557781149E-1  -6.589127182960510E-1  -7.039062364294125E-1  -6.637203097343445E-1  -9.758747369050980E-2   1.162397824737853E-1  
 1.049512378094524E9    -8.826821297407150E-2   1.110560297125774E-1  -7.078169420719045E-1  -6.572439074516296E-1  -7.076735250015342E-1  -6.605379581451416E-1  -9.831053018569946E-2   1.161135277235613E-1  
 1.051762940735184E9    -9.074909985065460E-2   1.102674184195720E-1  -7.112000389118648E-1  -6.537705063819885E-1  -7.111451661945556E-1  -6.588849425315857E-1  -9.886108338832855E-2   1.146898868249311E-1  
 1.054013503375844E9    -9.158687293529511E-2   1.096080092128486E-1  -7.148895808010573E-1  -6.514942646026611E-1  -7.162274400191011E-1  -6.547598838806152E-1  -9.990916401147842E-2   1.158833341324705E-1  
 1.056264066016504E9    -9.431490302085877E-2   1.085001316678818E-1  -7.191347565387566E-1  -6.470767855644226E-1  -7.214718078271000E-1  -6.517949700355530E-1  -1.002771779894829E-1   1.160491186128797E-1  
 1.058514628657164E9    -9.639918059110642E-2   1.089829529816160E-1  -7.211818068844071E-1  -6.451565623283386E-1  -7.253154991319532E-1  -6.463972926139832E-1  -1.003967300057411E-1   1.158617118774146E-1  
 1.060765191297825E9    -9.723213315010071E-2   1.073423192159666E-1  -7.260249541552138E-1  -6.415136456489563E-1  -7.284968523866455E-1  -6.450725197792053E-1  -1.013373807072640E-1   1.162994843809039E-1  
 1.063015753938485E9    -9.732063859701157E-2   1.071383201684489E-1  -7.301910186621018E-1  -6.385664939880371E-1  -7.351217372441444E-1  -6.367588639259338E-1  -1.008993312716484E-1   1.178647694768022E-1  
 1.065266316579145E9    -9.827522188425064E-2   1.062385104147995E-1  -7.345371277466167E-1  -6.349846720695496E-1  -7.368650947496366E-1  -6.325225830078125E-1  -1.000095978379250E-1   1.185221405749747E-1  
 1.067516879219805E9    -9.797561913728714E-2   1.044660406214241E-1  -7.401525717124298E-1  -6.303239464759827E-1  -7.397644665825582E-1  -6.291579604148865E-1  -9.985125809907913E-2   1.180814970273627E-1  
 1.069767441860465E9    -9.835830330848694E-2   1.042348268179291E-1  -7.434512767832624E-1  -6.260460615158081E-1  -7.428039785405095E-1  -6.237845420837402E-1  -9.866531938314438E-2   1.195222566887513E-1  
 1.072018004501125E9    -9.736911207437515E-2   1.041472565551525E-1  -7.467533348204674E-1  -6.202408671379089E-1  -7.447188482794317E-1  -6.195773482322693E-1  -9.756518900394440E-2   1.195941289734972E-1  
 1.074268567141785E9    -9.482107311487198E-2   1.043942923578241E-1  -7.511500031927230E-1  -6.164094805717468E-1  -7.489077672937051E-1  -6.143556833267212E-1  -9.578575938940048E-2   1.205897682284198E-1  
 1.076519129782446E9    -9.413941949605942E-2   1.057035599975621E-1  -7.542336761122267E-1  -6.108040213584900E-1  -7.511808704989068E-1  -6.096650958061218E-1  -9.447905421257019E-2   1.226219488851269E-1  
 1.078769692423106E9    -9.048522263765335E-2   1.077643182635111E-1  -7.568212990686108E-1  -6.070205569267273E-1  -7.532978719758801E-1  -6.049438714981079E-1  -9.339961409568787E-2   1.234920327053535E-1  
 1.081020255063766E9    -8.965463936328888E-2   1.088463194062962E-1  -7.589477252717871E-1  -6.016483902931213E-1  -7.564838968363571E-1  -6.002126336097717E-1  -9.172477573156357E-2   1.244283480522100E-1  
 1.083270817704426E9    -8.774456381797791E-2   1.123716970988236E-1  -7.612588961695012E-1  -5.962788462638855E-1  -7.566435716373290E-1  -5.981567502021790E-1  -9.017720073461533E-2   1.257245384937996E-1  
 1.085521380345086E9    -8.464673906564713E-2   1.143697917165064E-1  -7.638187820075181E-1  -5.920980572700501E-1  -7.596432148066574E-1  -5.949224829673767E-1  -9.032803028821945E-2   1.279314885856470E-1  
 1.087771942985746E9    -8.311478793621063E-2   1.174244539042297E-1  -7.644901731843374E-1  -5.901369452476502E-1  -7.612964184433757E-1  -5.905842185020447E-1  -8.960503339767456E-2   1.281625219670404E-1  
 1.090022505626407E9    -8.103840798139572E-2   1.206018533442809E-1  -7.665133578713218E-1  -5.841742753982544E-1  -7.629836496566249E-1  -5.876858830451965E-1  -8.685724437236786E-2   1.303517120549743E-1  
 1.092273068267067E9    -7.948735356330872E-2   1.227390523997761E-1  -7.696175012645602E-1  -5.787612795829773E-1  -7.643566247268614E-1  -5.844533443450928E-1  -8.773908019065857E-2   1.316962025275847E-1  
 1.094523630907727E9    -8.008323609828949E-2   1.238428332477701E-1  -7.727845937383056E-1  -5.744712948799133E-1  -7.695850870784078E-1  -5.804010033607483E-1  -8.651643991470337E-2   1.330422681160448E-1  
 1.096774193548387E9    -7.805404067039490E-2   1.255780401374862E-1  -7.731607517945507E-1  -5.722600221633911E-1  -7.711353229958742E-1  -5.773101449012756E-1  -8.655722439289093E-2   1.325917898895567E-1  
 1.099024756189047E9    -7.943305373191834E-2   1.265713255422803E-1  -7.752022278526434E-1  -5.673382878303528E-1  -7.744018671036024E-1  -5.738261342048645E-1  -8.675669878721237E-2   1.334996504572349E-1  
 1.101275318829707E9    -7.928260415792465E-2   1.274510712866454E-1  -7.775440955135742E-1  -5.645835399627686E-1  -7.793937219113443E-1  -5.699106454849243E-1  -8.638076484203339E-2   1.332168988036659E-1  
 1.103525881470368E9    -8.003837615251541E-2   1.269435929316112E-1  -7.811789000384704E-1  -5.622858405113220E-1  -7.807271158320512E-1  -5.684333443641663E-1  -8.757771551609039E-2   1.324225261460752E-1  
 1.105776444111028E9    -8.181616663932800E-2   1.250628922348820E-1  -7.822786299186519E-1  -5.605708956718445E-1  -7.841093528536246E-1  -5.653620958328247E-1  -8.945252001285553E-2   1.318054932018773E-1  
 1.108027006751688E9    -8.221936225891113E-2   1.239760523183517E-1  -7.855782171067495E-1  -5.566768646240234E-1  -7.881329644510134E-1  -5.613234639167786E-1  -8.981200307607651E-2   1.317114836735664E-1  
 1.110277569392348E9    -8.414383232593536E-2   1.233011070961509E-1  -7.900011783146856E-1  -5.546988844871521E-1  -7.917934608000723E-1  -5.569785237312317E-1  -9.029837697744370E-2   1.322978268567280E-1  
 1.112528132033008E9    -8.319505304098129E-2   1.209597763745009E-1  -7.917100454475219E-1  -5.494455099105835E-1  -7.965335265954063E-1  -5.520964860916138E-1  -9.050159156322479E-2   1.315547834645056E-1  
 1.114778694673668E9    -8.386390656232834E-2   1.198120965386158E-1  -7.951985409383700E-1  -5.477789640426636E-1  -7.991844216681718E-1  -5.470021963119507E-1  -9.011163562536240E-2   1.303677494256608E-1  
 1.117029257314329E9    -8.244424313306809E-2   1.174920777216489E-1  -7.986606369672816E-1  -5.433287620544434E-1  -8.029744802153983E-1  -5.435323715209961E-1  -9.071657806634903E-2   1.308327872236324E-1  
 1.119279819954989E9    -8.243969827890396E-2   1.162003575336226E-1  -8.019659728638180E-1  -5.406197905540466E-1  -8.057783771610583E-1  -5.396687388420105E-1  -8.929266780614853E-2   1.302677086192897E-1  
 1.121530382595649E9    -8.113046735525131E-2   1.154296395523369E-1  -8.059976798324743E-1  -5.348748564720154E-1  -8.081377075402434E-1  -5.330314040184021E-1  -8.764111250638962E-2   1.305606642649853E-1  
 1.123780945236309E9    -7.885610312223434E-2   1.146554595551025E-1  -8.103013655721691E-1  -5.321371555328369E-1  -8.104379989756934E-1  -5.282964706420898E-1  -8.547525852918625E-2   1.297982245739505E-1  
 1.126031507876969E9    -7.694637775421143E-2   1.147451973831381E-1  -8.147854825316077E-1  -5.268227458000183E-1  -8.128004191255691E-1  -5.235878825187683E-1  -8.381687104701996E-2   1.311427630347975E-1  
 1.128282070517629E9    -7.557902485132217E-2   1.147657322592545E-1  -8.168881317905031E-1  -5.217043161392212E-1  -8.150787319110100E-1  -5.187633037567139E-1  -8.208367973566055E-2   1.309330262717409E-1  
 1.130532633158290E9    -7.321670651435852E-2   1.168568522828676E-1  -8.204712296627184E-1  -5.169900655746460E-1  -8.164459611293728E-1  -5.134684443473816E-1  -8.016372472047806E-2   1.314830001650780E-1  
 1.132783195798950E9    -7.137840986251831E-2   1.185885263257137E-1  -8.230628719812652E-1  -5.099681019783020E-1  -8.187716765745552E-1  -5.095019936561585E-1  -7.924002408981323E-2   1.326471359468693E-1  
 1.135033758439610E9    -6.910701841115952E-2   1.199764558149551E-1  -8.248348120378197E-1  -5.053697228431702E-1  -8.198992897099147E-1  -5.026870369911194E-1  -7.639119774103165E-2   1.333625275794347E-1  
 1.137284321080270E9    -6.697408854961395E-2   1.247240650266754E-1  -8.275723902974951E-1  -4.992986917495728E-1  -8.223501228825566E-1  -5.010378360748291E-1  -7.527401298284531E-2   1.349054041271714E-1  
 1.139534883720930E9    -6.451534479856491E-2   1.277155932929830E-1  -8.304815460526406E-1  -4.950130581855774E-1  -8.231080905746443E-1  -4.978603422641754E-1  -7.439686357975006E-2   1.374931395682307E-1  
 1.141785446361590E9    -6.349721550941467E-2   1.306598894223391E-1  -8.315593012867221E-1  -4.894398450851440E-1  -8.254964562777500E-1  -4.941148459911346E-1  -7.264816761016846E-2   1.390664692471907E-1  
 1.144036009002251E9    -6.315148621797562E-2   1.336270857009884E-1  -8.323507556879559E-1  -4.844205677509308E-1  -8.263263795863983E-1  -4.891825020313263E-1  -7.202116400003433E-2   1.403991861173649E-1  
 1.146286571642911E9    -6.324271857738495E-2   1.372266118262088E-1  -8.341440648205832E-1  -4.811146855354309E-1  -8.287839487921350E-1  -4.864758849143982E-1  -7.082021981477737E-2   1.416704186270183E-1  
 1.148537134283571E9    -6.356113404035568E-2   1.397800415836382E-1  -8.346233867935343E-1  -4.754646122455597E-1  -8.316742196931676E-1  -4.832485318183899E-1  -7.128230482339859E-2   1.434205303543246E-1  
 1.150787696924231E9    -6.274013221263886E-2   1.397750552550448E-1  -8.367228751165625E-1  -4.718175530433655E-1  -8.338647052045077E-1  -4.815567433834076E-1  -7.154776155948639E-2   1.442892244752187E-1  
 1.153038259564891E9    -6.433980911970139E-2   1.405820434898413E-1  -8.364661488937321E-1  -4.671030342578888E-1  -8.358640474215618E-1  -4.767382740974426E-1  -7.082178443670273E-2   1.446982442987929E-1  
 1.155288822205551E9    -6.562682241201401E-2   1.405652104797598E-1  -8.386172568907180E-1  -4.634514749050140E-1  -8.411364349736850E-1  -4.700607061386108E-1  -7.236704230308533E-2   1.451593882808839E-1  
 1.157539384846211E9    -6.582672148942947E-2   1.401123658005389E-1  -8.412970328417538E-1  -4.605548381805420E-1  -8.419998203405845E-1  -4.707800447940826E-1  -7.309108227491379E-2   1.441744061521901E-1  
 1.159789947486872E9    -6.836955249309540E-2   1.377272946456724E-1  -8.422344544342736E-1  -4.587506651878357E-1  -8.469973305840056E-1  -4.669363796710968E-1  -7.416027039289475E-2   1.437145164321292E-1  
 1.162040510127532E9    -6.878275424242020E-2   1.360956925832302E-1  -8.445071442605696E-1  -4.567897915840149E-1  -8.499350117370755E-1  -4.622035622596741E-1  -7.494830340147018E-2   1.429235879834658E-1  
 1.164291072768192E9    -6.987589597702026E-2   1.339505099060140E-1  -8.467552332778425E-1  -4.536995887756348E-1  -8.544017234065084E-1  -4.578767716884613E-1  -7.587002217769623E-2   1.430591186111542E-1  
 1.166541635408852E9    -7.056681066751480E-2   1.307196583363517E-1  -8.507068021047977E-1  -4.501442909240723E-1  -8.572613308659657E-1  -4.534546136856079E-1  -7.600329816341400E-2   1.412932241919407E-1  
 1.168792198049512E9    -7.142727077007294E-2   1.299388772804990E-1  -8.542632640285748E-1  -4.479943513870239E-1  -8.603362807455878E-1  -4.473240077495575E-1  -7.625411450862885E-2   1.414221359841738E-1  
 1.171042760690172E9    -7.029824703931809E-2   1.275235964434731E-1  -8.566509049834818E-1  -4.435688853263855E-1  -8.631895653442308E-1  -4.419387280941010E-1  -7.547090947628021E-2   1.420808408527605E-1  
 1.173293323330833E9    -6.821718811988831E-2   1.256815573519201E-1  -8.609014057475112E-1  -4.394266903400421E-1  -8.639536564198053E-1  -4.369575977325440E-1  -7.348830252885819E-2   1.411350033244686E-1  
 1.175543885971493E9    -6.634785979986191E-2   1.248202014771234E-1  -8.646510070495174E-1  -4.380899667739868E-1  -8.669205830609090E-1  -4.331499636173248E-1  -7.110314816236496E-2   1.412169747489359E-1  
 1.177794448612153E9    -6.401497870683670E-2   1.242620222616580E-1  -8.683354060998357E-1  -4.300657510757446E-1  -8.698458102713971E-1  -4.261407256126404E-1  -6.923910230398178E-2   1.409660056777265E-1  
 1.180045011252813E9    -6.196818873286247E-2   1.243362187667042E-1  -8.719243718641992E-1  -4.250632226467133E-1  -8.710466025922613E-1  -4.219051897525787E-1  -6.684406101703644E-2   1.405823028749362E-1  
 1.182295573893473E9    -5.969935283064842E-2   1.239721185331642E-1  -8.758557894542928E-1  -4.210664927959442E-1  -8.721934679320759E-1  -4.149171113967896E-1  -6.248474493622780E-2   1.411226199011293E-1  
 1.184546136534133E9    -5.629903078079224E-2   1.262429684779295E-1  -8.782814269346475E-1  -4.150059223175049E-1  -8.734534885735052E-1  -4.118739366531372E-1  -6.071614101529121E-2   1.409341487862984E-1  
 1.186796699174794E9    -5.478568747639656E-2   1.282768869697775E-1  -8.808440470021492E-1  -4.074678421020508E-1  -8.747615744055597E-1  -4.058061838150024E-1  -5.851621553301811E-2   1.414864947980872E-1  
 1.189047261815454E9    -5.191119760274887E-2   1.315978550295847E-1  -8.829772029983726E-1  -4.019568562507629E-1  -8.761852241333240E-1  -4.011380970478058E-1  -5.554351583123207E-2   1.427207167279558E-1  
 1.191297824456114E9    -4.984728991985321E-2   1.346848100600242E-1  -8.840511479415231E-1  -3.961688876152039E-1  -8.773598818308998E-1  -3.972073495388031E-1  -5.402016267180443E-2   1.444399756696175E-1  
 1.193548387096774E9    -4.946101829409599E-2   1.377702082727129E-1  -8.853564024639197E-1  -3.913879692554474E-1  -8.785055789766446E-1  -3.934032618999481E-1  -5.124868825078011E-2   1.464419288638131E-1  
 1.195798949737434E9    -4.881129786372185E-2   1.431588569010359E-1  -8.853215590062098E-1  -3.845119774341583E-1  -8.794293609313482E-1  -3.880029618740082E-1  -4.952143132686615E-2   1.483853462682003E-1  
 1.198049512378094E9    -4.676890745759010E-2   1.449707234593574E-1  -8.870176984881041E-1  -3.787711560726166E-1  -8.816354012113298E-1  -3.855571150779724E-1  -4.826379939913750E-2   1.497399027597023E-1  
 1.200300075018755E9    -4.688195139169693E-2   1.489022459880915E-1  -8.885094395592843E-1  -3.734002113342285E-1  -8.837517445709020E-1  -3.817794919013977E-1  -4.799172282218933E-2   1.523662061694265E-1  
 1.202550637659415E9    -4.730911180377007E-2   1.508034743813914E-1  -8.881073679906503E-1  -3.696714639663696E-1  -8.853972512744112E-1  -3.780951201915741E-1  -4.914577305316925E-2   1.543268072678981E-1  
 1.204801200300075E9    -4.745039716362953E-2   1.507328594215029E-1  -8.872503162765492E-1  -3.623025119304657E-1  -8.868520014116028E-1  -3.748253285884857E-1  -4.843024909496307E-2   1.575317343754723E-1  
 1.207051762940735E9    -4.712449014186859E-2   1.544168959308825E-1  -8.889164954348069E-1  -3.604910671710968E-1  -8.876336561368239E-1  -3.713699579238892E-1  -4.859645664691925E-2   1.582510186408423E-1  
 1.209302325581395E9    -4.994453862309456E-2   1.524998137719545E-1  -8.895804007435391E-1  -3.567604422569275E-1  -8.912544560761087E-1  -3.668204545974731E-1  -5.001109093427658E-2   1.600619750711139E-1  
