#  HZ   S   RI   R     50.0 
! Rohde & Schwarz ZVL13 2Ports - Version 3.31 - 1303.6509k13 SN: 101088
! Date: 2023-03-06 14:30:44
! Data & Calibration Information:
! Trc4:S11(TOSM) Trc2:S21(TOSM) Trc3:S12(TOSM) Trc5:S22(TOSM)
! 
! 
! 
 1.000000000000000E9    -5.893138317619799E-2   3.328388984319303E-2  -6.010751491475653E-1  -7.821982538330778E-1  -6.074043283108550E-1  -7.809679418240260E-1  -5.066230522889036E-2   4.032536254518222E-2  
 1.000750187546887E9    -5.932819723633346E-2   3.317980773921107E-2  -6.033649394957712E-1  -7.811126587898509E-1  -6.076818709972282E-1  -7.797723476301467E-1  -5.143296824225777E-2   4.005945019882288E-2  
 1.001500375093774E9    -5.701444487467192E-2   3.312122126782554E-2  -6.039668057259694E-1  -7.800443384661818E-1  -6.078587495803801E-1  -7.774300623488401E-1  -5.150838779277289E-2   3.954840640999842E-2  
 1.002250562640660E9    -5.729785540067331E-2   3.564155910370450E-2  -6.049459000105488E-1  -7.791641865095884E-1  -6.088163047655339E-1  -7.764098953342424E-1  -5.073914644516146E-2   4.065134305691716E-2  
 1.003000750187547E9    -5.858499132725299E-2   3.529564672768428E-2  -6.067584564554643E-1  -7.785651175526565E-1  -6.102027464612300E-1  -7.747141382539498E-1  -5.069417277883119E-2   4.030549503045835E-2  
 1.003750937734434E9    -5.783960126392279E-2   3.520427172252853E-2  -6.092287757023686E-1  -7.772751173824352E-1  -6.103608069574362E-1  -7.739032344151612E-1  -5.185403471869977E-2   4.073791225682872E-2  
 1.004501125281320E9    -5.804239076581436E-2   3.521214776992148E-2  -6.092268739316106E-1  -7.764836718159894E-1  -6.115606488062277E-1  -7.728558891388139E-1  -5.185387293521249E-2   4.171117169945279E-2  
 1.005251312828207E9    -5.752524756477791E-2   3.662749573761960E-2  -6.120585670663128E-1  -7.750014476162425E-1  -6.124351695586402E-1  -7.717512735652866E-1  -5.319318592083825E-2   4.094605248701049E-2  
 1.006001500375094E9    -5.770951186948265E-2   3.735892355948105E-2  -6.132632845912621E-1  -7.745407528294949E-1  -6.139146729616964E-1  -7.696979332484595E-1  -5.119732564448379E-2   4.056175167336040E-2  
 1.006751687921981E9    -5.754143790721400E-2   3.647107914668439E-2  -6.148122752021754E-1  -7.733285576215516E-1  -6.134712246874905E-1  -7.686426067928831E-1  -5.241524185514437E-2   4.153648323154886E-2  
 1.007501875468867E9    -5.628621646763997E-2   3.741405486245437E-2  -6.158941242249598E-1  -7.721968374799175E-1  -6.144829769065232E-1  -7.677902355277139E-1  -5.177558517004294E-2   4.164366804320422E-2  
 1.008252063015754E9    -5.840953721019975E-2   3.658262368306402E-2  -6.176404940906496E-1  -7.708090729468562E-1  -6.153399433723251E-1  -7.662588769235494E-1  -5.117218762356787E-2   4.128183693599086E-2  
 1.009002250562641E9    -5.748870308615462E-2   3.806227319859429E-2  -6.199722762192593E-1  -7.703162353199907E-1  -6.181087094721957E-1  -7.638513430564918E-1  -5.139785953336634E-2   4.156586207713955E-2  
 1.009752438109527E9    -5.744128140765339E-2   3.855043308314447E-2  -6.194477756929274E-1  -7.694833266774248E-1  -6.166033764264198E-1  -7.642761210689442E-1  -5.403427776934854E-2   4.238569788867441E-2  
 1.010502625656414E9    -5.719212022470360E-2   3.747645832851815E-2  -6.220585998564178E-1  -7.675419365219509E-1  -6.173383071334332E-1  -7.640321864249642E-1  -5.204698339265101E-2   4.147256205252956E-2  
 1.011252813203301E9    -5.642946110422343E-2   3.884228918653062E-2  -6.234860546629389E-1  -7.668267954787096E-1  -6.178253600304472E-1  -7.629106472732005E-1  -5.248896446078957E-2   4.206684638348452E-2  
 1.012003000750188E9    -5.665095978263875E-2   3.851653652375448E-2  -6.256371960278542E-1  -7.658903699780915E-1  -6.185642760889478E-1  -7.616190055075569E-1  -5.220846842117267E-2   4.192449553616227E-2  
 1.012753188297074E9    -5.651053691508822E-2   3.958112972484180E-2  -6.260998311577635E-1  -7.639022052862922E-1  -6.199385497215033E-1  -7.610188122754686E-1  -5.324635333752026E-2   4.211706117481619E-2  
 1.013503375843961E9    -5.704336666810815E-2   3.973233179040669E-2  -6.279428369023040E-1  -7.626741653201493E-1  -6.210295752949293E-1  -7.598049036315513E-1  -5.232418164673902E-2   4.176247708781360E-2  
 1.014253563390848E9    -5.766384181385958E-2   4.068203295804716E-2  -6.292806973191674E-1  -7.621249193896319E-1  -6.205470316442066E-1  -7.597279921941332E-1  -5.293290562848440E-2   4.273224635853842E-2  
 1.015003750937735E9    -5.846377907371493E-2   4.056511388482863E-2  -6.290234891013917E-1  -7.614122110723431E-1  -6.208501980378770E-1  -7.601454101286853E-1  -5.273755030484700E-2   4.375263462428394E-2  
 1.015753938484621E9    -5.818546391138770E-2   4.149980048839245E-2  -6.316953056608212E-1  -7.602740286115971E-1  -6.231144828335014E-1  -7.597223702833833E-1  -5.316040416317613E-2   4.232895091137920E-2  
 1.016504126031508E9    -5.750171155988720E-2   4.195888952127433E-2  -6.339788918363604E-1  -7.576573577718323E-1  -6.253791725223897E-1  -7.572453886702835E-1  -5.256616588007076E-2   4.248022284604874E-2  
 1.017254313578395E9    -5.815552895732187E-2   4.322630076268554E-2  -6.348070690391937E-1  -7.566298944768291E-1  -6.249645741216565E-1  -7.573526115075866E-1  -5.235833001664883E-2   4.228095431943309E-2  
 1.018004501125281E9    -5.798476098176741E-2   4.195347183732098E-2  -6.351835536323593E-1  -7.561398407379359E-1  -6.260187390305043E-1  -7.566695495783246E-1  -5.279555955044372E-2   4.285581052000098E-2  
 1.018754688672168E9    -5.765081628322659E-2   4.231078347832810E-2  -6.395986745110777E-1  -7.525215577067220E-1  -6.275088814373575E-1  -7.564592625563921E-1  -5.276548076593905E-2   4.276356808013024E-2  
 1.019504876219055E9    -5.683835410658224E-2   4.346428338355908E-2  -6.398293721698233E-1  -7.525076879388559E-1  -6.283299010361154E-1  -7.562818532907799E-1  -5.241333914821004E-2   4.223479561372593E-2  
 1.020255063765942E9    -5.800999586925625E-2   4.398309870988316E-2  -6.394492358021219E-1  -7.516976014544599E-1  -6.295976070124573E-1  -7.558515174018361E-1  -5.257642244473702E-2   4.407083743704241E-2  
 1.021005251312828E9    -5.781688175940244E-2   4.311144932663764E-2  -6.414244990092706E-1  -7.501552525527588E-1  -6.309013449024166E-1  -7.551180195630594E-1  -5.268537309001743E-2   4.320747318522892E-2  
 1.021755438859715E9    -5.760086187414704E-2   4.386759059608750E-2  -6.431243996842778E-1  -7.485386234319256E-1  -6.319691828470917E-1  -7.559304759613469E-1  -5.091358751736560E-2   4.267656814549178E-2  
 1.022505626406602E9    -5.780537528274787E-2   4.410329553371768E-2  -6.443135905866114E-1  -7.487935525926551E-1  -6.333141270209580E-1  -7.536968585179217E-1  -5.163117969105574E-2   4.417949816534165E-2  
 1.023255813953488E9    -5.779751665009257E-2   4.491168192685022E-2  -6.453201211498548E-1  -7.468598548271446E-1  -6.341501490287658E-1  -7.538840682560257E-1  -5.162007069464665E-2   4.448571657851975E-2  
 1.024006001500375E9    -5.722395089040595E-2   4.571180132330952E-2  -6.465674548984569E-1  -7.462845837059913E-1  -6.364867707081994E-1  -7.533296476170288E-1  -5.112670680040594E-2   4.435325614481209E-2  
 1.024756189047262E9    -5.749286016195400E-2   4.456950495145305E-2  -6.484713850026831E-1  -7.440447134013033E-1  -6.382295695810353E-1  -7.515530736333110E-1  -5.221432158765889E-2   4.503250335363056E-2  
 1.025506376594149E9    -5.787138706270661E-2   4.379674149110378E-2  -6.492592417840781E-1  -7.436046267326972E-1  -6.393799726392491E-1  -7.516621042820372E-1  -5.209142717824791E-2   4.408393517609154E-2  
 1.026256564141035E9    -5.714028403140292E-2   4.459233944991051E-2  -6.497979519606101E-1  -7.421897759249542E-1  -6.421586354808264E-1  -7.511158720126707E-1  -5.099006102005278E-2   4.530770812267448E-2  
 1.027006751687922E9    -5.767593033088325E-2   4.470887225867557E-2  -6.511270421937212E-1  -7.421117478027193E-1  -6.431446838525919E-1  -7.497387385237768E-1  -5.122205246289190E-2   4.549898132206025E-2  
 1.027756939234809E9    -5.743595339679625E-2   4.486095536521226E-2  -6.509705907713135E-1  -7.405685525435042E-1  -6.429796356447708E-1  -7.504714338154130E-1  -5.080502431469818E-2   4.682052727811491E-2  
 1.028507126781695E9    -5.821514401408174E-2   4.469309893718695E-2  -6.524425023743899E-1  -7.382665643467289E-1  -6.465799743264772E-1  -7.493497991362584E-1  -5.134490140974873E-2   4.601657819049784E-2  
 1.029257314328582E9    -5.748465588273431E-2   4.589449899967506E-2  -6.546728436955908E-1  -7.368871311862636E-1  -6.482421567788216E-1  -7.482127284344522E-1  -5.142833473210268E-2   4.652537507028638E-2  
 1.030007501875469E9    -5.706937807116264E-2   4.396203824205470E-2  -6.558152789552654E-1  -7.358649005887672E-1  -6.507465868387852E-1  -7.465404816019614E-1  -5.177144374289888E-2   4.637961191317538E-2  
 1.030757689422356E9    -5.742389549037932E-2   4.395787184904912E-2  -6.580555193440015E-1  -7.337334711202671E-1  -6.507383502175127E-1  -7.460507950750265E-1  -4.970737267369375E-2   4.579158793094510E-2  
 1.031507876969242E9    -5.817448856871504E-2   4.332643109966469E-2  -6.592959443273309E-1  -7.311293174296700E-1  -6.534158326658964E-1  -7.456924450495189E-1  -5.041882711411291E-2   4.728143864779956E-2  
 1.032258064516129E9    -5.840080115209859E-2   4.355394863413984E-2  -6.590734602810833E-1  -7.320212053953364E-1  -6.551579032276494E-1  -7.444547376965662E-1  -5.073291463291042E-2   4.694496463281263E-2  
 1.033008252063016E9    -5.817571098463398E-2   4.264980578399900E-2  -6.590515445453733E-1  -7.304293399928366E-1  -6.574726364590597E-1  -7.442344762711936E-1  -5.029095214133256E-2   4.766090470052330E-2  
 1.033758439609903E9    -5.729211157440064E-2   4.300722465172523E-2  -6.612179701429004E-1  -7.294684562884405E-1  -6.582798729015295E-1  -7.421184531052437E-1  -5.101549465455886E-2   4.703359751016598E-2  
 1.034508627156789E9    -5.873464540522569E-2   4.244155587923328E-2  -6.610078632782047E-1  -7.290854514946913E-1  -6.606375101665166E-1  -7.421095984038632E-1  -4.973263499586283E-2   4.891362950187081E-2  
 1.035258814703676E9    -5.944908872177385E-2   4.275387591778009E-2  -6.628359128706001E-1  -7.271274554817313E-1  -6.627234467364362E-1  -7.404584736283079E-1  -4.945540950193585E-2   4.863124815924713E-2  
 1.036009002250563E9    -5.921449153209864E-2   4.224468180620448E-2  -6.631940457916544E-1  -7.275298437125845E-1  -6.633168493220535E-1  -7.396217285229179E-1  -4.919947561004078E-2   4.853886289370690E-2  
 1.036759189797449E9    -6.010582686693394E-2   4.246994204483459E-2  -6.651851875949497E-1  -7.239724743363127E-1  -6.652753292644861E-1  -7.386627507441110E-1  -4.960850132457460E-2   4.975648081441001E-2  
 1.037509377344336E9    -5.928415506088367E-2   4.153455026295898E-2  -6.651620800287903E-1  -7.241829443926383E-1  -6.674585539636506E-1  -7.373473629769443E-1  -4.874396962670103E-2   4.963023401486577E-2  
 1.038259564891223E9    -6.010353571308526E-2   4.004962469228611E-2  -6.668734767165337E-1  -7.226196600057373E-1  -6.691247223897171E-1  -7.359427759671086E-1  -4.893873276777229E-2   5.002681910107199E-2  
 1.039009752438110E9    -6.065726410223232E-2   4.057832560809055E-2  -6.675276193717862E-1  -7.220790446333614E-1  -6.707231838518916E-1  -7.352074775410804E-1  -4.769362298926812E-2   5.020953270883036E-2  
 1.039759939984996E9    -6.053938887934046E-2   4.034679413025058E-2  -6.687250565678329E-1  -7.206941557672589E-1  -6.727032021417672E-1  -7.332293783665217E-1  -4.783229516928230E-2   5.040968186488647E-2  
 1.040510127531883E9    -6.030983157196378E-2   4.049240551273980E-2  -6.698483171406836E-1  -7.194919651109489E-1  -6.742702365762284E-1  -7.316477117251786E-1  -4.834280615436419E-2   5.086525561352670E-2  
 1.041260315078770E9    -6.013080289063611E-2   4.015495875158955E-2  -6.704199954561987E-1  -7.187259104126057E-1  -6.762167483747366E-1  -7.302385261978941E-1  -4.832662272467055E-2   5.091299141531292E-2  
 1.042010502625656E9    -6.180401636705327E-2   3.972760208049196E-2  -6.726351840030310E-1  -7.174125704250811E-1  -6.776961332042035E-1  -7.276499516791686E-1  -4.700684007081511E-2   5.191021076036975E-2  
 1.042760690172543E9    -6.097473361647013E-2   3.994253845224043E-2  -6.729579549060029E-1  -7.169857462125789E-1  -6.789088943104432E-1  -7.273901233233032E-1  -4.635585388663335E-2   5.179627470482989E-2  
 1.043510877719430E9    -6.200171705306418E-2   4.047868565492022E-2  -6.734704858805386E-1  -7.158621380447241E-1  -6.805997385571792E-1  -7.236082357439199E-1  -4.672313173681734E-2   5.191713684335127E-2  
 1.044261065266317E9    -6.154893731754305E-2   4.011263753209466E-2  -6.746434705240130E-1  -7.148684191940895E-1  -6.824136085417296E-1  -7.233398029748276E-1  -4.624778602475185E-2   5.313884058177573E-2  
 1.045011252813203E9    -6.099670901196090E-2   3.925196957844611E-2  -6.765688076206912E-1  -7.140134869063844E-1  -6.842759180513846E-1  -7.213728533766532E-1  -4.615404497460542E-2   5.186445561115455E-2  
 1.045761440360090E9    -6.173049567328663E-2   3.992445675056436E-2  -6.767881431774560E-1  -7.128622156482494E-1  -6.853119355066017E-1  -7.198551070587895E-1  -4.540794842389124E-2   5.307083402956057E-2  
 1.046511627906977E9    -6.221239483037848E-2   3.953780096049055E-2  -6.788439235210771E-1  -7.109530743835074E-1  -6.869480574363162E-1  -7.177243188390010E-1  -4.552858019611390E-2   5.336971005534563E-2  
 1.047261815453864E9    -6.148065182959920E-2   3.995274229471075E-2  -6.801944174180379E-1  -7.109739538980860E-1  -6.880945754425045E-1  -7.150517715469489E-1  -4.510170159874736E-2   5.228072568652761E-2  
 1.048012003000750E9    -6.260803873370306E-2   4.028000030583527E-2  -6.804815424578314E-1  -7.097124795388221E-1  -6.889188460193080E-1  -7.141490438583716E-1  -4.540546612085872E-2   5.346259177387871E-2  
 1.048762190547637E9    -6.187951606806672E-2   3.943711032226211E-2  -6.817597389740664E-1  -7.092167591709382E-1  -6.904233433634586E-1  -7.118589408670155E-1  -4.541093729909238E-2   5.268453936502772E-2  
 1.049512378094524E9    -6.154353292541294E-2   4.007819195204859E-2  -6.830574089842361E-1  -7.084933264866083E-1  -6.911262436531251E-1  -7.101821225536401E-1  -4.477017512729891E-2   5.422057979643805E-2  
 1.050262565641410E9    -6.150674269046015E-2   4.007394245317841E-2  -6.846032159728707E-1  -7.077297326093818E-1  -6.924054243674510E-1  -7.084608164672041E-1  -4.474875864704478E-2   5.358313377084005E-2  
 1.051012753188297E9    -6.205775318298679E-2   4.068909634800108E-2  -6.859739971651009E-1  -7.060622129139584E-1  -6.927970761148864E-1  -7.072363391137904E-1  -4.420833708018403E-2   5.353604798759483E-2  
 1.051762940735184E9    -6.077345726019526E-2   4.054580006116382E-2  -6.866159419463738E-1  -7.054306340372324E-1  -6.935621000247598E-1  -7.058241515438251E-1  -4.520004877361863E-2   5.415173312432288E-2  
 1.052513128282071E9    -6.060914302512654E-2   4.141068746918743E-2  -6.885200449805476E-1  -7.046798577744129E-1  -6.943024106236543E-1  -7.027229348722971E-1  -4.413310491033818E-2   5.354246964417938E-2  
 1.053263315828957E9    -6.120536503661059E-2   4.001683892789054E-2  -6.896182606666961E-1  -7.045740030428925E-1  -6.945712581797543E-1  -7.013603074792254E-1  -4.400710971661392E-2   5.340776371188022E-2  
 1.054013503375844E9    -6.075003518274399E-2   4.104791130180110E-2  -6.910630494483528E-1  -7.029709922502377E-1  -6.956407966415971E-1  -7.010135012081127E-1  -4.535146098765312E-2   5.319989260543560E-2  
 1.054763690922731E9    -5.996390827813838E-2   4.061358820917019E-2  -6.926342339189884E-1  -7.019855242911105E-1  -6.959218040093931E-1  -6.982641100134567E-1  -4.461047699049477E-2   5.363893262031604E-2  
 1.055513878469617E9    -5.982603725357384E-2   4.123031557521640E-2  -6.926465635482363E-1  -7.009239562593673E-1  -6.972630877343763E-1  -6.973864011666691E-1  -4.403000043993213E-2   5.322539414369668E-2  
 1.056264066016504E9    -5.991683359797625E-2   4.064027311685925E-2  -6.938306173886824E-1  -6.990948295944225E-1  -6.971531328685401E-1  -6.963420210398094E-1  -4.424705719195061E-2   5.347607064027182E-2  
 1.057014253563391E9    -5.912929087909177E-2   4.087275591503851E-2  -6.965915111689029E-1  -6.994558344648768E-1  -6.975965276302122E-1  -6.945731444975474E-1  -4.391348775189185E-2   5.424342058295890E-2  
 1.057764441110278E9    -5.840240645152724E-2   4.148104614806596E-2  -6.986727541473654E-1  -6.966765800935654E-1  -6.992604551907288E-1  -6.930058520373138E-1  -4.466199150983397E-2   5.445893914823013E-2  
 1.058514628657164E9    -5.897193787526241E-2   4.089400260278174E-2  -6.980004869652896E-1  -6.968093426664941E-1  -6.994112574809696E-1  -6.925436756636336E-1  -4.424748257383663E-2   5.446453195752660E-2  
 1.059264816204051E9    -5.871675697206804E-2   4.167887790356546E-2  -6.992924240957404E-1  -6.965204859867176E-1  -6.982759790356006E-1  -6.916895304224102E-1  -4.463463591059902E-2   5.441519444412750E-2  
 1.060015003750938E9    -5.778187272429461E-2   4.083418654203273E-2  -7.010220613107829E-1  -6.948664510645876E-1  -6.999229344425832E-1  -6.900038788139027E-1  -4.432304547502761E-2   5.444670566300968E-2  
 1.060765191297825E9    -5.800572677597096E-2   4.147401121843523E-2  -7.019027857700960E-1  -6.944101504910907E-1  -7.008348680382729E-1  -6.877552102148605E-1  -4.440308375613626E-2   5.393034455094418E-2  
 1.061515378844711E9    -5.791147316342568E-2   4.162790833212476E-2  -7.040719190297992E-1  -6.923069000453146E-1  -7.009986240544803E-1  -6.882515862476279E-1  -4.415411942570661E-2   5.413447592485961E-2  
 1.062265566391598E9    -5.750146419008299E-2   4.092215483063369E-2  -7.052526179417540E-1  -6.906914941466777E-1  -7.017299471389159E-1  -6.872495124391780E-1  -4.421804706077215E-2   5.437067061982435E-2  
 1.063015753938485E9    -5.628295265986899E-2   4.222769534338543E-2  -7.065413085071703E-1  -6.902115351346885E-1  -7.020188762851207E-1  -6.857282175194356E-1  -4.434884441495533E-2   5.508626093361261E-2  
 1.063765941485371E9    -5.735868772185310E-2   4.126613373533553E-2  -7.073106551653439E-1  -6.890080215033109E-1  -7.031087883292625E-1  -6.841481909824869E-1  -4.407514098364000E-2   5.451302488653471E-2  
 1.064516129032258E9    -5.667269833687771E-2   4.249729994359057E-2  -7.091624667011750E-1  -6.873472034412513E-1  -7.035112846093978E-1  -6.834089187392174E-1  -4.394320302832304E-2   5.487717606430756E-2  
 1.065266316579145E9    -5.729404916862493E-2   4.311921930055770E-2  -7.111501676837716E-1  -6.863918207809215E-1  -7.037205000130969E-1  -6.835153713015757E-1  -4.487215512046464E-2   5.379204728186211E-2  
 1.066016504126032E9    -5.436187157563362E-2   4.300454951157158E-2  -7.113759422530288E-1  -6.848143956884882E-1  -7.051664617047050E-1  -6.827781443316320E-1  -4.348063781293460E-2   5.419336116596964E-2  
 1.066766691672918E9    -5.519484189014966E-2   4.342438419530471E-2  -7.135822608934875E-1  -6.837396155547669E-1  -7.057299627552680E-1  -6.818284090684303E-1  -4.464864337203073E-2   5.424472484158562E-2  
 1.067516879219805E9    -5.540689131330082E-2   4.485314185137779E-2  -7.141757028757427E-1  -6.825003178838487E-1  -7.060723124404364E-1  -6.805881254528204E-1  -4.352735306632190E-2   5.368810312884764E-2  
 1.068267066766692E9    -5.520142679408308E-2   4.483335330808631E-2  -7.151445388560510E-1  -6.805612144211916E-1  -7.076754539420086E-1  -6.800925725108871E-1  -4.410739799095295E-2   5.399068557105745E-2  
 1.069017254313578E9    -5.461374117634864E-2   4.500221100251928E-2  -7.170306771285508E-1  -6.791151173460952E-1  -7.075565689910131E-1  -6.791056559867573E-1  -4.474076717062517E-2   5.407603545334106E-2  
 1.069767441860465E9    -5.518849339089211E-2   4.612417000253141E-2  -7.177364176700941E-1  -6.782799765141347E-1  -7.094081407294853E-1  -6.794268049482034E-1  -4.436630964608954E-2   5.465486059408779E-2  
