#  HZ   S   RI   R     50.0 
! Rohde & Schwarz ZVL13 2Ports - Version 3.31 - 1303.6509k13 SN: 101088
! Date: 2023-03-06 14:34:26
! Data & Calibration Information:
! Trc4:S11(TOSM) Trc2:S21(TOSM) Trc3:S12(TOSM) Trc5:S22(TOSM)
! 
! 
! 
 1.000000000000000E9    -5.325787648558618E-2   3.285767039322705E-2  -6.087978472278209E-1  -7.814003932476045E-1  -6.151271701602299E-1  -7.801103532314301E-1  -4.492887344211340E-2   3.950228060986986E-2  
 1.000750187546887E9    -5.370998080819846E-2   3.278383177545329E-2  -6.110734625064371E-1  -7.803882813453674E-1  -6.156642267137761E-1  -7.787345331907272E-1  -4.580112099647524E-2   3.924182817192883E-2  
 1.001500375093774E9    -5.142314452677967E-2   3.293860325983906E-2  -6.119199498300653E-1  -7.794326889514925E-1  -6.155646876088733E-1  -7.766607028245927E-1  -4.571180868893862E-2   3.833050764483811E-2  
 1.002250562640660E9    -5.153260905295611E-2   3.541698005569078E-2  -6.126888743532128E-1  -7.781512850522997E-1  -6.168077691260516E-1  -7.754406476020814E-1  -4.496366102248431E-2   3.957565598821738E-2  
 1.003000750187547E9    -5.279460635036230E-2   3.484608689401946E-2  -6.143029568355053E-1  -7.778213322162627E-1  -6.181406388590250E-1  -7.737241733074189E-1  -4.496703356504442E-2   3.928894477446148E-2  
 1.003750937734434E9    -5.240826703608036E-2   3.471636067117636E-2  -6.171064839104841E-1  -7.764255464076995E-1  -6.183528138947219E-1  -7.731181812286379E-1  -4.596639022231102E-2   3.988035458219254E-2  
 1.004501125281320E9    -5.255497030913831E-2   3.488137935776988E-2  -6.171782342791695E-1  -7.757170969247819E-1  -6.196112111501536E-1  -7.718274843692780E-1  -4.604392375797033E-2   4.076490926346707E-2  
 1.005251312828207E9    -5.183163266628982E-2   3.583715957897676E-2  -6.197385812925793E-1  -7.740765649080277E-1  -6.207313936049174E-1  -7.703426259756089E-1  -4.723975975066424E-2   4.005930317921916E-2  
 1.006001500375094E9    -5.209668360650540E-2   3.674152949373316E-2  -6.210112285079188E-1  -7.733426940441133E-1  -6.217732084486096E-1  -7.687423700094225E-1  -4.528721980750562E-2   3.962353477919371E-2  
 1.006751687921981E9    -5.200674917548896E-2   3.578359084274494E-2  -6.226082731120614E-1  -7.724243712425232E-1  -6.215354460733864E-1  -7.672731930017472E-1  -4.650370698422194E-2   4.052245467583771E-2  
 1.007501875468867E9    -5.073995452374221E-2   3.671065565595297E-2  -6.236973614215808E-1  -7.709346318244935E-1  -6.226416654627577E-1  -7.661217021942141E-1  -4.578970365226268E-2   4.070007603360577E-2  
 1.008252063015754E9    -5.282538730651140E-2   3.568834090710066E-2  -6.256154145215997E-1  -7.694352668523788E-1  -6.234233922436019E-1  -7.650363320112228E-1  -4.515672028064728E-2   4.038081390182769E-2  
 1.009002250562641E9    -5.203010991215706E-2   3.731819987484319E-2  -6.278868156584263E-1  -7.688917934894562E-1  -6.261997742324302E-1  -7.622257584333420E-1  -4.550458595156669E-2   4.066283011805328E-2  
 1.009752438109527E9    -5.187956966459752E-2   3.783755941696041E-2  -6.273027148324615E-1  -7.679268771409991E-1  -6.247558239164180E-1  -7.631857407093048E-1  -4.800861995667219E-2   4.140814349465740E-2  
 1.010502625656414E9    -5.170861076563597E-2   3.648912087858663E-2  -6.300607862156238E-1  -7.662209349870685E-1  -6.255625226312873E-1  -7.622871690988542E-1  -4.594460267573596E-2   4.055468379272030E-2  
 1.011252813203301E9    -5.096085362136365E-2   3.767988186574752E-2  -6.314173280180676E-1  -7.655076408386232E-1  -6.260714116031902E-1  -7.615350902080538E-1  -4.650970131158828E-2   4.121226232137770E-2  
 1.012003000750188E9    -5.097312111407518E-2   3.746368863866385E-2  -6.335667718347614E-1  -7.642345178127290E-1  -6.268688787261764E-1  -7.595259833335879E-1  -4.611327286809683E-2   4.086067621160321E-2  
 1.012753188297074E9    -5.126217268407346E-2   3.849341240373804E-2  -6.336340305049076E-1  -7.628527981042861E-1  -6.279991033948139E-1  -7.590132242441178E-1  -4.729548584669828E-2   4.126802385296227E-2  
 1.013503375843961E9    -5.169891450554134E-2   3.881924268560400E-2  -6.356597049500576E-1  -7.614913082122804E-1  -6.286404839596169E-1  -7.586041748523713E-1  -4.645111408084630E-2   4.088349365947704E-2  
 1.014253563390848E9    -5.226756684482099E-2   3.984632755881804E-2  -6.370586777296070E-1  -7.604699844121935E-1  -6.286076769918065E-1  -7.581149721145630E-1  -4.683568365871907E-2   4.193039935958566E-2  
 1.015003750937735E9    -5.323088016361000E-2   3.941856705871569E-2  -6.368844051366174E-1  -7.598215246200561E-1  -6.289526667412735E-1  -7.580662983655929E-1  -4.672756060957910E-2   4.289335847211153E-2  
 1.015753938484621E9    -5.283642515540123E-2   4.028461496398229E-2  -6.392925544944235E-1  -7.587118202447892E-1  -6.313569229573502E-1  -7.577254384756089E-1  -4.723827388137579E-2   4.138170529696444E-2  
 1.016504126031508E9    -5.239448290318251E-2   4.112246205892675E-2  -6.420041308945906E-1  -7.562070953845979E-1  -6.328379782171865E-1  -7.561461645364763E-1  -4.659186907112598E-2   4.165835704331888E-2  
 1.017254313578395E9    -5.295818801969290E-2   4.197584994503509E-2  -6.442292303216805E-1  -7.536102539300920E-1  -6.336586544469511E-1  -7.550161075592041E-1  -4.613219320774078E-2   4.101697948193544E-2  
 1.018004501125281E9    -5.293091945350172E-2   4.085667800046723E-2  -6.420559288447638E-1  -7.553125298023226E-1  -6.340700593638757E-1  -7.549220144748687E-1  -4.681264564394951E-2   4.206069113608858E-2  
 1.018754688672168E9    -5.264096591621638E-2   4.130973086189948E-2  -6.469570473380470E-1  -7.509887158870697E-1  -6.350016178173445E-1  -7.551948952674867E-1  -4.687408316880465E-2   4.206521412936223E-2  
 1.019504876219055E9    -5.149070069193841E-2   4.234272551429409E-2  -6.476264462254721E-1  -7.505121320486070E-1  -6.359803247875889E-1  -7.546998178958895E-1  -4.657249178737402E-2   4.148292525284555E-2  
 1.020255063765942E9    -5.271900691092014E-2   4.294416194035478E-2  -6.471222957314615E-1  -7.500362825393677E-1  -6.373776612621556E-1  -7.539724797010421E-1  -4.655835289508104E-2   4.333466993081320E-2  
 1.021005251312828E9    -5.255272410809995E-2   4.193237238321538E-2  -6.489712794658317E-1  -7.483134663105010E-1  -6.387971159543397E-1  -7.533342081308365E-1  -4.679747093468904E-2   4.242479738254792E-2  
 1.021755438859715E9    -5.230980008840561E-2   4.272517786729053E-2  -6.506263068053594E-1  -7.469647186994552E-1  -6.395368586243256E-1  -7.541009521484376E-1  -4.515545938163996E-2   4.180681914792265E-2  
 1.022505626406602E9    -5.269664749503136E-2   4.313800556575435E-2  -6.517566678179950E-1  -7.471965217590332E-1  -6.411529590157038E-1  -7.519969016313552E-1  -4.576369475573302E-2   4.344279000204603E-2  
 1.023255813953488E9    -5.274887029081584E-2   4.361649156713893E-2  -6.531112271342500E-1  -7.448738175630570E-1  -6.420337205507858E-1  -7.520472037792207E-1  -4.600087404251099E-2   4.368484514573610E-2  
 1.024006001500375E9    -5.206405751407146E-2   4.467434088755142E-2  -6.542948076788661E-1  -7.442714399099351E-1  -6.441663534666917E-1  -7.515445709228519E-1  -4.530570533126593E-2   4.337532002681418E-2  
 1.024756189047262E9    -5.227945659309626E-2   4.346365783147194E-2  -6.560240932484330E-1  -7.422237497568132E-1  -6.459467145635761E-1  -7.497086316347122E-1  -4.653987951576710E-2   4.401971443756795E-2  
 1.025506376594149E9    -5.282488081604243E-2   4.253557164774932E-2  -6.567888198953500E-1  -7.415594553947449E-1  -6.469613503372913E-1  -7.497647964954377E-1  -4.654954463243484E-2   4.328049733390096E-2  
 1.026256564141035E9    -5.200283624231816E-2   4.322559934430273E-2  -6.576915102668222E-1  -7.400051879882811E-1  -6.497656360492439E-1  -7.492993998527526E-1  -4.532717030495406E-2   4.430514609742785E-2  
 1.027006751687922E9    -5.243188161402942E-2   4.361563478928331E-2  -6.590077721991204E-1  -7.399662041664123E-1  -6.508929787895587E-1  -7.481228244304659E-1  -4.563995864242316E-2   4.468710107149281E-2  
 1.027756939234809E9    -5.223134122788907E-2   4.389845084941860E-2  -6.586886538262022E-1  -7.386849033832551E-1  -6.508445402415909E-1  -7.486582684516907E-1  -4.516105923801661E-2   4.578142060300081E-2  
 1.028507126781695E9    -5.308271415531635E-2   4.346642270241934E-2  -6.601230684899020E-1  -7.359588891267777E-1  -6.542311870166467E-1  -7.477013117074968E-1  -4.587244968861342E-2   4.508100443672020E-2  
 1.029257314328582E9    -5.225424397736788E-2   4.470128608551061E-2  -6.625712750975491E-1  -7.348534661531450E-1  -6.560329178128797E-1  -7.460009938478471E-1  -4.596506200730801E-2   4.566761690704316E-2  
 1.030007501875469E9    -5.168357796967031E-2   4.268621315588223E-2  -6.633966280854616E-1  -7.336482942104340E-1  -6.586302040968183E-1  -7.446423745155335E-1  -4.638412926346064E-2   4.529712360911999E-2  
 1.030757689422356E9    -5.223451260477304E-2   4.299554374025938E-2  -6.653937455584355E-1  -7.319509363174440E-1  -6.581581542472097E-1  -7.444214737415315E-1  -4.462952651083470E-2   4.479798991880931E-2  
 1.031507876969242E9    -5.304364114999772E-2   4.234790838666694E-2  -6.666939084462580E-1  -7.292315238714219E-1  -6.612289351383061E-1  -7.441011816263199E-1  -4.494284640997649E-2   4.638056049578515E-2  
 1.032258064516129E9    -5.306539464741947E-2   4.243799751789687E-2  -6.664070633748732E-1  -7.300313228368760E-1  -6.629746295832335E-1  -7.425783962011338E-1  -4.541464027017356E-2   4.587280794834751E-2  
 1.033008252063016E9    -5.288420751690864E-2   4.177761288101829E-2  -6.665896167224561E-1  -7.288601297140123E-1  -6.649098899827323E-1  -7.423695570230484E-1  -4.504133105278015E-2   4.660088351852872E-2  
 1.033758439609903E9    -5.203105278313160E-2   4.210600235034080E-2  -6.684945573741037E-1  -7.274259501695634E-1  -6.657808324147896E-1  -7.403067541122436E-1  -4.568447217345238E-2   4.597190658930431E-2  
 1.034508627156789E9    -5.344879996031524E-2   4.152531816864366E-2  -6.681368843543406E-1  -7.275829833745957E-1  -6.684759310905235E-1  -7.398604726791381E-1  -4.431396421045065E-2   4.761022190966390E-2  
 1.035258814703676E9    -5.415544614195825E-2   4.169578530008772E-2  -6.699872227357734E-1  -7.256123763322830E-1  -6.700909579011840E-1  -7.387095814943315E-1  -4.439441695809365E-2   4.749321884712096E-2  
 1.036009002250563E9    -5.393757823854686E-2   4.089069445329820E-2  -6.705902544269329E-1  -7.252310448884967E-1  -6.709200767173453E-1  -7.377927684783936E-1  -4.409793946892023E-2   4.741483074387290E-2  
 1.036759189797449E9    -5.488363273441792E-2   4.149313628219874E-2  -6.721777867408616E-1  -7.220713502168656E-1  -6.730545376473059E-1  -7.369170624017715E-1  -4.456476297229529E-2   4.846795232147634E-2  
 1.037509377344336E9    -5.376054037362337E-2   4.033089526107371E-2  -6.725887611716187E-1  -7.221366417407990E-1  -6.751515318352080E-1  -7.356503486633300E-1  -4.381701022386551E-2   4.823193049561555E-2  
 1.038259564891223E9    -5.494166620075703E-2   3.891167729012964E-2  -6.739863343771010E-1  -7.208954334259033E-1  -6.769688527814606E-1  -7.339030593633651E-1  -4.412025943398476E-2   4.858068306041933E-2  
 1.039009752438110E9    -5.543300341814757E-2   3.972109001386871E-2  -6.753669082192247E-1  -7.201076531410219E-1  -6.783070036528883E-1  -7.329742801189423E-1  -4.280757684260607E-2   4.865288664620420E-2  
 1.039759939984996E9    -5.509581256657839E-2   3.935345659905934E-2  -6.760227719311274E-1  -7.186496526002884E-1  -6.798941828478449E-1  -7.316302019357682E-1  -4.295114200562238E-2   4.885332434860254E-2  
 1.040510127531883E9    -5.513272885233164E-2   3.939764713596872E-2  -6.770933567446065E-1  -7.177721679210665E-1  -6.819518400128654E-1  -7.297577798366547E-1  -4.329563044011593E-2   4.921596277616810E-2  
 1.041260315078770E9    -5.497521579265595E-2   3.892563799499637E-2  -6.778243159508108E-1  -7.168217349052428E-1  -6.842521979814844E-1  -7.282731443643572E-1  -4.346443198621272E-2   4.933457699313318E-2  
 1.042010502625656E9    -5.650389526039363E-2   3.846910393825295E-2  -6.801683430496383E-1  -7.154491096735001E-1  -6.852482161613650E-1  -7.259164947271348E-1  -4.214317884296179E-2   5.010987059699516E-2  
 1.042760690172543E9    -5.567269351333380E-2   3.884429054591219E-2  -6.805581032040969E-1  -7.147655582427978E-1  -6.866038244714988E-1  -7.252374023199082E-1  -4.150695867836476E-2   5.006604995574854E-2  
 1.043510877719430E9    -5.670449979603291E-2   3.966314422188168E-2  -6.807734056173764E-1  -7.140779602527619E-1  -6.883530751715865E-1  -7.213520079851152E-1  -4.197973430156709E-2   5.015331257933590E-2  
 1.044261065266317E9    -5.636515285819770E-2   3.924326017370856E-2  -6.821041642777387E-1  -7.127695596218108E-1  -6.903070904315884E-1  -7.210581779479980E-1  -4.146727725863457E-2   5.115399221482245E-2  
 1.045011252813203E9    -5.567040361464024E-2   3.813637890941729E-2  -6.841607453738610E-1  -7.118031793832781E-1  -6.919279381087139E-1  -7.195554256439209E-1  -4.152174316346646E-2   4.994432737897014E-2  
 1.045761440360090E9    -5.629876703023911E-2   3.880479214043146E-2  -6.840123134525799E-1  -7.108121812343597E-1  -6.927907866496346E-1  -7.176304918527602E-1  -4.062676731497049E-2   5.115542805767104E-2  
 1.046511627906977E9    -5.687165241688492E-2   3.847786445680890E-2  -6.863757458327712E-1  -7.090842849016191E-1  -6.948284262000199E-1  -7.155029481649401E-1  -4.075735826045274E-2   5.134938916693876E-2  
 1.047261815453864E9    -5.609973575919867E-2   3.900619135771841E-2  -6.876144577912996E-1  -7.087850350141527E-1  -6.956000695148772E-1  -7.128144460916520E-1  -4.053832605481147E-2   5.000319945473405E-2  
 1.048012003000750E9    -5.716706424951554E-2   3.905513885555421E-2  -6.880120768356368E-1  -7.075530004501344E-1  -6.964954636112007E-1  -7.118975704908371E-1  -4.070457980036736E-2   5.141336800143681E-2  
 1.048762190547637E9    -5.647651206701995E-2   3.834258074700999E-2  -6.891551267910264E-1  -7.070629024505616E-1  -6.980415832378487E-1  -7.096611952781680E-1  -4.064396057277919E-2   5.048987586045864E-2  
 1.049512378094524E9    -5.622224278748036E-2   3.886236782749417E-2  -6.905256180994924E-1  -7.066472387313844E-1  -6.985738267098905E-1  -7.078298246860505E-1  -4.024388942867517E-2   5.196815259326980E-2  
 1.050262565641410E9    -5.600304566323758E-2   3.883181458711427E-2  -6.920386971623000E-1  -7.057699316740037E-1  -7.000133619810893E-1  -7.058028340339662E-1  -4.001027878373862E-2   5.135321045242105E-2  
 1.051012753188297E9    -5.654363732784988E-2   3.947523911972560E-2  -6.931202663673094E-1  -7.041007703542711E-1  -7.007996685768437E-1  -7.046804034709930E-1  -3.962351884692908E-2   5.109204200790848E-2  
 1.051762940735184E9    -5.513219159096480E-2   3.925443244078629E-2  -6.940770126635341E-1  -7.032112026214599E-1  -7.014100465248977E-1  -7.029738187789918E-1  -4.063336148858070E-2   5.189652915181904E-2  
 1.052513128282071E9    -5.512231398373843E-2   4.003398434402904E-2  -6.959324279053140E-1  -7.024722570180892E-1  -7.023740087394019E-1  -7.002516895532608E-1  -3.956531371921302E-2   5.118028482304237E-2  
 1.053263315828957E9    -5.588421620428564E-2   3.866277603135260E-2  -6.969919103239396E-1  -7.022556430101394E-1  -7.021312569135102E-1  -6.986145460605621E-1  -3.925987925380470E-2   5.112378500310279E-2  
 1.054013503375844E9    -5.520304173231125E-2   3.964767654695359E-2  -6.986200704742474E-1  -7.007669168710708E-1  -7.035276656174890E-1  -6.982866382598877E-1  -4.067109640687705E-2   5.075551312344695E-2  
 1.054763690922731E9    -5.460003815591336E-2   3.900557633327628E-2  -7.000765349707655E-1  -6.998358821868899E-1  -7.039068215908104E-1  -6.958373957872392E-1  -4.003496672958137E-2   5.114905495308858E-2  
 1.055513878469617E9    -5.423323024064303E-2   3.977450817540958E-2  -7.005985517516423E-1  -6.984558695554733E-1  -7.051731082073975E-1  -6.946250182390215E-1  -3.943716861307622E-2   5.081718806272857E-2  
 1.056264066016504E9    -5.445085488259792E-2   3.917283047102835E-2  -7.014679518215766E-1  -6.967419332265854E-1  -7.049591115439515E-1  -6.937284660339355E-1  -3.956279806792736E-2   5.095312529279152E-2  
 1.057014253563391E9    -5.352598670870066E-2   3.924717482227461E-2  -7.040006921789441E-1  -6.966906237602234E-1  -7.053156415825986E-1  -6.919316196441651E-1  -3.896017815917729E-2   5.168576728904852E-2  
 1.057764441110278E9    -5.287918929010629E-2   3.951056122369785E-2  -7.049453727769753E-1  -6.948813533782959E-1  -7.061414198219783E-1  -6.904785490036011E-1  -3.991925686597824E-2   5.182296235638143E-2  
 1.058514628657164E9    -5.328051716089248E-2   3.948430847674794E-2  -7.059260702715675E-1  -6.933833122253419E-1  -7.066326674411858E-1  -6.897525894641877E-1  -3.924465026706456E-2   5.196392312244436E-2  
 1.059264816204051E9    -5.294410817325115E-2   4.011826289364479E-2  -7.072674515175815E-1  -6.937090718746185E-1  -7.068460406175765E-1  -6.878691315650940E-1  -3.952300813049078E-2   5.197913932026393E-2  
 1.060015003750938E9    -5.205007180571557E-2   3.899153985688943E-2  -7.084058590104190E-1  -6.922517651319504E-1  -7.077379361368205E-1  -6.864000600576401E-1  -3.931376364082099E-2   5.183645108212245E-2  
 1.060765191297825E9    -5.242245655506849E-2   3.968245790506371E-2  -7.095154049687955E-1  -6.914612150192262E-1  -7.086865472731754E-1  -6.845535534620286E-1  -3.938143681734801E-2   5.129999119165883E-2  
 1.061515378844711E9    -5.239954218268395E-2   3.997686165399655E-2  -7.117674346536409E-1  -6.894082635641098E-1  -7.085878732436098E-1  -6.850306028127671E-1  -3.916260082274675E-2   5.149438365411357E-2  
 1.062265566391598E9    -5.188700087368489E-2   3.904369014378798E-2  -7.127967460891100E-1  -6.879278039932252E-1  -7.095908371235060E-1  -6.841031306982039E-1  -3.923762012273074E-2   5.176360646828768E-2  
 1.063015753938485E9    -5.078626949340105E-2   4.026285381138522E-2  -7.140398464425218E-1  -6.872381591796875E-1  -7.093987995237970E-1  -6.826402252912521E-1  -3.929873473942280E-2   5.238003279570782E-2  
 1.063765941485371E9    -5.180138032883407E-2   3.925010681707161E-2  -7.148167143721901E-1  -6.858823931217195E-1  -7.106761192278941E-1  -6.807003134489061E-1  -3.896423388272525E-2   5.198924544633563E-2  
 1.064516129032258E9    -5.105642993003130E-2   4.059672848661539E-2  -7.168273284159249E-1  -6.843960261344909E-1  -7.112325393510572E-1  -6.801895707845689E-1  -3.896626852452756E-2   5.222578208230788E-2  
 1.065266316579145E9    -5.170457605272532E-2   4.107963096270804E-2  -7.185465614497736E-1  -6.830006378889083E-1  -7.115819941945947E-1  -6.797535240650177E-1  -3.977870825678111E-2   5.115927863210733E-2  
 1.066016504126032E9    -4.877051580697300E-2   4.103008311497765E-2  -7.189157144560434E-1  -6.816809821128846E-1  -7.128773473204441E-1  -6.792136311531066E-1  -3.828737955540419E-2   5.159570988159766E-2  
 1.066766691672918E9    -4.980697743594646E-2   4.150202933027009E-2  -7.210891678659357E-1  -6.804507815837861E-1  -7.134460343258310E-1  -6.785674059391023E-1  -3.938378900289535E-2   5.148092351996653E-2  
 1.067516879219805E9    -5.003885962069036E-2   4.288093409844578E-2  -7.218289538435354E-1  -6.792808175086976E-1  -7.133548967953162E-1  -6.773979145288469E-1  -3.847777675837279E-2   5.097846987600198E-2  
 1.068267066766692E9    -4.985958240926267E-2   4.269587936618939E-2  -7.225057999680979E-1  -6.774846792221069E-1  -7.154275265486964E-1  -6.762826341390610E-1  -3.886227644979955E-2   5.143285104292761E-2  
 1.069017254313578E9    -4.927749793976546E-2   4.284218619581970E-2  -7.244962152703099E-1  -6.760501450300216E-1  -7.151551920399593E-1  -6.755435502529145E-1  -3.936737462878227E-2   5.171635229571657E-2  
 1.069767441860465E9    -4.997286796569825E-2   4.386446002016494E-2  -7.253323781234569E-1  -6.749548047780989E-1  -7.165751868623559E-1  -6.759651726484300E-1  -3.900655481964350E-2   5.196238152413800E-2  
