#  HZ   S   RI   R     50.0 
! Rohde & Schwarz ZVL13 2Ports - Version 3.31 - 1303.6509k13 SN: 101088
! Date: 2023-03-06 14:32:38
! Data & Calibration Information:
! Trc4:S11(TOSM) Trc2:S21(TOSM) Trc3:S12(TOSM) Trc5:S22(TOSM)
! 
! 
! 
 1.000000000000000E9    -5.166663623675705E-2   3.143036928677023E-2  -6.105559756880931E-1  -7.796351617038251E-1  -6.169393532501427E-1  -7.782916303336620E-1  -4.357095634154976E-2   3.765603433779139E-2  
 1.000750187546887E9    -5.210099583752455E-2   3.137201979392877E-2  -6.126578637298934E-1  -7.785508537709713E-1  -6.173534921221382E-1  -7.770584896564485E-1  -4.444206246137620E-2   3.756490826110866E-2  
 1.001500375093774E9    -4.981559843458236E-2   3.121424090148899E-2  -6.134255103233577E-1  -7.775775595664979E-1  -6.174314509095635E-1  -7.747886658132077E-1  -4.428001891523600E-2   3.691785228896679E-2  
 1.002250562640660E9    -5.000121215730905E-2   3.377939846438598E-2  -6.145408134620529E-1  -7.761888185918333E-1  -6.184907715286427E-1  -7.736021817862990E-1  -4.359859548285604E-2   3.804517654868988E-2  
 1.003000750187547E9    -5.133738675564528E-2   3.336971932753378E-2  -6.163720326052168E-1  -7.757073228299620E-1  -6.199990676713268E-1  -7.719400114297867E-1  -4.343856757730245E-2   3.759888629586836E-2  
 1.003750937734434E9    -5.061301036775113E-2   3.303609818859778E-2  -6.185407111046257E-1  -7.745866307675838E-1  -6.198645764785211E-1  -7.712651366531851E-1  -4.448178193867207E-2   3.803038139950483E-2  
 1.004501125281320E9    -5.067986912541092E-2   3.317063390116449E-2  -6.188266166062720E-1  -7.733171012639999E-1  -6.215330177300952E-1  -7.696844179570676E-1  -4.452747249081732E-2   3.905288089529135E-2  
 1.005251312828207E9    -5.023718798831106E-2   3.425183993496048E-2  -6.210358021040775E-1  -7.720624408662319E-1  -6.224053341878815E-1  -7.683953666985036E-1  -4.577925682552159E-2   3.830886500351730E-2  
 1.006001500375094E9    -5.048233798220754E-2   3.503503794115786E-2  -6.230613821012074E-1  -7.715336844265462E-1  -6.233969863535095E-1  -7.668895566999914E-1  -4.379147332645952E-2   3.790948825104896E-2  
 1.006751687921981E9    -5.025411147847773E-2   3.408096959245188E-2  -6.244258291900351E-1  -7.703814607203008E-1  -6.236241126476874E-1  -7.650997342884542E-1  -4.507702456898988E-2   3.890381708249412E-2  
 1.007501875468867E9    -4.929031436666847E-2   3.493103751812211E-2  -6.252999514824794E-1  -7.690137202143670E-1  -6.242757786933246E-1  -7.643451131522657E-1  -4.422176256850363E-2   3.884786831526216E-2  
 1.008252063015754E9    -5.116102507226170E-2   3.405831089732243E-2  -6.270427736561879E-1  -7.676010090768338E-1  -6.250034841099958E-1  -7.632402490019798E-1  -4.370131325498224E-2   3.840759598033070E-2  
 1.009002250562641E9    -5.028032224923373E-2   3.551110647144407E-2  -6.295840086796556E-1  -7.670865688264372E-1  -6.280196298519849E-1  -7.604792989313602E-1  -4.395093544833362E-2   3.880853200825800E-2  
 1.009752438109527E9    -5.041066074855627E-2   3.603472420075769E-2  -6.291582527926423E-1  -7.658703402936459E-1  -6.261587458987356E-1  -7.610396199822428E-1  -4.658040851205587E-2   3.962063823860774E-2  
 1.010502625656414E9    -5.010307874083521E-2   3.470332173236888E-2  -6.316649184540575E-1  -7.640558676362040E-1  -6.271202050946443E-1  -7.603964715123177E-1  -4.450016806200147E-2   3.867424036792782E-2  
 1.011252813203301E9    -4.922910723127425E-2   3.615731332610538E-2  -6.331593773351717E-1  -7.633753926396372E-1  -6.278637542384806E-1  -7.594252926051619E-1  -4.490218135938049E-2   3.924910776191070E-2  
 1.012003000750188E9    -4.960342592224479E-2   3.580446768108957E-2  -6.348893043060353E-1  -7.623930298686028E-1  -6.280837771411266E-1  -7.579939152240753E-1  -4.478432040363551E-2   3.906278000643691E-2  
 1.012753188297074E9    -4.959092147350312E-2   3.687135075691569E-2  -6.356758572630544E-1  -7.603586833894256E-1  -6.296744974974801E-1  -7.575412810862066E-1  -4.584244534671307E-2   3.942373522187396E-2  
 1.013503375843961E9    -5.007149237915873E-2   3.725669223424138E-2  -6.375016050092197E-1  -7.592535974621774E-1  -6.305229986351335E-1  -7.564540004849434E-1  -4.495910636447371E-2   3.892129937399064E-2  
 1.014253563390848E9    -5.067951324246824E-2   3.795589997402422E-2  -6.387222003204061E-1  -7.587813184320930E-1  -6.304389609743484E-1  -7.559568941593169E-1  -4.543958082348108E-2   3.995152069852665E-2  
 1.015003750937735E9    -5.155164613351226E-2   3.760396767525828E-2  -6.387888169350556E-1  -7.576573126852513E-1  -6.304962259650191E-1  -7.563187856018544E-1  -4.530070842653515E-2   4.091075451650400E-2  
 1.015753938484621E9    -5.128900827392936E-2   3.873186457108006E-2  -6.413805956345857E-1  -7.561517694652081E-1  -6.326255970981198E-1  -7.561522090435029E-1  -4.580709402114153E-2   3.943937868784476E-2  
 1.016504126031508E9    -5.056140527427198E-2   3.910900135708506E-2  -6.433008023920086E-1  -7.539193827331069E-1  -6.346321259634891E-1  -7.537463497102263E-1  -4.528618401810527E-2   3.961362307431206E-2  
 1.017254313578395E9    -5.111805109530688E-2   4.029304886272957E-2  -6.440473567835008E-1  -7.530853943049909E-1  -6.350113074243206E-1  -7.535345683991912E-1  -4.488836290538312E-2   3.945810685878540E-2  
 1.018004501125281E9    -5.124228169843555E-2   3.904904507667822E-2  -6.447435410164613E-1  -7.523932201683521E-1  -6.353576035456218E-1  -7.533961509704592E-1  -4.519703386388720E-2   4.002234658529418E-2  
 1.018754688672168E9    -5.090515990816057E-2   3.924659437021556E-2  -6.488155421803104E-1  -7.486445951581003E-1  -6.372083261076440E-1  -7.525300976693631E-1  -4.539858077839017E-2   3.993430430673899E-2  
 1.019504876219055E9    -4.986340705826880E-2   4.039833176455653E-2  -6.492329911247949E-1  -7.484729862928390E-1  -6.378843490304559E-1  -7.529387566268444E-1  -4.510870099030435E-2   3.944234887399636E-2  
 1.020255063765942E9    -5.099468675069512E-2   4.082232865227260E-2  -6.486981553443817E-1  -7.478215836882591E-1  -6.392152838923004E-1  -7.521006628215314E-1  -4.513846418038011E-2   4.141195290316962E-2  
 1.021005251312828E9    -5.090956860706210E-2   3.997705512048088E-2  -6.505807091631244E-1  -7.462036445260050E-1  -6.403259852569075E-1  -7.512683543682099E-1  -4.545006631426513E-2   4.022987857717798E-2  
 1.021755438859715E9    -5.086949029341341E-2   4.087778900472112E-2  -6.521784161361006E-1  -7.447882590472699E-1  -6.411137520621890E-1  -7.522797480523586E-1  -4.356934403106572E-2   3.988778963151306E-2  
 1.022505626406602E9    -5.110927412211896E-2   4.098199734133227E-2  -6.534859891945362E-1  -7.446447475075724E-1  -6.429685942373882E-1  -7.499515109241012E-1  -4.426316751837731E-2   4.142368484364806E-2  
 1.023255813953488E9    -5.099319514445961E-2   4.174844192253744E-2  -6.545855861228117E-1  -7.429573294997216E-1  -6.438601346432767E-1  -7.502083757936956E-1  -4.441809519194066E-2   4.155896091818486E-2  
 1.024006001500375E9    -5.035224743112922E-2   4.263942445358300E-2  -6.560849745218913E-1  -7.421120754301548E-1  -6.458535032756385E-1  -7.495287284016611E-1  -4.399563162811101E-2   4.150686888416991E-2  
 1.024756189047262E9    -5.073328527137638E-2   4.147874199997955E-2  -6.575172926928646E-1  -7.400853978097440E-1  -6.476120565023518E-1  -7.476766916573049E-1  -4.511207915581764E-2   4.215117711988883E-2  
 1.025506376594149E9    -5.107119265049696E-2   4.072316574907573E-2  -6.583752983053938E-1  -7.396144280195238E-1  -6.488276422219128E-1  -7.480120245337487E-1  -4.505369707718492E-2   4.137843464711324E-2  
 1.026256564141035E9    -5.041053030043841E-2   4.154761672256644E-2  -6.590465765490767E-1  -7.380541115999223E-1  -6.517289556349323E-1  -7.471690990924836E-1  -4.384957621172072E-2   4.221082059742245E-2  
 1.027006751687922E9    -5.086186608709396E-2   4.155814881597843E-2  -6.608021821835155E-1  -7.379286371171474E-1  -6.526130135581800E-1  -7.459536114573480E-1  -4.417358935289086E-2   4.244218216482351E-2  
 1.027756939234809E9    -5.046092057265342E-2   4.188528251275099E-2  -6.602646327234875E-1  -7.367287800431251E-1  -6.525244911723053E-1  -7.467235100448132E-1  -4.375128286033869E-2   4.370240774607846E-2  
 1.028507126781695E9    -5.143264734596015E-2   4.156867303330000E-2  -6.617728989618795E-1  -7.341169510602952E-1  -6.558020273123029E-1  -7.455186691761018E-1  -4.430690062791109E-2   4.295586536986152E-2  
 1.029257314328582E9    -5.062722432985903E-2   4.270749970047433E-2  -6.641498281570081E-1  -7.328802830338479E-1  -6.574775374251364E-1  -7.441547248601914E-1  -4.446042583435774E-2   4.348763362874387E-2  
 1.030007501875469E9    -5.018911394737663E-2   4.085602207493155E-2  -6.648265074687360E-1  -7.318751916527749E-1  -6.601323296249504E-1  -7.425922680556775E-1  -4.470490243472160E-2   4.324205411281180E-2  
 1.030757689422356E9    -5.067196026593447E-2   4.091603757400614E-2  -6.669852206475251E-1  -7.299412073254586E-1  -6.599845819178034E-1  -7.423108510732650E-1  -4.284522089958191E-2   4.248853558127301E-2  
 1.031507876969242E9    -5.138025687895717E-2   4.021525327523658E-2  -6.684091401502683E-1  -7.270428521692753E-1  -6.629254795569068E-1  -7.417273936152459E-1  -4.345317636653782E-2   4.415718658627806E-2  
 1.032258064516129E9    -5.150466492660345E-2   4.029431876276773E-2  -6.679844770897400E-1  -7.281258891761304E-1  -6.645876183953631E-1  -7.405837208747864E-1  -4.366651127375662E-2   4.362215344648632E-2  
 1.033008252063016E9    -5.132082730792464E-2   3.979690970504247E-2  -6.680302814880788E-1  -7.267535249590874E-1  -6.664783517137347E-1  -7.401954749882221E-1  -4.349144761823118E-2   4.436579033939331E-2  
 1.033758439609903E9    -5.033338925987482E-2   3.997119477707040E-2  -6.700434730061430E-1  -7.254104650199413E-1  -6.677629944722621E-1  -7.379378398358821E-1  -4.388543954342604E-2   4.372526946679461E-2  
 1.034508627156789E9    -5.171230315491558E-2   3.929942046594370E-2  -6.701116471195796E-1  -7.251340113341810E-1  -6.699770281647716E-1  -7.380367235660553E-1  -4.285734017379583E-2   4.539577869670099E-2  
 1.035258814703676E9    -5.235592210777105E-2   3.963930074231389E-2  -6.720045802596791E-1  -7.231283548235895E-1  -6.721972684644758E-1  -7.364897935688497E-1  -4.271209355629980E-2   4.524360111844926E-2  
 1.036009002250563E9    -5.218189432807267E-2   3.881837030997281E-2  -6.721334866554296E-1  -7.231654259920121E-1  -6.726746630345101E-1  -7.357012030422689E-1  -4.273829772882164E-2   4.510574083557786E-2  
 1.036759189797449E9    -5.333918520249427E-2   3.937226941047232E-2  -6.744380990368878E-1  -7.198928134500980E-1  -6.748453372225500E-1  -7.346087245106698E-1  -4.303861879073085E-2   4.627080402046536E-2  
 1.037509377344336E9    -5.211202459633351E-2   3.819743192154809E-2  -6.742186297935811E-1  -7.200221405267715E-1  -6.771024693126255E-1  -7.330490060269834E-1  -4.203056196756661E-2   4.614531241070319E-2  
 1.038259564891223E9    -5.324947575405239E-2   3.690947854978319E-2  -6.760608048630482E-1  -7.186476231157781E-1  -6.787083478550174E-1  -7.321776700496674E-1  -4.228702163212002E-2   4.650713564557884E-2  
 1.039009752438110E9    -5.373688625618816E-2   3.755841683821053E-2  -6.768243922034873E-1  -7.180487448513508E-1  -6.799760279813221E-1  -7.310680277764798E-1  -4.110191625021399E-2   4.637509891568194E-2  
 1.039759939984996E9    -5.358448459394276E-2   3.695929503755001E-2  -6.775447032344651E-1  -7.166099042475225E-1  -6.825561193713673E-1  -7.288019700348378E-1  -4.126882006451488E-2   4.670411513737387E-2  
 1.040510127531883E9    -5.323983670473099E-2   3.736037649242090E-2  -6.789337258618727E-1  -7.153266017794611E-1  -6.838605154018268E-1  -7.275646913945676E-1  -4.171545547321440E-2   4.699591024288079E-2  
 1.041260315078770E9    -5.331538938097657E-2   3.666411533878351E-2  -6.794709164909424E-1  -7.148896968901159E-1  -6.860033760597808E-1  -7.261606103122235E-1  -4.196486586332322E-2   4.717456775704741E-2  
 1.042010502625656E9    -5.480011205486953E-2   3.643337846781024E-2  -6.817442503722403E-1  -7.133672158062461E-1  -6.873707642423055E-1  -7.236730691671374E-1  -4.062459481805564E-2   4.790125587069066E-2  
 1.042760690172543E9    -5.418876450024546E-2   3.664042571820653E-2  -6.819658219397179E-1  -7.127722933471204E-1  -6.887664282459332E-1  -7.230425699770452E-1  -3.990116700604558E-2   4.780732488095062E-2  
 1.043510877719430E9    -5.499544904865325E-2   3.742028571048475E-2  -6.827043658453201E-1  -7.116952679395676E-1  -6.903725414357845E-1  -7.191135015964507E-1  -4.022699062786997E-2   4.752711169044504E-2  
 1.044261065266317E9    -5.459746812917293E-2   3.680696933696874E-2  -6.836450145252651E-1  -7.106836206555368E-1  -6.922082435887361E-1  -7.192232784032824E-1  -4.006665768250824E-2   4.889823111115119E-2  
 1.045011252813203E9    -5.387736662328242E-2   3.592993572136307E-2  -6.861037079619288E-1  -7.094067819237708E-1  -6.938301823480906E-1  -7.171354496777058E-1  -3.981699480824173E-2   4.754224401438474E-2  
 1.045761440360090E9    -5.448078366890551E-2   3.664284892679535E-2  -6.859653349447497E-1  -7.084315856993200E-1  -6.949337753274144E-1  -7.150848000824454E-1  -3.898164641410113E-2   4.891758052597935E-2  
 1.046511627906977E9    -5.505243317969144E-2   3.615109610043506E-2  -6.883744631390758E-1  -7.064717725276948E-1  -6.964549837743407E-1  -7.131327778756619E-1  -3.913886003531515E-2   4.906757953791970E-2  
 1.047261815453864E9    -5.438478744365276E-2   3.666369059068533E-2  -6.893685796700650E-1  -7.065398272633552E-1  -6.975685759802880E-1  -7.101710940897463E-1  -3.863073899149895E-2   4.787284962357527E-2  
 1.048012003000750E9    -5.565733652636409E-2   3.682093400319836E-2  -6.896819027033776E-1  -7.054420477211475E-1  -6.988170901737344E-1  -7.095349404275417E-1  -3.921834961250426E-2   4.913970975429190E-2  
 1.048762190547637E9    -5.464891925826670E-2   3.599009972558231E-2  -6.909352600190468E-1  -7.046107632398606E-1  -7.000428259500766E-1  -7.073332209765911E-1  -3.919265168309213E-2   4.816448647539330E-2  
 1.049512378094524E9    -5.439786498174072E-2   3.668152844856945E-2  -6.923349465198139E-1  -7.041067646741868E-1  -7.006430218313304E-1  -7.056027001082897E-1  -3.844640333913267E-2   4.961663079267654E-2  
 1.050262565641410E9    -5.438775737956167E-2   3.660384880366691E-2  -6.939345853960557E-1  -7.033852909862995E-1  -7.021205240787140E-1  -7.033820900201798E-1  -3.854291130304337E-2   4.902682437573068E-2  
 1.051012753188297E9    -5.496552107073367E-2   3.726185893542148E-2  -6.952626187716029E-1  -7.013067889630795E-1  -7.027796692514691E-1  -7.019622919082643E-1  -3.786592794395984E-2   4.880033291608307E-2  
 1.051762940735184E9    -5.350315980389715E-2   3.688878437958176E-2  -6.960646376424537E-1  -7.006321210324764E-1  -7.032778345494885E-1  -7.004626205563546E-1  -3.899751157239080E-2   4.940146123141508E-2  
 1.052513128282071E9    -5.334294104762377E-2   3.791677186545491E-2  -6.979680292912123E-1  -6.999078590929510E-1  -7.039961568340064E-1  -6.973873661577702E-1  -3.776801495552063E-2   4.883536638193015E-2  
 1.053263315828957E9    -5.397410170547665E-2   3.638653032637255E-2  -6.989899912098843E-1  -6.996844743669034E-1  -7.041734667475549E-1  -6.960925198972228E-1  -3.751486488766969E-2   4.865379796891325E-2  
 1.054013503375844E9    -5.341635820381344E-2   3.733112644644388E-2  -7.005100950842252E-1  -6.979159398972989E-1  -7.054057405611932E-1  -6.956961808919908E-1  -3.889222922697663E-2   4.831527862008652E-2  
 1.054763690922731E9    -5.263405644930900E-2   3.671810195110450E-2  -7.019262154315149E-1  -6.971860936224460E-1  -7.057345334995759E-1  -6.932214222252369E-1  -3.810308118201793E-2   4.874826805899106E-2  
 1.055513878469617E9    -5.242902610450984E-2   3.733492490332067E-2  -7.022001297400079E-1  -6.956997182309628E-1  -7.069681016211884E-1  -6.920361986398698E-1  -3.767015856876970E-2   4.820484810394882E-2  
 1.056264066016504E9    -5.266770944073798E-2   3.686567434017999E-2  -7.034655976694304E-1  -6.937342909455302E-1  -7.070600485063756E-1  -6.906613339602948E-1  -3.772441440895201E-2   4.863238801191434E-2  
 1.057014253563391E9    -5.178050488382578E-2   3.701294325459388E-2  -7.059798183457596E-1  -6.941405586957932E-1  -7.072238264560027E-1  -6.888410224676133E-1  -3.731851000376047E-2   4.921178680025877E-2  
 1.057764441110278E9    -5.092271588779987E-2   3.743795692643084E-2  -7.080291326800062E-1  -6.911201673686505E-1  -7.088778070666971E-1  -6.875460228323936E-1  -3.805495505966246E-2   4.955831590882644E-2  
 1.058514628657164E9    -5.170354951061310E-2   3.690367344942329E-2  -7.071080677147723E-1  -6.919845026016237E-1  -7.089451788623730E-1  -6.869478581309320E-1  -3.771669373363256E-2   4.939065482676425E-2  
 1.059264816204051E9    -5.128237157240510E-2   3.757872115128679E-2  -7.088990315865585E-1  -6.912579272389412E-1  -7.079399406119487E-1  -6.860391637861730E-1  -3.805693992935122E-2   4.921254292463848E-2  
 1.060015003750938E9    -5.038344479240478E-2   3.659095765589038E-2  -7.104068852641545E-1  -6.894756767094136E-1  -7.096313010429260E-1  -6.839176418185234E-1  -3.761035329662264E-2   4.931857455909541E-2  
 1.060765191297825E9    -5.072544942460955E-2   3.723432261510634E-2  -7.115861698436047E-1  -6.887550155341625E-1  -7.106158481975082E-1  -6.819137460291386E-1  -3.771901234723629E-2   4.862264081071192E-2  
 1.061515378844711E9    -5.052600578814746E-2   3.742346982141146E-2  -7.137827030197881E-1  -6.865595921397212E-1  -7.105606106053912E-1  -6.823778430104257E-1  -3.745264020673931E-2   4.878809518334207E-2  
 1.062265566391598E9    -5.003091423623264E-2   3.667844535942839E-2  -7.147178126870450E-1  -6.852492690742016E-1  -7.114310902332011E-1  -6.813498976230621E-1  -3.768324773721397E-2   4.920603248699518E-2  
 1.063015753938485E9    -4.912062058635056E-2   3.779816714328132E-2  -7.161236144384088E-1  -6.845045096755028E-1  -7.113985758704196E-1  -6.798302565455437E-1  -3.740323544517161E-2   4.977837465662047E-2  
 1.063765941485371E9    -4.998900532349945E-2   3.679148591820365E-2  -7.168018278750187E-1  -6.831135864615442E-1  -7.127136320444033E-1  -6.778869278430940E-1  -3.726423059739172E-2   4.928510924515160E-2  
 1.064516129032258E9    -4.941375793591142E-2   3.803574017982694E-2  -7.186448130856503E-1  -6.815137106716632E-1  -7.131818132783406E-1  -6.773742336273194E-1  -3.712511869035662E-2   4.946448620534374E-2  
 1.065266316579145E9    -4.962541136369110E-2   3.854040786017133E-2  -7.203505856132754E-1  -6.805249108672142E-1  -7.134245043664834E-1  -6.773168746650220E-1  -3.815808017589152E-2   4.855755450888310E-2  
 1.066016504126032E9    -4.695551622845234E-2   3.837502945065568E-2  -7.208780076035787E-1  -6.789742309927940E-1  -7.147886480438569E-1  -6.764485625505448E-1  -3.658271481208503E-2   4.874642063051617E-2  
 1.066766691672918E9    -4.792970450408757E-2   3.871409418034993E-2  -7.231479232904372E-1  -6.779472652077674E-1  -7.152374939564137E-1  -6.759109535157682E-1  -3.767215864956379E-2   4.880385518607180E-2  
 1.067516879219805E9    -4.830611550472676E-2   4.022977547132146E-2  -7.235356752868450E-1  -6.761772590637207E-1  -7.154066060151834E-1  -6.746629214167595E-1  -3.678799390271306E-2   4.828929256810522E-2  
 1.068267066766692E9    -4.814113713465633E-2   4.000986858453313E-2  -7.243864661709957E-1  -6.745683214426040E-1  -7.172528504607971E-1  -6.736586277186871E-1  -3.712810849361122E-2   4.857251526415343E-2  
 1.069017254313578E9    -4.746081699728966E-2   4.007582618561590E-2  -7.262762709546395E-1  -6.730422605216503E-1  -7.171542752815592E-1  -6.730029139518737E-1  -3.779240413233637E-2   4.893630029110091E-2  
 1.069767441860465E9    -4.803611211664977E-2   4.115777732124278E-2  -7.271974163612520E-1  -6.720789903879167E-1  -7.187497933322308E-1  -6.731153692245484E-1  -3.737218445837499E-2   4.918375503656339E-2  
