#  HZ   S   RI   R     50.0 
! Rohde & Schwarz ZVL13 2Ports - Version 3.31 - 1303.6509k13 SN: 101088
! Date: 2023-03-06 14:43:44
! Data & Calibration Information:
! Trc4:S11(TOSM) Trc2:S21(TOSM) Trc3:S12(TOSM) Trc5:S22(TOSM)
! 
! 
! 
 1.000000000000000E9    -5.474794849753381E-2   3.353986045209344E-2  -6.088175112628598E-1  -7.836199826002122E-1  -6.152329172366283E-1  -7.822369199991227E-1  -4.603816743940115E-2   3.988261961273490E-2  
 1.000750187546887E9    -5.521099410951137E-2   3.343652707426591E-2  -6.112037230118226E-1  -7.822029030323030E-1  -6.158404316510798E-1  -7.809992241859437E-1  -4.681322868913412E-2   3.980299064706315E-2  
 1.001500375093774E9    -5.295847795903683E-2   3.312756656958368E-2  -6.115797516466794E-1  -7.814438247680666E-1  -6.157079260077877E-1  -7.784750604629517E-1  -4.650415580719709E-2   3.897562774087689E-2  
 1.002250562640660E9    -5.320533666759730E-2   3.569314260133900E-2  -6.126952098544469E-1  -7.804770427942276E-1  -6.169041756593248E-1  -7.777699303627015E-1  -4.607052523642779E-2   4.014225990500805E-2  
 1.003000750187547E9    -5.451532471925022E-2   3.526262291508622E-2  -6.149170661906602E-1  -7.796902090311051E-1  -6.180055703163330E-1  -7.756609135866165E-1  -4.583693899214268E-2   4.011320262395843E-2  
 1.003750937734434E9    -5.382918559014797E-2   3.507182130188476E-2  -6.168301934913198E-1  -7.782632261514664E-1  -6.184511439890316E-1  -7.752598732709888E-1  -4.698501747101545E-2   4.038921622965603E-2  
 1.004501125281320E9    -5.392584621906282E-2   3.499703613356575E-2  -6.171819517598803E-1  -7.771006882190705E-1  -6.196295583284067E-1  -7.736405175924301E-1  -4.705566912889481E-2   4.138323330382035E-2  
 1.005251312828207E9    -5.351651042699814E-2   3.631267859036745E-2  -6.197255885146841E-1  -7.759240657091141E-1  -6.208004133932940E-1  -7.723581820726395E-1  -4.831995680928231E-2   4.062944603889199E-2  
 1.006001500375094E9    -5.364168446511031E-2   3.715343205008147E-2  -6.211200487860658E-1  -7.754594159126282E-1  -6.218633949098802E-1  -7.705942088365556E-1  -4.622416585683823E-2   4.020473772120990E-2  
 1.006751687921981E9    -5.367048788815738E-2   3.614553635490254E-2  -6.227834171001463E-1  -7.742562109231950E-1  -6.217472655967633E-1  -7.695447105169297E-1  -4.748830359429121E-2   4.098502983179224E-2  
 1.007501875468867E9    -5.241952855139971E-2   3.721390465761102E-2  -6.239799454246129E-1  -7.730493026971818E-1  -6.227802716374415E-1  -7.684647458791731E-1  -4.671801745891571E-2   4.132159788384049E-2  
 1.008252063015754E9    -5.453381627798080E-2   3.614736604332795E-2  -6.254658907969029E-1  -7.713773280382157E-1  -6.235710596888380E-1  -7.669546622037888E-1  -4.602298133075237E-2   4.088286462467258E-2  
 1.009002250562641E9    -5.374267842620611E-2   3.745993230456308E-2  -6.280278955820347E-1  -7.711605376005173E-1  -6.263411435197778E-1  -7.646946275234222E-1  -4.640264172106982E-2   4.127130693943411E-2  
 1.009752438109527E9    -5.357447236776352E-2   3.805077816903180E-2  -6.275730019993703E-1  -7.699383091926577E-1  -6.247942368418110E-1  -7.649789547920228E-1  -4.900409173220397E-2   4.210764867537740E-2  
 1.010502625656414E9    -5.344811730086804E-2   3.681958753585980E-2  -6.303004931710746E-1  -7.682929509878158E-1  -6.255037508421345E-1  -7.644840306043627E-1  -4.701294932514430E-2   4.123982133802630E-2  
 1.011252813203301E9    -5.269089389592410E-2   3.825875108244201E-2  -6.314099511031110E-1  -7.672612196207048E-1  -6.261462034087206E-1  -7.636337357759476E-1  -4.740572970360520E-2   4.161900209848846E-2  
 1.012003000750188E9    -5.286698222160340E-2   3.790636084552611E-2  -6.334342035446665E-1  -7.664851570129396E-1  -6.265777347566620E-1  -7.619945269823074E-1  -4.713635925203562E-2   4.162870473628640E-2  
 1.012753188297074E9    -5.289558239281179E-2   3.894550183526174E-2  -6.341795395293879E-1  -7.643963414430619E-1  -6.279742275119066E-1  -7.611056834459308E-1  -4.825596250593663E-2   4.196716767719824E-2  
 1.013503375843961E9    -5.339606307446956E-2   3.935802044137644E-2  -6.360683328724337E-1  -7.631248140335085E-1  -6.289761138507826E-1  -7.608441805839541E-1  -4.732299435883761E-2   4.180230483052323E-2  
 1.014253563390848E9    -5.415514368563891E-2   3.998698740580368E-2  -6.371021261400853E-1  -7.628604412078859E-1  -6.289687115541666E-1  -7.601458466053011E-1  -4.780253615230322E-2   4.264022761097295E-2  
 1.015003750937735E9    -5.498665526509285E-2   4.002847182852001E-2  -6.371190711559209E-1  -7.617953813076022E-1  -6.288881327138272E-1  -7.610131299495697E-1  -4.760278549045325E-2   4.374741766692202E-2  
 1.015753938484621E9    -5.469147842377425E-2   4.089745980613462E-2  -6.395848394751351E-1  -7.607729333639145E-1  -6.313817781764279E-1  -7.598688179254534E-1  -4.816066883504392E-2   4.226468965355174E-2  
 1.016504126031508E9    -5.403204519301653E-2   4.135448436683064E-2  -6.420877323884856E-1  -7.578774136304856E-1  -6.330528733872918E-1  -7.583214122056963E-1  -4.745962817221880E-2   4.225064130159889E-2  
 1.017254313578395E9    -5.479931406676770E-2   4.240802126262212E-2  -6.430091358341116E-1  -7.567809247970582E-1  -6.333531778020420E-1  -7.576203167438508E-1  -4.734534826129676E-2   4.218493121713036E-2  
 1.018004501125281E9    -5.458218663930894E-2   4.135816804105407E-2  -6.432044400653245E-1  -7.564268827438356E-1  -6.340724732512205E-1  -7.574157088994982E-1  -4.772378593683244E-2   4.271122209810464E-2  
 1.018754688672168E9    -5.432119764387607E-2   4.150255979072279E-2  -6.472797280205366E-1  -7.531111782789230E-1  -6.356899122363856E-1  -7.566639381647111E-1  -4.771801412105561E-2   4.283326908031632E-2  
 1.019504876219055E9    -5.338607210665942E-2   4.273920438563527E-2  -6.478169677083367E-1  -7.525087773799897E-1  -6.361540406092184E-1  -7.569831949472429E-1  -4.764782533049583E-2   4.232047767121592E-2  
 1.020255063765942E9    -5.455203179270030E-2   4.330879923066371E-2  -6.473191862866350E-1  -7.520318377017977E-1  -6.377470492757855E-1  -7.563402873277664E-1  -4.760865110903979E-2   4.405603363422926E-2  
 1.021005251312828E9    -5.439354859292508E-2   4.237100227190855E-2  -6.491111099317937E-1  -7.504620742797852E-1  -6.389018019333365E-1  -7.556284898519518E-1  -4.780192110687494E-2   4.316465415567033E-2  
 1.021755438859715E9    -5.427823465317488E-2   4.315949735471476E-2  -6.508088324013288E-1  -7.490645712614060E-1  -6.395463073501138E-1  -7.564285212755204E-1  -4.610544659197331E-2   4.262455221512632E-2  
 1.022505626406602E9    -5.442581404000521E-2   4.343411992017572E-2  -6.520787781910868E-1  -7.486571210622788E-1  -6.414347954032633E-1  -7.541823881864549E-1  -4.681479543447496E-2   4.430359631117500E-2  
 1.023255813953488E9    -5.437955852597953E-2   4.398248090006075E-2  -6.531664314628788E-1  -7.468847805261613E-1  -6.422538659221200E-1  -7.544716405868530E-1  -4.692451298236847E-2   4.443567219339491E-2  
 1.024006001500375E9    -5.375627703964711E-2   4.479148008033070E-2  -6.544368352339017E-1  -7.463306528329848E-1  -6.445902744729173E-1  -7.537104547023774E-1  -4.644810881465673E-2   4.421540837046073E-2  
 1.024756189047262E9    -5.413046982139351E-2   4.398718598931912E-2  -6.563344593150018E-1  -7.443374294042588E-1  -6.464364799603248E-1  -7.518486595153811E-1  -4.758995499461891E-2   4.481606681643587E-2  
 1.025506376594149E9    -5.447055526077747E-2   4.289637779302733E-2  -6.568985807187764E-1  -7.437557142972946E-1  -6.473571313749977E-1  -7.520258796215058E-1  -4.758264996111394E-2   4.409633794419721E-2  
 1.026256564141035E9    -5.338577490299940E-2   4.379663640186746E-2  -6.575748589137969E-1  -7.421625012159349E-1  -6.500247646639511E-1  -7.513901811838151E-1  -4.640754371881485E-2   4.513301334017519E-2  
 1.027006751687922E9    -5.409426290541887E-2   4.392488864530773E-2  -6.591172673646764E-1  -7.418832659721375E-1  -6.510673168976887E-1  -7.503610575199128E-1  -4.682498540729285E-2   4.555664495584842E-2  
 1.027756939234809E9    -5.374097865074873E-2   4.416971036813301E-2  -6.586955439117053E-1  -7.408412301540375E-1  -6.507197522819730E-1  -7.509509575366975E-1  -4.643179137259722E-2   4.661983533268439E-2  
 1.028507126781695E9    -5.476059895008803E-2   4.388646751460171E-2  -6.601826775889204E-1  -7.385589587688446E-1  -6.545461898620062E-1  -7.497434431314469E-1  -4.703318588435650E-2   4.588468924819348E-2  
 1.029257314328582E9    -5.380991607904434E-2   4.508720892570062E-2  -6.625522452653062E-1  -7.370076668262482E-1  -6.559551318413817E-1  -7.486748516559602E-1  -4.714731670916082E-2   4.638156884495528E-2  
 1.030007501875469E9    -5.334164008498193E-2   4.322646541261890E-2  -6.633785793399317E-1  -7.361190342903137E-1  -6.586215894645061E-1  -7.470360732078554E-1  -4.730539198964835E-2   4.619855655408639E-2  
 1.030757689422356E9    -5.359610013663770E-2   4.339427254743757E-2  -6.655558061411443E-1  -7.341462481021882E-1  -6.584449530566076E-1  -7.467209732532502E-1  -4.565407589077949E-2   4.572473378890076E-2  
 1.031507876969242E9    -5.463290486484766E-2   4.263976772193867E-2  -6.668827371859228E-1  -7.314046943187715E-1  -6.612242163837302E-1  -7.460774153470993E-1  -4.610190249979496E-2   4.708884910090339E-2  
 1.032258064516129E9    -5.456466153264046E-2   4.295388558079277E-2  -6.665559961722734E-1  -7.322295498847962E-1  -6.627647912894689E-1  -7.448294895887375E-1  -4.648193318396807E-2   4.642393347242911E-2  
 1.033008252063016E9    -5.434515651315451E-2   4.224534596425369E-2  -6.667945938692776E-1  -7.307774728536607E-1  -6.649107866348344E-1  -7.444638735055924E-1  -4.615541182458401E-2   4.704715353841102E-2  
 1.033758439609903E9    -5.368685826659203E-2   4.233996743176860E-2  -6.683956727811303E-1  -7.298515081405640E-1  -6.661811172250257E-1  -7.423889482021331E-1  -4.663002163171768E-2   4.672157751927357E-2  
 1.034508627156789E9    -5.486340649425985E-2   4.166531371273508E-2  -6.686200413075540E-1  -7.293111175298691E-1  -6.684948389063783E-1  -7.424388468265535E-1  -4.559003412723543E-2   4.831804572200692E-2  
 1.035258814703676E9    -5.566445522010327E-2   4.216957087197758E-2  -6.704083384117590E-1  -7.272240948677063E-1  -6.705155608064390E-1  -7.406826102733611E-1  -4.548932041972876E-2   4.822781028919288E-2  
 1.036009002250563E9    -5.533932577818632E-2   4.142713315000608E-2  -6.706336053208246E-1  -7.275981384515765E-1  -6.710597977116884E-1  -7.402608156204223E-1  -4.545568916946649E-2   4.790607321947112E-2  
 1.036759189797449E9    -5.611912135034800E-2   4.182680274054295E-2  -6.724192521478017E-1  -7.245195657014848E-1  -6.729289630942854E-1  -7.391094827651978E-1  -4.561455655843019E-2   4.908715136551740E-2  
 1.037509377344336E9    -5.509850621223449E-2   4.072740961978782E-2  -6.728635428116148E-1  -7.240823537111282E-1  -6.753493405800869E-1  -7.374082416296005E-1  -4.496397487819196E-2   4.892714838536953E-2  
 1.038259564891223E9    -5.651493534445764E-2   3.930163458134649E-2  -6.749948696651678E-1  -7.225676202774048E-1  -6.777395154000812E-1  -7.353461718559265E-1  -4.532207511365414E-2   4.920498181789009E-2  
 1.039009752438110E9    -5.649090152233839E-2   4.005913940803590E-2  -6.745913961251017E-1  -7.229045677185059E-1  -6.779867155486444E-1  -7.357334047555925E-1  -4.383029069751501E-2   4.917265934139099E-2  
 1.039759939984996E9    -5.646781418472530E-2   3.971800467535373E-2  -6.758075560458915E-1  -7.209376192092898E-1  -6.800697032678574E-1  -7.335004788637163E-1  -4.399387571960688E-2   4.959061397637295E-2  
 1.040510127531883E9    -5.638723492622376E-2   3.971043746276550E-2  -6.771933017471461E-1  -7.199576842784883E-1  -6.822735243032667E-1  -7.320897978544237E-1  -4.444709341973066E-2   5.001022961576312E-2  
 1.041260315078770E9    -5.613127000629903E-2   3.917044966576414E-2  -6.777532937719527E-1  -7.188428306579591E-1  -6.842679818218763E-1  -7.305964636802673E-1  -4.475903362035752E-2   5.011306819687518E-2  
 1.042010502625656E9    -5.773238439112902E-2   3.897849433506822E-2  -6.802985210458513E-1  -7.173123019933702E-1  -6.857281263071902E-1  -7.279341882467270E-1  -4.337931353598833E-2   5.083406255159407E-2  
 1.042760690172543E9    -5.696943815797568E-2   3.921114909849867E-2  -6.805423291545811E-1  -7.167838001251223E-1  -6.870437580621941E-1  -7.273808991909028E-1  -4.299796607345343E-2   5.081543827116433E-2  
 1.043510877719430E9    -5.788503032177688E-2   3.989226536981338E-2  -6.807891555171978E-1  -7.159089845418930E-1  -6.886663583075586E-1  -7.234157210588457E-1  -4.318312615156174E-2   5.056148818593039E-2  
 1.044261065266317E9    -5.741867505013943E-2   3.946424520382769E-2  -6.821901851836283E-1  -7.151481807231903E-1  -6.902954962867456E-1  -7.238425415754319E-1  -4.280555181205274E-2   5.175122819197085E-2  
 1.045011252813203E9    -5.682213224470615E-2   3.865785754886298E-2  -6.844864040185837E-1  -7.137573981285096E-1  -6.923718814484848E-1  -7.213715910911560E-1  -4.257633529603482E-2   5.050547255907090E-2  
 1.045761440360090E9    -5.732700742781163E-2   3.921320140759989E-2  -6.844259368393927E-1  -7.126332139968873E-1  -6.933678255756908E-1  -7.196663886308670E-1  -4.196247197687626E-2   5.184795114572608E-2  
 1.046511627906977E9    -5.785246692597866E-2   3.883264122787888E-2  -6.863463166704487E-1  -7.109240508079529E-1  -6.947787012729120E-1  -7.176670062541962E-1  -4.209175195544958E-2   5.194000474511547E-2  
 1.047261815453864E9    -5.717415984719992E-2   3.926903039111125E-2  -6.879966094737574E-1  -7.107269352674484E-1  -6.958359342808717E-1  -7.152767205238342E-1  -4.172746423631907E-2   5.085691115952858E-2  
 1.048012003000750E9    -5.840315062552691E-2   3.945159016853160E-2  -6.882184638890091E-1  -7.097820186614992E-1  -6.968332285487601E-1  -7.141108906269075E-1  -4.190940815955400E-2   5.204078336933691E-2  
 1.048762190547637E9    -5.759860921651126E-2   3.878892122262961E-2  -6.892777182783263E-1  -7.089858311414720E-1  -6.983130035346242E-1  -7.118261951208116E-1  -4.190106485038996E-2   5.099433106093034E-2  
 1.049512378094524E9    -5.716759439557791E-2   3.902657872241559E-2  -6.905685685683453E-1  -7.086529636383058E-1  -6.988824025816547E-1  -7.103653317689896E-1  -4.131629444658757E-2   5.260183600683589E-2  
 1.050262565641410E9    -5.699687905609609E-2   3.923949843185529E-2  -6.921423763960631E-1  -7.077987116575241E-1  -7.003704248770403E-1  -7.079323160648345E-1  -4.144232917577029E-2   5.187139845243173E-2  
 1.051012753188297E9    -5.776296641677620E-2   3.989487395895666E-2  -6.937094144271351E-1  -7.057264035940171E-1  -7.009280785003003E-1  -7.065551334619523E-1  -4.080534689128400E-2   5.185318092644855E-2  
 1.051762940735184E9    -5.632366430014373E-2   3.977759173997773E-2  -6.944254436226095E-1  -7.052475708723068E-1  -7.012775966917587E-1  -7.053012233972550E-1  -4.191140748560429E-2   5.242266903092115E-2  
 1.052513128282071E9    -5.615233909338714E-2   4.051107493384776E-2  -6.961476715350735E-1  -7.044395178556443E-1  -7.024446420981807E-1  -7.020584297180177E-1  -4.067028947174550E-2   5.192717310039864E-2  
 1.053263315828957E9    -5.696587000042201E-2   3.919772011901722E-2  -6.973821136261695E-1  -7.042233866453171E-1  -7.023612213492125E-1  -7.011728656291961E-1  -4.056143149733545E-2   5.173585366785025E-2  
 1.054013503375844E9    -5.615902498364447E-2   4.006821585509004E-2  -6.989956865774130E-1  -7.024028360843658E-1  -7.034653560851883E-1  -7.006674194335938E-1  -4.185436911880971E-2   5.145113710181973E-2  
 1.054763690922731E9    -5.553738296031953E-2   3.955555593092774E-2  -7.000376270514815E-1  -7.018293160200120E-1  -7.040818925946588E-1  -6.980718499422073E-1  -4.128785699605941E-2   5.177578331308258E-2  
 1.055513878469617E9    -5.537782430648805E-2   4.019162753220881E-2  -7.006310293830322E-1  -7.000515431165698E-1  -7.053748780536304E-1  -6.969168889522552E-1  -4.058377474546433E-2   5.141410227234801E-2  
 1.056264066016504E9    -5.549281641840936E-2   3.965906092180015E-2  -7.015491891908909E-1  -6.983958691358567E-1  -7.053853585244894E-1  -6.958113282918931E-1  -4.069978270679713E-2   5.165638542019890E-2  
 1.057014253563391E9    -5.470006678253414E-2   3.979455992804172E-2  -7.042782784998591E-1  -6.987064272165299E-1  -7.056113767893334E-1  -6.941661393642425E-1  -4.026001762598754E-2   5.225101903433220E-2  
 1.057764441110278E9    -5.394556358456613E-2   4.033503195533821E-2  -7.054231732724637E-1  -6.971215671300890E-1  -7.066906528228120E-1  -6.926867502927780E-1  -4.117721166461706E-2   5.253577775249313E-2  
 1.058514628657164E9    -5.462677188217641E-2   3.998711828112989E-2  -7.062890445976623E-1  -6.957490736246109E-1  -7.071833105543705E-1  -6.921603727340698E-1  -4.063611689954997E-2   5.265369260960225E-2  
 1.059264816204051E9    -5.424534484744073E-2   4.062048386741096E-2  -7.075501137366341E-1  -6.956478101015091E-1  -7.065619908160961E-1  -6.905934953689576E-1  -4.096442148089409E-2   5.243499916335381E-2  
 1.060015003750938E9    -5.334821388125420E-2   3.957668902131336E-2  -7.087719379823760E-1  -6.939747637510301E-1  -7.078957719135595E-1  -6.888891100883485E-1  -4.061300672590733E-2   5.252425226801809E-2  
 1.060765191297825E9    -5.366061516106129E-2   4.027905557291570E-2  -7.097831508206982E-1  -6.935491603612901E-1  -7.087730316950600E-1  -6.866698443889616E-1  -4.072586700320244E-2   5.188152220663719E-2  
 1.061515378844711E9    -5.389088097959757E-2   4.057473894743034E-2  -7.122386832496375E-1  -6.912784373760222E-1  -7.088541777784404E-1  -6.872464102506639E-1  -4.043190095573664E-2   5.191682016705891E-2  
 1.062265566391598E9    -5.306405317038299E-2   3.957075938203317E-2  -7.132807891484072E-1  -6.899867498874663E-1  -7.098677364232329E-1  -6.861953318119050E-1  -4.053520675748587E-2   5.242984905857331E-2  
 1.063015753938485E9    -5.216221477836371E-2   4.108120044514110E-2  -7.143867482408175E-1  -6.894918078184130E-1  -7.095996722633988E-1  -6.850866806507111E-1  -4.050961822271348E-2   5.309769410917108E-2  
 1.063765941485371E9    -5.315937329083682E-2   3.998142363785618E-2  -7.148403387737370E-1  -6.881619429588318E-1  -7.109149540787006E-1  -6.830910980701447E-1  -4.035130389034748E-2   5.262996656846224E-2  
 1.064516129032258E9    -5.245678707957269E-2   4.136824884052602E-2  -7.169703318693049E-1  -6.863928639888763E-1  -7.115256358526871E-1  -6.827214622497561E-1  -4.006519075483084E-2   5.298441274956015E-2  
 1.065266316579145E9    -5.283211551606656E-2   4.181361030396133E-2  -7.187424509799413E-1  -6.854217374324800E-1  -7.119349858952093E-1  -6.825327396392824E-1  -4.111173007637264E-2   5.193017720969945E-2  
 1.066016504126032E9    -5.021376602351667E-2   4.168308722801835E-2  -7.194509288089337E-1  -6.836420875787735E-1  -7.133259335899518E-1  -6.817221689224244E-1  -3.945761471986770E-2   5.236665619981155E-2  
 1.066766691672918E9    -5.116851944476367E-2   4.216912064197007E-2  -7.216200035045517E-1  -6.823198556900024E-1  -7.137061349512175E-1  -6.809276121854782E-1  -4.070533078163862E-2   5.222334929708592E-2  
 1.067516879219805E9    -5.141258478164673E-2   4.357255276154167E-2  -7.218887681647245E-1  -6.814563524723054E-1  -7.138824294200684E-1  -6.792008340358735E-1  -3.981632065027952E-2   5.190718936458875E-2  
 1.068267066766692E9    -5.115291107445956E-2   4.346716532369296E-2  -7.229294490563993E-1  -6.796082574129105E-1  -7.157644595244947E-1  -6.787837523221970E-1  -3.999435976147651E-2   5.212615788969362E-2  
 1.069017254313578E9    -5.076840169727803E-2   4.361765934567570E-2  -7.248569780687069E-1  -6.780939656496048E-1  -7.155611301727515E-1  -6.781989854574203E-1  -4.051929295063018E-2   5.250954939051748E-2  
 1.069767441860465E9    -5.148322690278292E-2   4.466371026057885E-2  -7.256626846825331E-1  -6.771899467706682E-1  -7.173198263019031E-1  -6.782772600650788E-1  -4.025476444512607E-2   5.283152830954953E-2  
