#  HZ   S   RI   R     50.0 
! Rohde & Schwarz ZVL13 2Ports - Version 3.31 - 1303.6509k13 SN: 101088
! Date: 2023-03-06 14:38:00
! Data & Calibration Information:
! Trc4:S11(TOSM) Trc2:S21(TOSM) Trc3:S12(TOSM) Trc5:S22(TOSM)
! 
! 
! 
 1.000000000000000E9    -5.438465908542275E-2   3.344223788922870E-2  -6.085102562254211E-1  -7.829122682809832E-1  -6.151080764567691E-1  -7.816803703904154E-1  -4.580875177681447E-2   3.989825535989017E-2  
 1.000750187546887E9    -5.472738373652102E-2   3.334804855599437E-2  -6.105882566376208E-1  -7.817740758061410E-1  -6.153553702428108E-1  -7.805431909561157E-1  -4.662895952165128E-2   3.964791056212100E-2  
 1.001500375093774E9    -5.241947502642871E-2   3.342225170112535E-2  -6.115322765775358E-1  -7.803438028097154E-1  -6.155022764090774E-1  -7.779422265291215E-1  -4.625964223966004E-2   3.917353910822758E-2  
 1.002250562640660E9    -5.256204614415766E-2   3.578999298144721E-2  -6.123335523494546E-1  -7.795590730309487E-1  -6.163416971587679E-1  -7.771773022413255E-1  -4.576314222067596E-2   4.008337271063407E-2  
 1.003000750187547E9    -5.393319700658322E-2   3.549891033879938E-2  -6.143533960635546E-1  -7.789538567066193E-1  -6.179440263967683E-1  -7.753236084580424E-1  -4.570298698544503E-2   3.988652235861406E-2  
 1.003750937734434E9    -5.339805698022247E-2   3.503239597326881E-2  -6.166983119496762E-1  -7.777003832459450E-1  -6.178912119149579E-1  -7.746113544106483E-1  -4.686336283013226E-2   4.026717763254895E-2  
 1.004501125281320E9    -5.343085579946638E-2   3.529649846181866E-2  -6.168835792411462E-1  -7.767419437766076E-1  -6.195693340580788E-1  -7.729244227409365E-1  -4.664871402084828E-2   4.133369126155979E-2  
 1.005251312828207E9    -5.289710284024479E-2   3.643903033729237E-2  -6.192650403525800E-1  -7.752698648571968E-1  -6.203633342871571E-1  -7.718917298316955E-1  -4.796949658542872E-2   4.049292115583259E-2  
 1.006001500375094E9    -5.322849750518800E-2   3.739719049574143E-2  -6.208475277526818E-1  -7.746413252353670E-1  -6.215782633727240E-1  -7.702854628562927E-1  -4.593112801760436E-2   4.016963829139376E-2  
 1.006751687921981E9    -5.325016609951855E-2   3.631288317503820E-2  -6.223513385491836E-1  -7.735349431633950E-1  -6.216457501221546E-1  -7.686995392441751E-1  -4.709459885954857E-2   4.099038685621641E-2  
 1.007501875468867E9    -5.166334511339667E-2   3.719582451533361E-2  -6.234728605108798E-1  -7.722065810561181E-1  -6.222193535230076E-1  -7.679194883108139E-1  -4.643596168980003E-2   4.111382312801058E-2  
 1.008252063015754E9    -5.385787365585566E-2   3.614140232031138E-2  -6.250245669535920E-1  -7.709837126135827E-1  -6.234146672266321E-1  -7.663827918171884E-1  -4.593219330534339E-2   4.080748359130620E-2  
 1.009002250562641E9    -5.305499776825310E-2   3.773723668422269E-2  -6.274318646559585E-1  -7.701491052508356E-1  -6.257649803028524E-1  -7.641886522769930E-1  -4.611948039010168E-2   4.107730597549077E-2  
 1.009752438109527E9    -5.315639068931342E-2   3.807974283264705E-2  -6.269269559920079E-1  -7.693677929043771E-1  -6.241856404201258E-1  -7.645507836937906E-1  -4.874492632225157E-2   4.197182423891480E-2  
 1.010502625656414E9    -5.282851856201887E-2   3.689894891199286E-2  -6.295200621801147E-1  -7.676842197179795E-1  -6.251697559678032E-1  -7.637764850854876E-1  -4.680764390900731E-2   4.112447976791728E-2  
 1.011252813203301E9    -5.207470507174732E-2   3.823048139627355E-2  -6.308783645153278E-1  -7.665151727795602E-1  -6.258814315636379E-1  -7.629910003542900E-1  -4.721047475561500E-2   4.158822386750483E-2  
 1.012003000750188E9    -5.228745995834470E-2   3.804418711814315E-2  -6.331311904649055E-1  -7.655662106275560E-1  -6.265946674399958E-1  -7.614900965690614E-1  -4.693809499219061E-2   4.160027694700174E-2  
 1.012753188297074E9    -5.224732159823180E-2   3.913439182537472E-2  -6.335626619539346E-1  -7.636664706468584E-1  -6.278660693857245E-1  -7.609016353487970E-1  -4.792124759033323E-2   4.185199462464549E-2  
 1.013503375843961E9    -5.282024312764407E-2   3.928200862397158E-2  -6.353708911892126E-1  -7.626946434378625E-1  -6.287721423901098E-1  -7.600833502411842E-1  -4.710908599197866E-2   4.141504165488311E-2  
 1.014253563390848E9    -5.340658238902688E-2   4.025451985367948E-2  -6.368199335600431E-1  -7.618988468050957E-1  -6.284153375329178E-1  -7.596654487252237E-1  -4.762631181627514E-2   4.235875677067061E-2  
 1.015003750937735E9    -5.429814399778843E-2   3.981791704653308E-2  -6.368588213573661E-1  -7.611773379445076E-1  -6.286890630880985E-1  -7.601846713423730E-1  -4.760593384876848E-2   4.348706585258840E-2  
 1.015753938484621E9    -5.407802398502828E-2   4.092972592127089E-2  -6.395221460364837E-1  -7.597076532840730E-1  -6.309721169849817E-1  -7.594119309782983E-1  -4.787068787217140E-2   4.201389658148345E-2  
 1.016504126031508E9    -5.334602702781559E-2   4.138598412903634E-2  -6.415593531519007E-1  -7.570834987759592E-1  -6.328312101974457E-1  -7.575638282895090E-1  -4.736246970668435E-2   4.212911129962840E-2  
 1.017254313578395E9    -5.408095575869084E-2   4.250865090533378E-2  -6.423113921894811E-1  -7.563666304349900E-1  -6.328127192048573E-1  -7.569916830658914E-1  -4.714375201985241E-2   4.198285378963818E-2  
 1.018004501125281E9    -5.396499530971052E-2   4.141780796361598E-2  -6.427043618936454E-1  -7.555461097955705E-1  -6.338190129946016E-1  -7.568110343813898E-1  -4.732449932768942E-2   4.247374285853335E-2  
 1.018754688672168E9    -5.363316117599607E-2   4.158713596097013E-2  -6.469650417549258E-1  -7.522719880938531E-1  -6.352529081216131E-1  -7.560907502770425E-1  -4.759839284420015E-2   4.256186589066850E-2  
 1.019504876219055E9    -5.281669748947026E-2   4.275348950206960E-2  -6.474591856266998E-1  -7.516734692454339E-1  -6.358026844810863E-1  -7.561895783543586E-1  -4.730180004239083E-2   4.190918570403657E-2  
 1.020255063765942E9    -5.396730527281762E-2   4.333000636395280E-2  -6.469723467638500E-1  -7.512314305901529E-1  -6.373626127597432E-1  -7.556072324514390E-1  -4.742224941402674E-2   4.399345425240748E-2  
 1.021005251312828E9    -5.383187667652965E-2   4.239226899971952E-2  -6.487997373002491E-1  -7.493921622037889E-1  -6.383760079837388E-1  -7.548343691229822E-1  -4.768378788605333E-2   4.299411847755352E-2  
 1.021755438859715E9    -5.361229883506895E-2   4.321239348737860E-2  -6.503828745112031E-1  -7.483633087277413E-1  -6.394806403474747E-1  -7.559129412174227E-1  -4.567765345796943E-2   4.246696401790817E-2  
 1.022505626406602E9    -5.384934864565730E-2   4.352390055532265E-2  -6.517963014646543E-1  -7.483102931976319E-1  -6.408615617334614E-1  -7.536698331832885E-1  -4.658079429343344E-2   4.407230180042595E-2  
 1.023255813953488E9    -5.379701212421060E-2   4.412289569798986E-2  -6.524482790960073E-1  -7.461357288360595E-1  -6.419681397007855E-1  -7.537197355031969E-1  -4.671036363765597E-2   4.418870327398198E-2  
 1.024006001500375E9    -5.337167109176517E-2   4.487265968324779E-2  -6.541799982249111E-1  -7.455749779343606E-1  -6.441313564264425E-1  -7.529367217421534E-1  -4.626004908233881E-2   4.403333693675531E-2  
 1.024756189047262E9    -5.343291142582894E-2   4.392830835930187E-2  -6.559964914993404E-1  -7.432745048999787E-1  -6.458455598708909E-1  -7.515020241737368E-1  -4.737823732197285E-2   4.469712079576596E-2  
 1.025506376594149E9    -5.388975868746638E-2   4.312636510308312E-2  -6.565750697208700E-1  -7.428763288259508E-1  -6.469631689207611E-1  -7.514410175681117E-1  -4.735048025473954E-2   4.395562363939854E-2  
 1.026256564141035E9    -5.308686091750861E-2   4.392814222373631E-2  -6.574425911150246E-1  -7.417242330312728E-1  -6.497269329405084E-1  -7.506119815111162E-1  -4.629228723794223E-2   4.488243607148330E-2  
 1.027006751687922E9    -5.351924797147514E-2   4.412085487579179E-2  -6.588414229427942E-1  -7.414017798900604E-1  -6.506080733917525E-1  -7.498144949674606E-1  -4.644581236317755E-2   4.526500341554791E-2  
 1.027756939234809E9    -5.340310638770462E-2   4.434774365269067E-2  -6.584172164163841E-1  -7.402637027502061E-1  -6.507330352034711E-1  -7.501173738241196E-1  -4.606269494816662E-2   4.641763152609971E-2  
 1.028507126781695E9    -5.423295416310430E-2   4.389625706909760E-2  -6.598884130784039E-1  -7.377218226194382E-1  -6.539234822453161E-1  -7.493325173258784E-1  -4.664549310505391E-2   4.562602732200408E-2  
 1.029257314328582E9    -5.329727707803249E-2   4.520172805080035E-2  -6.621225830985338E-1  -7.364042372107506E-1  -6.555942689204460E-1  -7.479775024652480E-1  -4.678464505821466E-2   4.623578781068512E-2  
 1.030007501875469E9    -5.296071134135127E-2   4.338735760236135E-2  -6.629300547583507E-1  -7.354618213176729E-1  -6.585660372151692E-1  -7.459711917042733E-1  -4.709724404290318E-2   4.601810943968782E-2  
 1.030757689422356E9    -5.326515762880445E-2   4.339752172323309E-2  -6.650413467913093E-1  -7.336195918917658E-1  -6.580754203082753E-1  -7.458437373042108E-1  -4.531216074153781E-2   4.535674611842533E-2  
 1.031507876969242E9    -5.408002164587380E-2   4.293777514932243E-2  -6.664649113650846E-1  -7.307906785607337E-1  -6.609670246476953E-1  -7.455921160578729E-1  -4.586382192373276E-2   4.688764953058317E-2  
 1.032258064516129E9    -5.417563487589359E-2   4.290670527970522E-2  -6.661604578427626E-1  -7.313671674132348E-1  -6.628477882642108E-1  -7.441111648082736E-1  -4.621293208748103E-2   4.641672711570687E-2  
 1.033008252063016E9    -5.402846348285675E-2   4.210635037050578E-2  -6.660529525476084E-1  -7.300575316548348E-1  -6.648613186874649E-1  -7.441497356891631E-1  -4.580224065482617E-2   4.723248128054008E-2  
 1.033758439609903E9    -5.318979592248799E-2   4.254830541920866E-2  -6.681046325070480E-1  -7.292981925606727E-1  -6.656851522850014E-1  -7.417125451564790E-1  -4.649676783010364E-2   4.646985366688040E-2  
 1.034508627156789E9    -5.461248398199679E-2   4.212297927396218E-2  -6.682442320367713E-1  -7.286838786602021E-1  -6.679801030353431E-1  -7.417138164043426E-1  -4.538591169565917E-2   4.822308755769183E-2  
 1.035258814703676E9    -5.502880076318979E-2   4.226560074195879E-2  -6.698067541083540E-1  -7.268273301720619E-1  -6.699239924806448E-1  -7.405298551917077E-1  -4.545348426327110E-2   4.807711900838993E-2  
 1.036009002250563E9    -5.493684934452176E-2   4.146867134462213E-2  -6.704215117161440E-1  -7.263588669300081E-1  -6.706448817032900E-1  -7.397449780106545E-1  -4.521054416894914E-2   4.814697851277848E-2  
 1.036759189797449E9    -5.578415908291936E-2   4.193875430262224E-2  -6.723328533317028E-1  -7.234854964613916E-1  -6.727991522988072E-1  -7.386987509727480E-1  -4.568388944491744E-2   4.905032251731620E-2  
 1.037509377344336E9    -5.486553376168013E-2   4.106303085806336E-2  -6.724219219661829E-1  -7.234025002717973E-1  -6.747964617894242E-1  -7.369585641026497E-1  -4.469406195357443E-2   4.891714241911426E-2  
 1.038259564891223E9    -5.573070910200477E-2   3.942543887626882E-2  -6.739644837301554E-1  -7.220688806176185E-1  -6.764343088499958E-1  -7.354697070121766E-1  -4.488856660947204E-2   4.933834626773219E-2  
 1.039009752438110E9    -5.637520566582681E-2   4.000141381408005E-2  -6.745098573420769E-1  -7.213453618288042E-1  -6.780387706912107E-1  -7.347035798430445E-1  -4.383214394748211E-2   4.935036332077538E-2  
 1.039759939984996E9    -5.624598451703788E-2   3.973943139630183E-2  -6.757826905806391E-1  -7.201433076262473E-1  -6.803053885226602E-1  -7.328437110185624E-1  -4.398503318428994E-2   4.951967655608251E-2  
 1.040510127531883E9    -5.592255966737867E-2   3.982227569317923E-2  -6.772197984861570E-1  -7.190838336348534E-1  -6.815191521055405E-1  -7.313798663616180E-1  -4.435550488159061E-2   4.982800134819761E-2  
 1.041260315078770E9    -5.578541581705213E-2   3.949334288150622E-2  -6.775790589629201E-1  -7.182359386086465E-1  -6.839054452594162E-1  -7.299666808843615E-1  -4.465576463565230E-2   5.008960635578704E-2  
 1.042010502625656E9    -5.745570383220912E-2   3.911393214893519E-2  -6.797058689581792E-1  -7.168592982888223E-1  -6.850704773232050E-1  -7.272661132812499E-1  -4.314227892458440E-2   5.081666336233853E-2  
 1.042760690172543E9    -5.658153097331525E-2   3.947968674965510E-2  -6.799748896688704E-1  -7.162043076157572E-1  -6.865985075676581E-1  -7.268383365273476E-1  -4.258089190721513E-2   5.098186437628471E-2  
 1.043510877719430E9    -5.747532064840197E-2   4.011013783613018E-2  -6.802143063654734E-1  -7.151464545726776E-1  -6.882127887968577E-1  -7.229767304658890E-1  -4.275177216157318E-2   5.063416480422846E-2  
 1.044261065266317E9    -5.722349154204132E-2   3.968694755694957E-2  -6.819357874495976E-1  -7.142255805730821E-1  -6.900662973906316E-1  -7.225479164719582E-1  -4.257860156148671E-2   5.179420986428397E-2  
 1.045011252813203E9    -5.641543044894933E-2   3.869930543440088E-2  -6.837057137076180E-1  -7.130531723499298E-1  -6.918506594315087E-1  -7.208951891660692E-1  -4.242840712517500E-2   5.053303107750710E-2  
 1.045761440360090E9    -5.711013801768423E-2   3.935838100264378E-2  -6.838691200126202E-1  -7.119993328452110E-1  -6.926159878476949E-1  -7.191935095191001E-1  -4.170788807049394E-2   5.171231797148904E-2  
 1.046511627906977E9    -5.784438158944250E-2   3.889514403905348E-2  -6.859813663751471E-1  -7.103320293426515E-1  -6.946346262554382E-1  -7.168660908341408E-1  -4.182454313710333E-2   5.202703820492907E-2  
 1.047261815453864E9    -5.685156531259418E-2   3.937851488367555E-2  -6.875248911380917E-1  -7.100945554971695E-1  -6.955274644417123E-1  -7.143969529867172E-1  -4.149579470977187E-2   5.093202144414710E-2  
 1.048012003000750E9    -5.808602011203766E-2   3.973529517229180E-2  -6.876168699904155E-1  -7.088834332227708E-1  -6.962693932245265E-1  -7.135559076070787E-1  -4.164446325972677E-2   5.211688370434085E-2  
 1.048762190547637E9    -5.733218640834094E-2   3.883466430690422E-2  -6.888920756558200E-1  -7.083588305711748E-1  -6.979182155980044E-1  -7.116093670725823E-1  -4.177195577323437E-2   5.091990490931422E-2  
 1.049512378094524E9    -5.694234997034074E-2   3.929400177593972E-2  -6.901821667601431E-1  -7.076965668201448E-1  -6.986092004668946E-1  -7.095083691477777E-1  -4.119441408663989E-2   5.266878160010081E-2  
 1.050262565641410E9    -5.693346640467645E-2   3.934864642664578E-2  -6.918465947338662E-1  -7.071434849500656E-1  -7.000820053315303E-1  -7.074057330489157E-1  -4.117702271789313E-2   5.203560839792597E-2  
 1.051012753188297E9    -5.753983892872931E-2   3.999535128248837E-2  -6.929413574462345E-1  -7.051463979482652E-1  -7.005178131497487E-1  -7.061896067261697E-1  -4.050677186995745E-2   5.168681043553740E-2  
 1.051762940735184E9    -5.615512217208744E-2   3.984759015700681E-2  -6.937223786269662E-1  -7.046892123222351E-1  -7.011238347252375E-1  -7.047063987255098E-1  -4.155263032019139E-2   5.244076198444937E-2  
 1.052513128282071E9    -5.603307818248868E-2   4.068666390758955E-2  -6.957814693424697E-1  -7.037617211341860E-1  -7.019930993315280E-1  -7.014278856515885E-1  -4.044442029669881E-2   5.184509499406589E-2  
 1.053263315828957E9    -5.664323060214520E-2   3.938364814142892E-2  -6.969866482609300E-1  -7.035986906290055E-1  -7.018248852186012E-1  -7.002482142448426E-1  -4.022195385769010E-2   5.184030656874861E-2  
 1.054013503375844E9    -5.600113128870727E-2   4.029251492545929E-2  -6.985355460583446E-1  -7.017823686599731E-1  -7.033020090739733E-1  -6.999602037668227E-1  -4.155721800774336E-2   5.146424193177135E-2  
 1.054763690922731E9    -5.539073211327197E-2   3.969213356092756E-2  -6.997453435897195E-1  -7.011331265568733E-1  -7.036737347266078E-1  -6.973326539993288E-1  -4.094704262539745E-2   5.180289280624945E-2  
 1.055513878469617E9    -5.507217718660831E-2   4.045634554985775E-2  -7.001007182704171E-1  -6.995697591900826E-1  -7.049050578443648E-1  -6.961447226405144E-1  -4.037682758644224E-2   5.142359493784400E-2  
 1.056264066016504E9    -5.536846956610680E-2   3.962968500671581E-2  -7.012692374612182E-1  -6.977937492728235E-1  -7.048290071506153E-1  -6.951552961468699E-1  -4.044846078380943E-2   5.173517317637943E-2  
 1.057014253563391E9    -5.450980237498881E-2   3.988481141934233E-2  -7.041047648172010E-1  -6.977608002424242E-1  -7.050440385708394E-1  -6.932869486808777E-1  -4.005768717080355E-2   5.242331583623453E-2  
 1.057764441110278E9    -5.349953256919980E-2   4.029085302243239E-2  -7.053553395255285E-1  -6.957252117991448E-1  -7.070881655349656E-1  -6.914175205826759E-1  -4.080174392089248E-2   5.245913499917072E-2  
 1.058514628657164E9    -5.440488811954856E-2   3.992809979168054E-2  -7.051119146600519E-1  -6.956554274559023E-1  -7.064368216418021E-1  -6.918073809742927E-1  -4.042025397717953E-2   5.248836371417662E-2  
 1.059264816204051E9    -5.404454048350454E-2   4.066944218429432E-2  -7.070162102261239E-1  -6.950020677447318E-1  -7.059978769117816E-1  -6.904025065302849E-1  -4.067470364645124E-2   5.247809525210119E-2  
 1.060015003750938E9    -5.317762587219477E-2   3.958513974305738E-2  -7.083385335049378E-1  -6.936394492387771E-1  -7.075299621288818E-1  -6.882413153648377E-1  -4.023290617018938E-2   5.252859775016377E-2  
 1.060765191297825E9    -5.339153649285437E-2   4.015662598963257E-2  -7.094211412462762E-1  -6.929902027249337E-1  -7.085693974274949E-1  -6.864331505894662E-1  -4.033437198027969E-2   5.188416302559205E-2  
 1.061515378844711E9    -5.343300866708160E-2   4.054212855094638E-2  -7.113205834650321E-1  -6.907272177934647E-1  -7.086280530742450E-1  -6.868644843697550E-1  -4.024717226997018E-2   5.198942060747747E-2  
 1.062265566391598E9    -5.280667999014259E-2   3.966234845859679E-2  -7.126666118408847E-1  -6.890751273036002E-1  -7.094112544327429E-1  -6.856896453499795E-1  -4.011571977287531E-2   5.239580557992288E-2  
 1.063015753938485E9    -5.187436737492682E-2   4.091432444038738E-2  -7.136686384906145E-1  -6.887227127552033E-1  -7.095460938648868E-1  -6.839634727835656E-1  -4.012528038397431E-2   5.305246151230807E-2  
 1.063765941485371E9    -5.280771838128568E-2   4.001727923820170E-2  -7.147891673573764E-1  -6.873959351778031E-1  -7.104672530697639E-1  -6.825477582812312E-1  -3.986843908205629E-2   5.256262525567250E-2  
 1.064516129032258E9    -5.209194621816277E-2   4.102566834396511E-2  -7.167000449206270E-1  -6.858131275177003E-1  -7.108507021038936E-1  -6.820839712023735E-1  -3.973694340884687E-2   5.291141575028741E-2  
 1.065266316579145E9    -5.257861280441284E-2   4.161283687912658E-2  -7.183217879443884E-1  -6.847947812676430E-1  -7.112996154320050E-1  -6.815445136427881E-1  -4.057791930437089E-2   5.201940241963630E-2  
 1.066016504126032E9    -4.978796790167691E-2   4.167155263301421E-2  -7.186893495511565E-1  -6.831399711966516E-1  -7.126112078390370E-1  -6.809815457463264E-1  -3.925407759100199E-2   5.209207483810579E-2  
 1.066766691672918E9    -5.072558215260507E-2   4.190429176396333E-2  -7.208734777959595E-1  -6.819588569402694E-1  -7.131950653961363E-1  -6.801405792832374E-1  -4.027391035109759E-2   5.210233138606144E-2  
 1.067516879219805E9    -5.104012136533857E-2   4.335935412285431E-2  -7.214610130491087E-1  -6.808131758570671E-1  -7.133117578468989E-1  -6.790290675759315E-1  -3.940005911141634E-2   5.180564713882739E-2  
 1.068267066766692E9    -5.084336415305735E-2   4.334537388298917E-2  -7.224660464998343E-1  -6.786302732825281E-1  -7.150822476095365E-1  -6.782355781197549E-1  -3.967451200634242E-2   5.216747864499669E-2  
 1.069017254313578E9    -5.036538681760432E-2   4.372712970625748E-2  -7.244578045137499E-1  -6.772947680354119E-1  -7.149377324743405E-1  -6.773758567571639E-1  -4.020387857407332E-2   5.230763109955192E-2  
 1.069767441860465E9    -5.094075006991625E-2   4.460246483879974E-2  -7.251994707733627E-1  -6.765091531276704E-1  -7.167430806693861E-1  -6.777266586422921E-1  -3.992494331300260E-2   5.276662409050011E-2  
