#  HZ   S   RI   R     50.0 
! Rohde & Schwarz ZVL13 2Ports - Version 3.31 - 1303.6509k13 SN: 101088
! Date: 2023-03-06 14:36:43
! Data & Calibration Information:
! Trc4:S11(TOSM) Trc2:S21(TOSM) Trc3:S12(TOSM) Trc5:S22(TOSM)
! 
! 
! 
 1.000000000000000E9    -5.410402264446020E-2   3.345097955139529E-2  -6.088784744214467E-1  -7.827080595493317E-1  -6.149874817183220E-1  -7.809868842363358E-1  -4.580823291093112E-2   3.986427610453004E-2  
 1.000750187546887E9    -5.441231362521649E-2   3.339586078575176E-2  -6.110145656004639E-1  -7.812910705804825E-1  -6.153765110461916E-1  -7.798978567123414E-1  -4.636128656566144E-2   3.971711259016016E-2  
 1.001500375093774E9    -5.219262208789587E-2   3.335184469578691E-2  -6.116821235776924E-1  -7.804367208480836E-1  -6.155977275332339E-1  -7.773738735914231E-1  -4.642708174884319E-2   3.893266672051957E-2  
 1.002250562640660E9    -5.241084866225720E-2   3.572907395092756E-2  -6.123966229513755E-1  -7.795289295911791E-1  -6.163948768706360E-1  -7.765446990728379E-1  -4.568646792322399E-2   4.003773840755521E-2  
 1.003000750187547E9    -5.358000181615353E-2   3.521255507490819E-2  -6.144760277614323E-1  -7.786968815326691E-1  -6.179933353046863E-1  -7.747729474306107E-1  -4.553776152431965E-2   3.969609776651209E-2  
 1.003750937734434E9    -5.295781776309014E-2   3.507825810307700E-2  -6.167118498921674E-1  -7.774912786483765E-1  -6.179183111945413E-1  -7.738900542259216E-1  -4.659709330648184E-2   4.024644606943032E-2  
 1.004501125281320E9    -5.317410215735436E-2   3.500250122870034E-2  -6.170784917259554E-1  -7.764114284515382E-1  -6.192749854981772E-1  -7.726115906238558E-1  -4.668941348791123E-2   4.112678038251449E-2  
 1.005251312828207E9    -5.261957895010710E-2   3.636351358759987E-2  -6.197154314779382E-1  -7.752196657657625E-1  -6.204264046891174E-1  -7.713780659437179E-1  -4.788882158696652E-2   4.062680329539285E-2  
 1.006001500375094E9    -5.284878753125668E-2   3.715937530550172E-2  -6.211895234973823E-1  -7.745304924249650E-1  -6.216500479521451E-1  -7.697200620174409E-1  -4.586716502904892E-2   4.003174772358800E-2  
 1.006751687921981E9    -5.275684446096421E-2   3.609110590529248E-2  -6.224259745799988E-1  -7.734847646951677E-1  -6.213425112330500E-1  -7.682375556230545E-1  -4.715911872684956E-2   4.100563364162703E-2  
 1.007501875468867E9    -5.166501380503177E-2   3.719409540721478E-2  -6.237088052445274E-1  -7.718485134840011E-1  -6.221524944418261E-1  -7.673103576898577E-1  -4.642069663852454E-2   4.116605743922242E-2  
 1.008252063015754E9    -5.368576589971782E-2   3.613753590314617E-2  -6.252693712999187E-1  -7.702045148611070E-1  -6.231593051357638E-1  -7.660836857557295E-1  -4.580600216984749E-2   4.087103120764173E-2  
 1.009002250562641E9    -5.284560773521663E-2   3.773302833371263E-2  -6.276303487677555E-1  -7.699503529071807E-1  -6.259532945035279E-1  -7.635598224401473E-1  -4.615124218165875E-2   4.103077527683911E-2  
 1.009752438109527E9    -5.269314210861922E-2   3.819826474920525E-2  -6.270867149415249E-1  -7.688783240318299E-1  -6.243868013331076E-1  -7.639299082756044E-1  -4.867995128035545E-2   4.189867613355118E-2  
 1.010502625656414E9    -5.248280540108681E-2   3.688700420717860E-2  -6.298983149780684E-1  -7.672788166999818E-1  -6.251367567698630E-1  -7.634974378347397E-1  -4.676600020378828E-2   4.118749481647355E-2  
 1.011252813203301E9    -5.177229609340430E-2   3.843048590454892E-2  -6.312613967220591E-1  -7.664249181747437E-1  -6.258547001626248E-1  -7.625320458412171E-1  -4.723320759832860E-2   4.173513555599378E-2  
 1.012003000750188E9    -5.201263029128313E-2   3.810684295200167E-2  -6.331114782561607E-1  -7.653415948152543E-1  -6.264234009597426E-1  -7.612180274724960E-1  -4.680736683309079E-2   4.137376344724111E-2  
 1.012753188297074E9    -5.214416094124318E-2   3.892875016053488E-2  -6.339747225499541E-1  -7.633661162853243E-1  -6.273267161314793E-1  -7.603300780057908E-1  -4.799287989735604E-2   4.178445868178753E-2  
 1.013503375843961E9    -5.260104328393937E-2   3.932970805452693E-2  -6.354917426152822E-1  -7.624765253067016E-1  -6.286679422738668E-1  -7.596643334627151E-1  -4.702086176723242E-2   4.146575115787976E-2  
 1.014253563390848E9    -5.311337776482106E-2   4.024653095106361E-2  -6.369324189986384E-1  -7.615051221847535E-1  -6.287112130015534E-1  -7.591078710556031E-1  -4.751702018082142E-2   4.248563006837482E-2  
 1.015003750937735E9    -5.401222359389066E-2   3.995411639217870E-2  -6.371280576507916E-1  -7.607537430524827E-1  -6.285875223860021E-1  -7.596639186143877E-1  -4.737721569836140E-2   4.334379446353257E-2  
 1.015753938484621E9    -5.386980462819339E-2   4.101484860276632E-2  -6.389979497817786E-1  -7.600629305839538E-1  -6.307559389601900E-1  -7.592336505651474E-1  -4.794628169387580E-2   4.200967372921631E-2  
 1.016504126031508E9    -5.310357294976711E-2   4.145035886807046E-2  -6.419595004208429E-1  -7.569529938697814E-1  -6.326300520826828E-1  -7.571232032775880E-1  -4.735311899334194E-2   4.207126163805795E-2  
 1.017254313578395E9    -5.372894208878280E-2   4.233638777718000E-2  -6.432183455677388E-1  -7.552114915847780E-1  -6.331648495743643E-1  -7.562869799137116E-1  -4.700335830450058E-2   4.177895781392488E-2  
 1.018004501125281E9    -5.347653210163118E-2   4.129724853909888E-2  -6.427037630107877E-1  -7.554965656995774E-1  -6.336168412975135E-1  -7.562185394763948E-1  -4.732981130480768E-2   4.240742465447318E-2  
 1.018754688672168E9    -5.342217829078436E-2   4.163490782234206E-2  -6.469236610064850E-1  -7.517175090312958E-1  -6.351627763694623E-1  -7.559159809350967E-1  -4.753281097859144E-2   4.252183414093898E-2  
 1.019504876219055E9    -5.243908818811180E-2   4.279347300855175E-2  -6.476291650504187E-1  -7.514715296030046E-1  -6.359133787654009E-1  -7.560513001680376E-1  -4.718589387834073E-2   4.208426234465497E-2  
 1.020255063765942E9    -5.365458007901906E-2   4.343327107120942E-2  -6.468636745710357E-1  -7.508108752965927E-1  -6.372904224381839E-1  -7.551059883832932E-1  -4.727447163313627E-2   4.389496626643984E-2  
 1.021005251312828E9    -5.355786144733430E-2   4.237510284982273E-2  -6.487887479809327E-1  -7.492886823415759E-1  -6.385381011415489E-1  -7.541911280155181E-1  -4.759677845984698E-2   4.285693446171254E-2  
 1.021755438859715E9    -5.331348974257708E-2   4.333083140367902E-2  -6.505988566624622E-1  -7.481698757410049E-1  -6.395264424831769E-1  -7.552846986055375E-1  -4.579197149723769E-2   4.242415804436683E-2  
 1.022505626406602E9    -5.367164667695761E-2   4.350884904052634E-2  -6.517868302846199E-1  -7.480339086055755E-1  -6.410693227255343E-1  -7.529166811704635E-1  -4.652942840009929E-2   4.409171263163265E-2  
 1.023255813953488E9    -5.362729124724866E-2   4.417275950232086E-2  -6.527031568635070E-1  -7.459510838985444E-1  -6.418858285504646E-1  -7.533035796880723E-1  -4.669896610081196E-2   4.424735049357611E-2  
 1.024006001500375E9    -5.285723056644202E-2   4.520689346007678E-2  -6.544400700273954E-1  -7.454384708404540E-1  -6.442427448283842E-1  -7.523889815807343E-1  -4.610522650182248E-2   4.394452798821565E-2  
 1.024756189047262E9    -5.328754629939796E-2   4.399850552524464E-2  -6.559620847965162E-1  -7.431024408340454E-1  -6.456210983581245E-1  -7.509847193956376E-1  -4.720247428864241E-2   4.468966165476108E-2  
 1.025506376594149E9    -5.362792007625104E-2   4.310272113484884E-2  -6.569180095447662E-1  -7.425308132171632E-1  -6.469834870403058E-1  -7.507141482830049E-1  -4.734824769198895E-2   4.381792759168929E-2  
 1.026256564141035E9    -5.279211770743131E-2   4.395244198804479E-2  -6.576575096885176E-1  -7.412783235311511E-1  -6.499368256643615E-1  -7.502248233556746E-1  -4.605635471642017E-2   4.491246318815593E-2  
 1.027006751687922E9    -5.325362782925368E-2   4.406542729355059E-2  -6.588476895373858E-1  -7.409443920850756E-1  -6.507413585826922E-1  -7.491422724723816E-1  -4.647488832473755E-2   4.510093915699353E-2  
 1.027756939234809E9    -5.314376525580884E-2   4.435511143909590E-2  -6.583981588582846E-1  -7.396018177270890E-1  -6.505143346649505E-1  -7.498122429847718E-1  -4.606835618615151E-2   4.654741154405186E-2  
 1.028507126781695E9    -5.400120113044978E-2   4.417530409386721E-2  -6.597903629051034E-1  -7.374152404069900E-1  -6.538805603080595E-1  -7.488254880905153E-1  -4.659770969301462E-2   4.566907703668195E-2  
 1.029257314328582E9    -5.302561972290278E-2   4.527139445682414E-2  -6.620484011154271E-1  -7.361323142051698E-1  -6.556936986517852E-1  -7.472597384452819E-1  -4.664532136172057E-2   4.622656240179950E-2  
 1.030007501875469E9    -5.285734027624131E-2   4.314754945263989E-2  -6.631648642185221E-1  -7.349495249986648E-1  -6.583474055094082E-1  -7.455994671583177E-1  -4.711535334587097E-2   4.596124552427787E-2  
 1.030757689422356E9    -5.300359129905701E-2   4.353387600179015E-2  -6.650449225601768E-1  -7.332980066537858E-1  -6.580206504068550E-1  -7.451573371887208E-1  -4.507948603481055E-2   4.541862048844988E-2  
 1.031507876969242E9    -5.400790788233281E-2   4.292016113342858E-2  -6.665751426335662E-1  -7.302761822938921E-1  -6.610260262478249E-1  -7.449528008699419E-1  -4.556004617363215E-2   4.682779464191374E-2  
 1.032258064516129E9    -5.371986582875253E-2   4.285268234756966E-2  -6.664639445595560E-1  -7.310175991058349E-1  -6.626451957383996E-1  -7.434300702810287E-1  -4.613222841173410E-2   4.645967966621623E-2  
 1.033008252063016E9    -5.386807911098004E-2   4.225814316289760E-2  -6.663461862186807E-1  -7.294528216123581E-1  -6.649147290784156E-1  -7.432387930154801E-1  -4.577298697084189E-2   4.706635016681405E-2  
 1.033758439609903E9    -5.294647447764873E-2   4.243609263755953E-2  -6.680812063130769E-1  -7.286116605997087E-1  -6.657099508821462E-1  -7.413433134555819E-1  -4.639698032289744E-2   4.646860022888356E-2  
 1.034508627156789E9    -5.417738255113364E-2   4.197803671814587E-2  -6.683009309727528E-1  -7.283436489105224E-1  -6.681275887584800E-1  -7.410725229978562E-1  -4.528995037078858E-2   4.830154653482101E-2  
 1.035258814703676E9    -5.485848352313043E-2   4.231831727914406E-2  -6.703217841426750E-1  -7.262553465366364E-1  -6.700605097592407E-1  -7.395912730693819E-1  -4.513910062611104E-2   4.802089756738272E-2  
 1.036009002250563E9    -5.485503077507020E-2   4.148703794738883E-2  -6.703630830621049E-1  -7.263245534896851E-1  -6.706107232787463E-1  -7.386646497249604E-1  -4.498201332986355E-2   4.791951723695599E-2  
 1.036759189797449E9    -5.544346205890179E-2   4.203044136087060E-2  -6.724297769535035E-1  -7.231405466794968E-1  -6.724782325175516E-1  -7.381093531847003E-1  -4.525346104055642E-2   4.896497008100836E-2  
 1.037509377344336E9    -5.453574381768704E-2   4.091522001494236E-2  -6.726005490089906E-1  -7.231077283620836E-1  -6.747518184465993E-1  -7.364701634645463E-1  -4.448836542665959E-2   4.888123422134387E-2  
 1.038259564891223E9    -5.593842882663012E-2   3.941105610559670E-2  -6.750456232454515E-1  -7.206905251741410E-1  -6.778482781409235E-1  -7.342597615718842E-1  -4.496941421180964E-2   4.919213129353448E-2  
 1.039009752438110E9    -5.620574627071619E-2   4.037700391419154E-2  -6.741866202061083E-1  -7.221251511573793E-1  -6.778938053002094E-1  -7.340321516990662E-1  -4.303361736238004E-2   4.927752110552103E-2  
 1.039759939984996E9    -5.593607682734730E-2   3.975633510014000E-2  -6.754842661270311E-1  -7.205125063657761E-1  -6.799607226352189E-1  -7.327984338998796E-1  -4.343814179301262E-2   4.950431096925588E-2  
 1.040510127531883E9    -5.565888274461031E-2   3.985756422725222E-2  -6.770148839734210E-1  -7.185012173652650E-1  -6.815663112044543E-1  -7.308157891035081E-1  -4.401422977447510E-2   4.981837326354063E-2  
 1.041260315078770E9    -5.579971250146629E-2   3.951970829351040E-2  -6.779049456655998E-1  -7.178873294591904E-1  -6.842588538523933E-1  -7.294479256868363E-1  -4.437042012810707E-2   5.010724767024387E-2  
 1.042010502625656E9    -5.705225255340337E-2   3.908400133283094E-2  -6.798962719349847E-1  -7.166133046150206E-1  -6.847954185975237E-1  -7.275041097402573E-1  -4.295805074274539E-2   5.073130095181229E-2  
 1.042760690172543E9    -5.645735591650010E-2   3.948140467385299E-2  -6.798786424242064E-1  -7.161120283603669E-1  -6.864791836776210E-1  -7.263387405872345E-1  -4.239259660243989E-2   5.058319239879738E-2  
 1.043510877719430E9    -5.735383588820697E-2   4.018582540945091E-2  -6.805806900961979E-1  -7.149424165487291E-1  -6.881563132957189E-1  -7.224856889247895E-1  -4.259992156177760E-2   5.054667935912235E-2  
 1.044261065266317E9    -5.692043770104648E-2   3.951972686901435E-2  -6.816213817640678E-1  -7.137318444252015E-1  -6.899439224916243E-1  -7.224810910224915E-1  -4.232253558933735E-2   5.182835422193928E-2  
 1.045011252813203E9    -5.619348809123040E-2   3.876226740145383E-2  -6.839550366521884E-1  -7.126448476314545E-1  -6.919007837193375E-1  -7.203753644227982E-1  -4.221825812011958E-2   5.051619200913315E-2  
 1.045761440360090E9    -5.713633734732867E-2   3.936901256755589E-2  -6.840114863959905E-1  -7.119009608030319E-1  -6.929631497954185E-1  -7.186698144674301E-1  -4.154592394828797E-2   5.166113387772132E-2  
 1.046511627906977E9    -5.765155144035816E-2   3.901540737872576E-2  -6.863019580535775E-1  -7.097669196128845E-1  -6.945662385270188E-1  -7.164287340641022E-1  -4.167335025966168E-2   5.182215567463967E-2  
 1.047261815453864E9    -5.683848042041063E-2   3.935796445129325E-2  -6.875342152677906E-1  -7.098427361249925E-1  -6.957713523096802E-1  -7.136893761157991E-1  -4.111841853708029E-2   5.079129054096573E-2  
 1.048012003000750E9    -5.792192861437798E-2   3.990118709922524E-2  -6.877974760351697E-1  -7.086091905832291E-1  -6.962832503315605E-1  -7.127848219871521E-1  -4.141276884824038E-2   5.199864525096538E-2  
 1.048762190547637E9    -5.733828056603670E-2   3.874934612738546E-2  -6.891730990431222E-1  -7.081327217817306E-1  -6.979397796538727E-1  -7.107560062408449E-1  -4.142929106950761E-2   5.110737227964125E-2  
 1.049512378094524E9    -5.678434304893018E-2   3.942749208803170E-2  -6.903339262358668E-1  -7.074503922462464E-1  -6.985116359822485E-1  -7.092092978954315E-1  -4.107818044722081E-2   5.248487833888411E-2  
 1.050262565641410E9    -5.666921947151422E-2   3.936036806706045E-2  -6.918090599021639E-1  -7.065843182802201E-1  -6.998410814425781E-1  -7.071146404743195E-1  -4.095563158392906E-2   5.189827386644038E-2  
 1.051012753188297E9    -5.738041315227747E-2   3.995629679293133E-2  -6.931195592522816E-1  -7.049715095758438E-1  -7.004209482574280E-1  -7.055647337436677E-1  -4.028222579509020E-2   5.174137512283977E-2  
 1.051762940735184E9    -5.609042335301638E-2   3.983242769317671E-2  -6.940653626636688E-1  -7.042561900615693E-1  -7.012252076290041E-1  -7.039179366827010E-1  -4.133661326020956E-2   5.261111973816376E-2  
 1.052513128282071E9    -5.580978762358427E-2   4.047472474889235E-2  -6.956130504763177E-1  -7.036374616622925E-1  -7.017766851609422E-1  -7.014413040876389E-1  -4.024125549942256E-2   5.172339424880994E-2  
 1.053263315828957E9    -5.640962392091752E-2   3.935377020070278E-2  -6.971357088118427E-1  -7.030784881114960E-1  -7.017537345240789E-1  -7.000777047872544E-1  -4.001667343080045E-2   5.171907739381140E-2  
 1.054013503375844E9    -5.597611866891385E-2   4.006549310980118E-2  -6.982913972568038E-1  -7.016514408588411E-1  -7.031552278989655E-1  -6.994311815500260E-1  -4.127907782793045E-2   5.133096835056878E-2  
 1.054763690922731E9    -5.520668931305409E-2   3.965716770194754E-2  -6.996502091753147E-1  -7.006293916702269E-1  -7.036619497380219E-1  -6.966496688127518E-1  -4.065104305744171E-2   5.177567828519541E-2  
 1.055513878469617E9    -5.505286440253258E-2   4.051958945552766E-2  -7.002423937474651E-1  -6.991008508205413E-1  -7.047700282506086E-1  -6.957591146230697E-1  -4.015259481966496E-2   5.134764183633545E-2  
 1.056264066016504E9    -5.512341927736998E-2   3.970990648059758E-2  -7.010078846634906E-1  -6.976205414533616E-1  -7.047562343971715E-1  -6.945739936828614E-1  -4.009217888116837E-2   5.143582919412550E-2  
 1.057014253563391E9    -5.420491442084313E-2   3.981617461697830E-2  -7.039297945342052E-1  -6.977507764101029E-1  -7.052051364397320E-1  -6.930391556024552E-1  -3.998863562941551E-2   5.228777046969341E-2  
 1.057764441110278E9    -5.359273940324785E-2   4.041573853022724E-2  -7.049998949571757E-1  -6.959478646516801E-1  -7.063023981472191E-1  -6.917573302984238E-1  -4.079658824950457E-2   5.247769493641146E-2  
 1.058514628657164E9    -5.427958037704229E-2   4.025229303073132E-2  -7.059161639762860E-1  -6.944791638851166E-1  -7.067903034632843E-1  -6.905884885787964E-1  -3.997133258730174E-2   5.251550663756981E-2  
 1.059264816204051E9    -5.390046317130329E-2   4.082851854177474E-2  -7.072993822506163E-1  -6.945358055830001E-1  -7.065517028087360E-1  -6.890900456905365E-1  -4.027110490947962E-2   5.259126852766543E-2  
 1.060015003750938E9    -5.289432380348444E-2   3.969684703784758E-2  -7.083621650824564E-1  -6.930443781614304E-1  -7.073165524271693E-1  -6.879644095897676E-1  -4.016053624451162E-2   5.249305555009064E-2  
 1.060765191297825E9    -5.318225387483836E-2   4.015184975800212E-2  -7.092711461898402E-1  -6.927219051122666E-1  -7.081474073444309E-1  -6.858086663484575E-1  -4.012828566133976E-2   5.187093375794516E-2  
 1.061515378844711E9    -5.334113921970130E-2   4.043407148117692E-2  -7.116029286682506E-1  -6.904004108905792E-1  -7.086195517044347E-1  -6.862072128057482E-1  -3.990100063383580E-2   5.190844452569491E-2  
 1.062265566391598E9    -5.263407200574875E-2   3.961514768004731E-2  -7.127436925579402E-1  -6.888484716415407E-1  -7.094296204294079E-1  -6.849621874094011E-1  -4.001209869980813E-2   5.232448570498090E-2  
 1.063015753938485E9    -5.158624056726695E-2   4.107184293886451E-2  -7.139154152901066E-1  -6.884733235836030E-1  -7.093599275909562E-1  -6.834718555212020E-1  -3.986646179109812E-2   5.304564670152422E-2  
 1.063765941485371E9    -5.262910123914481E-2   4.002369579723193E-2  -7.148804295901478E-1  -6.870927536487581E-1  -7.105038226814030E-1  -6.822107428312302E-1  -3.968819208443166E-2   5.250982832848693E-2  
 1.064516129032258E9    -5.197846211493015E-2   4.118815577361622E-2  -7.167560996178666E-1  -6.855634891986847E-1  -7.110407486186329E-1  -6.816548627614975E-1  -3.956789769232273E-2   5.285469175565004E-2  
 1.065266316579145E9    -5.251135434955358E-2   4.164501331096038E-2  -7.182630585462657E-1  -6.845644015073776E-1  -7.114733967666280E-1  -6.810346478223801E-1  -4.051034845411777E-2   5.188032089383546E-2  
 1.066016504126032E9    -4.974534917622805E-2   4.155048584350823E-2  -7.188584070623296E-1  -6.827164024114609E-1  -7.125045027052044E-1  -6.804151588678361E-1  -3.906936690211296E-2   5.222944745246493E-2  
 1.066766691672918E9    -5.074060685932637E-2   4.201969503873450E-2  -7.212263246123097E-1  -6.813753730058669E-1  -7.135083356240423E-1  -6.797370535135269E-1  -4.016181562095881E-2   5.203133539949204E-2  
 1.067516879219805E9    -5.109649281948805E-2   4.337087018506829E-2  -7.217217766960800E-1  -6.804963052272797E-1  -7.131361431577081E-1  -6.783740097284317E-1  -3.925675772130490E-2   5.163051964653121E-2  
 1.068267066766692E9    -5.072634924203158E-2   4.331133239356710E-2  -7.223443803097367E-1  -6.786556684970856E-1  -7.152380589942456E-1  -6.776702976226807E-1  -3.958826098591090E-2   5.207753886744868E-2  
 1.069017254313578E9    -5.006363149732352E-2   4.366248139209194E-2  -7.243662363819301E-1  -6.768952637910844E-1  -7.149464788946389E-1  -6.769722628593445E-1  -4.008110959082843E-2   5.223903778595259E-2  
 1.069767441860465E9    -5.069424111396075E-2   4.451534971980829E-2  -7.251632061314265E-1  -6.762402391433717E-1  -7.165931185811557E-1  -6.770507639646529E-1  -3.984240911900998E-2   5.261501973187191E-2  
