#  HZ   S   RI   R     50.0 
! Rohde & Schwarz ZVL13 2Ports - Version 3.31 - 1303.6509k13 SN: 101088
! Date: 2023-03-06 14:39:19
! Data & Calibration Information:
! Trc4:S11(TOSM) Trc2:S21(TOSM) Trc3:S12(TOSM) Trc5:S22(TOSM)
! 
! 
! 
 1.000000000000000E9    -5.440534190833569E-2   3.340908178689583E-2  -6.079100796660879E-1  -7.832553558349611E-1  -6.148207811781480E-1  -7.819061911106111E-1  -4.599419153481722E-2   3.986648808572940E-2  
 1.000750187546887E9    -5.489686368405820E-2   3.336266872788041E-2  -6.107044226904932E-1  -7.821649012565615E-1  -6.151846480971278E-1  -7.806256856918337E-1  -4.673021114990116E-2   3.973878919360387E-2  
 1.001500375093774E9    -5.264278246462346E-2   3.336871495095806E-2  -6.114234930266165E-1  -7.810495883226395E-1  -6.153747782556465E-1  -7.781642895340920E-1  -4.654495896026493E-2   3.902035140031599E-2  
 1.002250562640660E9    -5.296461774036289E-2   3.599323722669758E-2  -6.121723390282685E-1  -7.801249570250511E-1  -6.162305343618454E-1  -7.774129289984706E-1  -4.588580159097910E-2   4.020103382242476E-2  
 1.003000750187547E9    -5.411235713958741E-2   3.535399805199000E-2  -6.141757502394115E-1  -7.794500703215601E-1  -6.176267024357052E-1  -7.755576496720315E-1  -4.583367851749063E-2   3.994856579395743E-2  
 1.003750937734434E9    -5.344740954041481E-2   3.513056905690641E-2  -6.162804017279718E-1  -7.781616120338439E-1  -6.177383388386882E-1  -7.748647807836534E-1  -4.689031817764044E-2   4.035153299022810E-2  
 1.004501125281320E9    -5.371576310694218E-2   3.513319079830436E-2  -6.168053740026558E-1  -7.769889630079271E-1  -6.188245983654458E-1  -7.736723864078525E-1  -4.683924967050553E-2   4.144606528812199E-2  
 1.005251312828207E9    -5.314176500216128E-2   3.636257557669902E-2  -6.190468890436196E-1  -7.757554876208307E-1  -6.201059496996679E-1  -7.722694737911225E-1  -4.801752576977016E-2   4.057346163131505E-2  
 1.006001500375094E9    -5.361858479678632E-2   3.720350725479985E-2  -6.209472341049677E-1  -7.754335454702379E-1  -6.213611487837283E-1  -7.706634812951089E-1  -4.610455093905331E-2   4.021628166514788E-2  
 1.006751687921981E9    -5.324549487605692E-2   3.628798400709372E-2  -6.222536129357693E-1  -7.739724854826927E-1  -6.212787274934468E-1  -7.691535201072693E-1  -4.733074811100961E-2   4.107713876380983E-2  
 1.007501875468867E9    -5.216686930507423E-2   3.713609088284042E-2  -6.235055622156388E-1  -7.725518957376482E-1  -6.220650140784305E-1  -7.684059437513352E-1  -4.670753507688642E-2   4.125964497333105E-2  
 1.008252063015754E9    -5.429162929207088E-2   3.629696983716050E-2  -6.251196519237549E-1  -7.712204662561415E-1  -6.229133958722982E-1  -7.671336667537690E-1  -4.603157994523645E-2   4.086443027394187E-2  
 1.009002250562641E9    -5.334877688437701E-2   3.763452962021909E-2  -6.274196424210998E-1  -7.707152457237244E-1  -6.257201669271066E-1  -7.644581322073937E-1  -4.631872468441725E-2   4.116247504675686E-2  
 1.009752438109527E9    -5.340934578329325E-2   3.815474782468016E-2  -6.269351113218648E-1  -7.695990591049194E-1  -6.239719867902742E-1  -7.648502115011218E-1  -4.889177944511175E-2   4.211446190106973E-2  
 1.010502625656414E9    -5.324677345529200E-2   3.701609488152632E-2  -6.298166202602538E-1  -7.678693146705630E-1  -6.245223206115612E-1  -7.646953558325769E-1  -4.680093049630523E-2   4.121871872750724E-2  
 1.011252813203301E9    -5.229080753028394E-2   3.824059279879981E-2  -6.306725525713174E-1  -7.672623229026796E-1  -6.254978849334746E-1  -7.631826417446138E-1  -4.743812482431531E-2   4.175450291305066E-2  
 1.012003000750188E9    -5.260398394241930E-2   3.795117018807587E-2  -6.328062808612017E-1  -7.662116540670395E-1  -6.259523251755754E-1  -7.621398152709009E-1  -4.707824931293728E-2   4.153252063754791E-2  
 1.012753188297074E9    -5.255535157024861E-2   3.896853230901137E-2  -6.332736745883116E-1  -7.643452287316322E-1  -6.275475087313666E-1  -7.611753813624382E-1  -4.797967073321344E-2   4.202568065999850E-2  
 1.013503375843961E9    -5.310100770741702E-2   3.928871200007380E-2  -6.351489609502509E-1  -7.631029881238938E-1  -6.283107291094306E-1  -7.604847996234896E-1  -4.720807221531869E-2   4.148397920364567E-2  
 1.014253563390848E9    -5.377159119769931E-2   4.016509295866567E-2  -6.366393085334937E-1  -7.625833303332330E-1  -6.281898980671993E-1  -7.602623529434204E-1  -4.766023556143047E-2   4.263161582514796E-2  
 1.015003750937735E9    -5.457362456992269E-2   3.987477235758574E-2  -6.366237352508118E-1  -7.615693058371544E-1  -6.284114988200957E-1  -7.604583963155747E-1  -4.766928994283080E-2   4.356568386824391E-2  
 1.015753938484621E9    -5.435860983282328E-2   4.094191717677441E-2  -6.394155141806275E-1  -7.604429657459261E-1  -6.304784621457280E-1  -7.601040259003641E-1  -4.807952390611173E-2   4.217341980133409E-2  
 1.016504126031508E9    -5.362450414896013E-2   4.130356303005075E-2  -6.415288531792359E-1  -7.577853109836579E-1  -6.324199598910703E-1  -7.580642178058625E-1  -4.743730793520809E-2   4.234243152653683E-2  
 1.017254313578395E9    -5.429611087590457E-2   4.247215100706994E-2  -6.421125053790771E-1  -7.569507108926775E-1  -6.328373523788099E-1  -7.573696663379670E-1  -4.711971690878273E-2   4.197864689142156E-2  
 1.018004501125281E9    -5.421837998926641E-2   4.121905316091020E-2  -6.427430720619898E-1  -7.560790265202524E-1  -6.336022910024669E-1  -7.572291071414949E-1  -4.751069989055395E-2   4.251268232595585E-2  
 1.018754688672168E9    -5.398535989969969E-2   4.156021348823843E-2  -6.468835795690140E-1  -7.524665720462802E-1  -6.351155740497936E-1  -7.565578042268755E-1  -4.770689043402672E-2   4.258391595486352E-2  
 1.019504876219055E9    -5.309164893999697E-2   4.271578418450805E-2  -6.471112515906162E-1  -7.524346898794174E-1  -6.356599848280831E-1  -7.564751220345498E-1  -4.745151201635600E-2   4.223324076987414E-2  
 1.020255063765942E9    -5.417452386766673E-2   4.329745787508754E-2  -6.467591350158958E-1  -7.516537781357768E-1  -6.371016851659388E-1  -7.559588117599487E-1  -4.747902918606996E-2   4.388971234583388E-2  
 1.021005251312828E9    -5.410218136757614E-2   4.235697069762427E-2  -6.482572606329449E-1  -7.503051936030389E-1  -6.381526360442116E-1  -7.554603301882743E-1  -4.793171155825258E-2   4.304725463447117E-2  
 1.021755438859715E9    -5.381887823343279E-2   4.307943928581235E-2  -6.501979880500514E-1  -7.486116006970407E-1  -6.391915757184571E-1  -7.560364981889727E-1  -4.597212958335877E-2   4.253659063150222E-2  
 1.022505626406602E9    -5.414141936972737E-2   4.341544344575983E-2  -6.513941098934827E-1  -7.489283344149589E-1  -6.405781472009140E-1  -7.540874515771867E-1  -4.675501719862223E-2   4.416229504167314E-2  
 1.023255813953488E9    -5.417454459518195E-2   4.404761689829387E-2  -6.524933547508124E-1  -7.466993093490600E-1  -6.414810020620300E-1  -7.540410728454593E-1  -4.687933367490769E-2   4.427913299824073E-2  
 1.024006001500375E9    -5.348788635432721E-2   4.508871701027452E-2  -6.538142226231015E-1  -7.458319697380068E-1  -6.435856438204382E-1  -7.537170209884645E-1  -4.644179956987501E-2   4.417807582191683E-2  
 1.024756189047262E9    -5.366780214011670E-2   4.383961392118697E-2  -6.556162137486528E-1  -7.442210151553155E-1  -6.457322918471591E-1  -7.517482541203500E-1  -4.746204842627050E-2   4.469339296379209E-2  
 1.025506376594149E9    -5.404281254485250E-2   4.311044678545222E-2  -6.561588069170697E-1  -7.438084354400636E-1  -6.468631741138071E-1  -7.520112524628640E-1  -4.753247669711710E-2   4.404712931056579E-2  
 1.026256564141035E9    -5.335374779999257E-2   4.392835330468456E-2  -6.569590336165452E-1  -7.420973193645477E-1  -6.495782533283496E-1  -7.510362428426745E-1  -4.657689077407121E-2   4.487208386270498E-2  
 1.027006751687922E9    -5.376006128638983E-2   4.411449872336729E-2  -6.583619115301904E-1  -7.419079378843309E-1  -6.504043016850253E-1  -7.499965988993644E-1  -4.674819161742927E-2   4.526043760438642E-2  
 1.027756939234809E9    -5.367386892810464E-2   4.421014481128477E-2  -6.583261001578795E-1  -7.405089730620383E-1  -6.505488086975690E-1  -7.506876850128177E-1  -4.638568456843496E-2   4.645126290662683E-2  
 1.028507126781695E9    -5.433242477476598E-2   4.394982638977263E-2  -6.597975374832167E-1  -7.383095270991328E-1  -6.538118796936330E-1  -7.495473630428315E-1  -4.683204900845887E-2   4.585219362513940E-2  
 1.029257314328582E9    -5.361392197385431E-2   4.512423776498616E-2  -6.621344548012937E-1  -7.368174668550492E-1  -6.551683714136408E-1  -7.486897813677789E-1  -4.716724921390415E-2   4.623250575275420E-2  
 1.030007501875469E9    -5.315750699490309E-2   4.319371644539300E-2  -6.624921673567450E-1  -7.358379827141762E-1  -6.581938567152708E-1  -7.464937410950661E-1  -4.727687026560307E-2   4.604654970431431E-2  
 1.030757689422356E9    -5.350857882201672E-2   4.338969846351924E-2  -6.648790719251910E-1  -7.340264945030214E-1  -6.578767551413183E-1  -7.464486020803451E-1  -4.536860675737262E-2   4.554351094926149E-2  
 1.031507876969242E9    -5.423082991689444E-2   4.264527114374207E-2  -6.662189028512467E-1  -7.310047972202302E-1  -6.608746488926293E-1  -7.458195201754571E-1  -4.594660003110766E-2   4.695465209744603E-2  
 1.032258064516129E9    -5.445926617458464E-2   4.293324533119602E-2  -6.661161379037839E-1  -7.319882951378823E-1  -6.626183139625804E-1  -7.444519632458687E-1  -4.644933451712131E-2   4.642327765799807E-2  
 1.033008252063016E9    -5.416501633822919E-2   4.200999320248806E-2  -6.658939800187947E-1  -7.306538649201393E-1  -6.645128562254343E-1  -7.445336791276933E-1  -4.599878760799767E-2   4.707791816221519E-2  
 1.033758439609903E9    -5.318220889195800E-2   4.240137269718891E-2  -6.680581814560740E-1  -7.293816940784456E-1  -6.651276195735043E-1  -7.422339054942131E-1  -4.690013471245766E-2   4.642480715474384E-2  
 1.034508627156789E9    -5.455369927361609E-2   4.185491475127107E-2  -6.678694612558791E-1  -7.292030632495881E-1  -6.676456852295784E-1  -7.420865433812143E-1  -4.552999879047275E-2   4.810865569145358E-2  
 1.035258814703676E9    -5.532269450277091E-2   4.216147149991836E-2  -6.697662818057548E-1  -7.273210672736169E-1  -6.696661255078759E-1  -7.408083491921426E-1  -4.531006542593242E-2   4.802710548110291E-2  
 1.036009002250563E9    -5.524229976162315E-2   4.129576148436583E-2  -6.699469531053293E-1  -7.269606360197066E-1  -6.705552018429553E-1  -7.398828769922258E-1  -4.526884742826224E-2   4.789642402934683E-2  
 1.036759189797449E9    -5.613420642539859E-2   4.210176718892044E-2  -6.721649344226821E-1  -7.241164339184762E-1  -6.722485055522984E-1  -7.392619850635528E-1  -4.558219572901726E-2   4.883044846683032E-2  
 1.037509377344336E9    -5.493423437699677E-2   4.079326448875829E-2  -6.722374432252519E-1  -7.237227957844734E-1  -6.746771944219326E-1  -7.373659244179726E-1  -4.482549418509008E-2   4.887249701320094E-2  
 1.038259564891223E9    -5.586059543117881E-2   3.940048593440199E-2  -6.736627221921356E-1  -7.225188575387002E-1  -6.761414994977583E-1  -7.359631031155586E-1  -4.505671222135425E-2   4.920856840984571E-2  
 1.039009752438110E9    -5.645631304383278E-2   4.011755954563483E-2  -6.743374772504968E-1  -7.221756407618523E-1  -6.777371280894238E-1  -7.352791664004327E-1  -4.376887274160981E-2   4.907284986915034E-2  
 1.039759939984996E9    -5.627800353989006E-2   3.969098630653202E-2  -6.757644376282814E-1  -7.206032484769821E-1  -6.797213467719949E-1  -7.333832957744600E-1  -4.402172819152475E-2   4.939477626142543E-2  
 1.040510127531883E9    -5.619105895981193E-2   3.979614323849801E-2  -6.769248620323266E-1  -7.194166800975800E-1  -6.813961481524836E-1  -7.316953400969506E-1  -4.450527707114816E-2   4.979497441341006E-2  
 1.041260315078770E9    -5.591655558720232E-2   3.936752683652436E-2  -6.770510351758443E-1  -7.188469222784043E-1  -6.836998316533202E-1  -7.307234500646592E-1  -4.470700610801578E-2   4.998023260803076E-2  
 1.042010502625656E9    -5.754125926271082E-2   3.891389489162490E-2  -6.795213432907626E-1  -7.172140460014345E-1  -6.850030860688411E-1  -7.279590652585031E-1  -4.320882582664491E-2   5.081884232899846E-2  
 1.042760690172543E9    -5.672194624319674E-2   3.925225054167203E-2  -6.798745909275868E-1  -7.167216766476632E-1  -6.864299898745144E-1  -7.273159919977190E-1  -4.272239581122995E-2   5.081865803065089E-2  
 1.043510877719430E9    -5.778534768521786E-2   3.995147721939316E-2  -6.800835113337759E-1  -7.160159114599227E-1  -6.878656043278952E-1  -7.235284229516984E-1  -4.299087213352323E-2   5.031860374796839E-2  
 1.044261065266317E9    -5.723537275195121E-2   3.947033287572366E-2  -6.813882183160518E-1  -7.149797579646112E-1  -6.896301526978858E-1  -7.234336503744127E-1  -4.257309462130070E-2   5.159936961336212E-2  
 1.045011252813203E9    -5.662697023525834E-2   3.865660695071209E-2  -6.837127042491775E-1  -7.136236734986304E-1  -6.914132436728603E-1  -7.212829648256303E-1  -4.261235173419118E-2   5.036923892218841E-2  
 1.045761440360090E9    -5.729601690545680E-2   3.937377324427854E-2  -6.837284586252326E-1  -7.127352607846260E-1  -6.923496167219467E-1  -7.198194544911385E-1  -4.170539390295744E-2   5.167308540739208E-2  
 1.046511627906977E9    -5.773759664967657E-2   3.885358242539456E-2  -6.859186690938609E-1  -7.108470084667206E-1  -6.940071668271812E-1  -7.178072373270991E-1  -4.198855280131102E-2   5.185330312793745E-2  
 1.047261815453864E9    -5.700133045017720E-2   3.939407930142970E-2  -6.875024899403059E-1  -7.103873512148858E-1  -6.953384639598349E-1  -7.147238840460778E-1  -4.161446055397391E-2   5.078928550104171E-2  
 1.048012003000750E9    -5.825005368143321E-2   3.945758035982595E-2  -6.874060001060807E-1  -7.095754241943361E-1  -6.962922917126186E-1  -7.139804752469063E-1  -4.180927748605610E-2   5.203719374541670E-2  
 1.048762190547637E9    -5.744213725626468E-2   3.869646346762579E-2  -6.885889853981304E-1  -7.090172790884973E-1  -6.975110451512216E-1  -7.118115720748902E-1  -4.181164916604757E-2   5.096029344599082E-2  
 1.049512378094524E9    -5.711347793042659E-2   3.918287646674511E-2  -6.900794447663188E-1  -7.081420115828514E-1  -6.983453934917020E-1  -7.100801135301590E-1  -4.127619922161102E-2   5.249628453702378E-2  
 1.050262565641410E9    -5.678612867370250E-2   3.925001697299563E-2  -6.916065638531372E-1  -7.076154024004937E-1  -6.997020684861967E-1  -7.080712517499924E-1  -4.123210376128554E-2   5.181305387953655E-2  
 1.051012753188297E9    -5.766673836857082E-2   3.989258844410110E-2  -6.929679285271830E-1  -7.057758635878563E-1  -7.004066180691252E-1  -7.066696725487708E-1  -4.058735829591752E-2   5.164380830785877E-2  
 1.051762940735184E9    -5.622713678702713E-2   3.962876882846134E-2  -6.935435089289130E-1  -7.051602628231050E-1  -7.006446883332731E-1  -7.052826647758484E-1  -4.174984244629741E-2   5.232579103693170E-2  
 1.052513128282071E9    -5.597118170186877E-2   4.064841862124820E-2  -6.956897420159213E-1  -7.041551833152773E-1  -7.016775399605747E-1  -7.022606939673424E-1  -4.049253303930164E-2   5.179449989518720E-2  
 1.053263315828957E9    -5.671350790560246E-2   3.927159379052380E-2  -6.966871748839557E-1  -7.040160800218582E-1  -7.018742929592995E-1  -7.009233767986299E-1  -4.029038755968215E-2   5.163582495822060E-2  
 1.054013503375844E9    -5.618881196528673E-2   4.011871935003494E-2  -6.981889130422840E-1  -7.024144085049628E-1  -7.029623585137131E-1  -7.006028187274933E-1  -4.160301340371370E-2   5.139234242120144E-2  
 1.054763690922731E9    -5.521930732950568E-2   3.969549305989517E-2  -6.993584561772009E-1  -7.015880700945854E-1  -7.033436269121020E-1  -6.979647178649904E-1  -4.102511750906706E-2   5.168205169009452E-2  
 1.055513878469617E9    -5.512930924445390E-2   4.015371747699179E-2  -6.997266509003395E-1  -7.001743054986002E-1  -7.043375829554731E-1  -6.968572594523431E-1  -4.048312946408988E-2   5.135027061879940E-2  
 1.056264066016504E9    -5.533096795156600E-2   3.966911819588344E-2  -7.007643477985303E-1  -6.985449522137642E-1  -7.051176136034718E-1  -6.953520172238351E-1  -4.048912543430926E-2   5.156367514798814E-2  
 1.057014253563391E9    -5.455036928132178E-2   3.975330041690079E-2  -7.033693633762586E-1  -6.986962512135506E-1  -7.051538184650572E-1  -6.936708891987803E-1  -4.009527098387480E-2   5.229373312088075E-2  
 1.057764441110278E9    -5.368793746083975E-2   4.031890122781840E-2  -7.054755663077262E-1  -6.961414565443993E-1  -7.068290618399505E-1  -6.921154725551606E-1  -4.088293437287212E-2   5.255036845124247E-2  
 1.058514628657164E9    -5.436730932071805E-2   3.998760968623587E-2  -7.047075776989309E-1  -6.961117417812348E-1  -7.063518449950652E-1  -6.922703183293344E-1  -4.053193766251208E-2   5.235661729107220E-2  
 1.059264816204051E9    -5.390850504115224E-2   4.047944362518957E-2  -7.066615812224359E-1  -6.955991685390472E-1  -7.059602458081213E-1  -6.905691628456117E-1  -4.080762604251505E-2   5.233865991166331E-2  
 1.060015003750938E9    -5.324749951064587E-2   3.952235458806868E-2  -7.080366084012918E-1  -6.938704841732981E-1  -7.071186297449853E-1  -6.889593797326088E-1  -4.034177619963884E-2   5.238686269016579E-2  
 1.060765191297825E9    -5.340568504109980E-2   4.025721152674731E-2  -7.090395474810024E-1  -6.934417144656183E-1  -7.080689822448641E-1  -6.868162740468978E-1  -4.037470680847764E-2   5.181209737596662E-2  
 1.061515378844711E9    -5.340547858551144E-2   4.029950522626967E-2  -7.113900719919962E-1  -6.914398559331895E-1  -7.083718868893705E-1  -6.869641021490099E-1  -4.021881600469351E-2   5.195744316691293E-2  
 1.062265566391598E9    -5.291850896179676E-2   3.975568209292978E-2  -7.123458491688477E-1  -6.899827492237092E-1  -7.091297064562663E-1  -6.858501417636870E-1  -4.030470941588284E-2   5.236616061608494E-2  
 1.063015753938485E9    -5.187175505980850E-2   4.081598606839497E-2  -7.137014844668587E-1  -6.892583318948746E-1  -7.092628534418320E-1  -6.846101773381234E-1  -4.030005548521878E-2   5.308227608794005E-2  
 1.063765941485371E9    -5.289312762022020E-2   3.994656757507327E-2  -7.144519557191666E-1  -6.879549300074579E-1  -7.104088983132870E-1  -6.829782515168192E-1  -4.002774205058814E-2   5.269821105070308E-2  
 1.064516129032258E9    -5.226567495614291E-2   4.115334661155169E-2  -7.165146022204200E-1  -6.862704025506974E-1  -7.107856701863858E-1  -6.824675770998001E-1  -3.982400890812279E-2   5.286042835899915E-2  
 1.065266316579145E9    -5.274554884061217E-2   4.162633119959050E-2  -7.180029968019247E-1  -6.853593553900720E-1  -7.111045024770389E-1  -6.820033217072486E-1  -4.088068247213961E-2   5.183866274534955E-2  
 1.066016504126032E9    -4.990933415293694E-2   4.166955178743800E-2  -7.187105456375723E-1  -6.836731284260750E-1  -7.125288859498639E-1  -6.814429317116738E-1  -3.929075517505407E-2   5.223610831295978E-2  
 1.066766691672918E9    -5.073397764936091E-2   4.199567106795506E-2  -7.206193308178106E-1  -6.826170167922975E-1  -7.132278335540793E-1  -6.807998110055923E-1  -4.040405843779445E-2   5.219875160263318E-2  
 1.067516879219805E9    -5.127528151497246E-2   4.342823977231205E-2  -7.214372485306561E-1  -6.812627789378167E-1  -7.131352132632908E-1  -6.794671891927721E-1  -3.949868847802281E-2   5.179990495146066E-2  
 1.068267066766692E9    -5.103581149876118E-2   4.343902674374345E-2  -7.221078756115061E-1  -6.794993193149568E-1  -7.151493128692995E-1  -6.787680894732476E-1  -4.001077846065163E-2   5.208461764015768E-2  
 1.069017254313578E9    -5.051661028340459E-2   4.359921619731938E-2  -7.240218364641448E-1  -6.776540976762772E-1  -7.148635779475767E-1  -6.778463472127917E-1  -4.040338828042150E-2   5.230527425388615E-2  
 1.069767441860465E9    -5.099682275205851E-2   4.462358481882769E-2  -7.247948844579955E-1  -6.771050459742546E-1  -7.164851950499619E-1  -6.781185286641122E-1  -3.997070672363044E-2   5.285116729063781E-2  
