#  HZ   S   RI   R     50.0 
! Rohde & Schwarz ZVL13 2Ports - Version 3.31 - 1303.6509k13 SN: 101088
! Date: 2023-03-06 14:42:07
! Data & Calibration Information:
! Trc4:S11(TOSM) Trc2:S21(TOSM) Trc3:S12(TOSM) Trc5:S22(TOSM)
! 
! 
! 
 1.000000000000000E9    -5.448389048789049E-2   3.356540670927281E-2  -6.090349456542344E-1  -7.831148293719825E-1  -6.156719315292620E-1  -7.816544020481825E-1  -4.591872313415017E-2   3.993267267712181E-2  
 1.000750187546887E9    -5.502584769039751E-2   3.338830982720786E-2  -6.114845720620457E-1  -7.819106377588470E-1  -6.159408114898684E-1  -7.806275208204965E-1  -4.679669288040021E-2   3.968824797377300E-2  
 1.001500375093774E9    -5.277755681552568E-2   3.350273892589969E-2  -6.122175629515682E-1  -7.807493687518170E-1  -6.161889248857081E-1  -7.779099441144147E-1  -4.652356299772662E-2   3.908803178908461E-2  
 1.002250562640660E9    -5.294522745222916E-2   3.575067540424414E-2  -6.129088005942623E-1  -7.797291747430630E-1  -6.170988515887331E-1  -7.770760309650302E-1  -4.589550437905370E-2   4.028131957628441E-2  
 1.003000750187547E9    -5.409925375415031E-2   3.529762183753825E-2  -6.149939028672663E-1  -7.789522659866001E-1  -6.185031792789401E-1  -7.752250425964409E-1  -4.577581915150564E-2   3.994599452570462E-2  
 1.003750937734434E9    -5.356917511955020E-2   3.518099222510206E-2  -6.175172376867237E-1  -7.778299978899881E-1  -6.185149382655939E-1  -7.745094254792584E-1  -4.686345439810577E-2   4.044308351539987E-2  
 1.004501125281320E9    -5.376734632397508E-2   3.511421137438769E-2  -6.176988986059345E-1  -7.767182473659460E-1  -6.200850275722719E-1  -7.729408664358439E-1  -4.671675145794911E-2   4.136775421977613E-2  
 1.005251312828207E9    -5.314322156265847E-2   3.656077353685193E-2  -6.200478927161052E-1  -7.753919722956553E-1  -6.209940149988867E-1  -7.718690840128510E-1  -4.800890375309401E-2   4.071634721239089E-2  
 1.006001500375094E9    -5.352319188888451E-2   3.729725738787079E-2  -6.216791553721932E-1  -7.746463640990038E-1  -6.223307348157866E-1  -7.701794183660167E-1  -4.616121619068823E-2   4.024988816005017E-2  
 1.006751687921981E9    -5.329063683849940E-2   3.617453208002552E-2  -6.230492069588669E-1  -7.738763589046696E-1  -6.219713989189823E-1  -7.687211488344268E-1  -4.737702966408786E-2   4.107955373231451E-2  
 1.007501875468867E9    -5.224846058846602E-2   3.722575332820041E-2  -6.241481519335933E-1  -7.725583830519769E-1  -6.229506590284482E-1  -7.678991269592052E-1  -4.665831191473013E-2   4.138728990706025E-2  
 1.008252063015754E9    -5.426729784488428E-2   3.633562329301581E-2  -6.258862441433064E-1  -7.708573272390036E-1  -6.237590049561540E-1  -7.668250734632424E-1  -4.606014658918663E-2   4.102637631579069E-2  
 1.009002250562641E9    -5.349136869805102E-2   3.788451697321177E-2  -6.284249720597900E-1  -7.704656307324995E-1  -6.265045184340612E-1  -7.641539592751963E-1  -4.631221759288025E-2   4.127394394063998E-2  
 1.009752438109527E9    -5.340612413628719E-2   3.817527908634136E-2  -6.276989311404638E-1  -7.693222080383183E-1  -6.251577334180638E-1  -7.645049136072415E-1  -4.887909035995169E-2   4.211096563811741E-2  
 1.010502625656414E9    -5.300672200271764E-2   3.688934752289871E-2  -6.303331304662435E-1  -7.674440806657698E-1  -6.258824986099597E-1  -7.640221232775851E-1  -4.689736362565639E-2   4.124858880914464E-2  
 1.011252813203301E9    -5.235885823114633E-2   3.829381082561161E-2  -6.316670725605847E-1  -7.668545513275483E-1  -6.263824438678977E-1  -7.629021938405787E-1  -4.737245831196459E-2   4.183764476391999E-2  
 1.012003000750188E9    -5.263281339866507E-2   3.804657472407855E-2  -6.340675071282944E-1  -7.658756178467772E-1  -6.268217676855278E-1  -7.616268076756118E-1  -4.693362335095748E-2   4.166297241874732E-2  
 1.012753188297074E9    -5.261197477564632E-2   3.909143666336933E-2  -6.344599037762643E-1  -7.637223116465287E-1  -6.282738302290478E-1  -7.608454356909703E-1  -4.806512732644637E-2   4.189431469260317E-2  
 1.013503375843961E9    -5.318560618210570E-2   3.936383854555323E-2  -6.361616248391483E-1  -7.627299292893326E-1  -6.292297017500015E-1  -7.599433726351452E-1  -4.719370682220003E-2   4.159404100098479E-2  
 1.014253563390848E9    -5.382633857720548E-2   4.027434350342007E-2  -6.375276909549436E-1  -7.618663545364441E-1  -6.291453038166764E-1  -7.597587426657654E-1  -4.769381271464893E-2   4.262185160032132E-2  
 1.015003750937735E9    -5.474212788419624E-2   3.985520535246983E-2  -6.372372914119430E-1  -7.613344688226644E-1  -6.291607142521258E-1  -7.600122625880709E-1  -4.759819261866998E-2   4.370010428964241E-2  
 1.015753938484621E9    -5.439805378529435E-2   4.089345487364132E-2  -6.398900746532134E-1  -7.601299916193159E-1  -6.314449170669377E-1  -7.597152765342634E-1  -4.816121476074328E-2   4.216801937625897E-2  
 1.016504126031508E9    -5.363599055491924E-2   4.140372242955366E-2  -6.424050622342958E-1  -7.575318236648982E-1  -6.335001305272019E-1  -7.577547460968864E-1  -4.739309696998167E-2   4.235376545440812E-2  
 1.017254313578395E9    -5.438672796041728E-2   4.246634820088060E-2  -6.439678737160391E-1  -7.554384063988952E-1  -6.336780082713768E-1  -7.567705931265882E-1  -4.712521269889865E-2   4.200242193983356E-2  
 1.018004501125281E9    -5.442048559938968E-2   4.144798640747854E-2  -6.431422901536711E-1  -7.559568819289809E-1  -6.340178940720104E-1  -7.570302706870555E-1  -4.757110198830820E-2   4.275151627555671E-2  
 1.018754688672168E9    -5.408312966069899E-2   4.164019070900614E-2  -6.476253858843637E-1  -7.522983570846569E-1  -6.358235796635314E-1  -7.562287204804763E-1  -4.767583146610828E-2   4.275567643348270E-2  
 1.019504876219055E9    -5.300512280421037E-2   4.266381956387269E-2  -6.478181144640097E-1  -7.519126583257618E-1  -6.366415756650796E-1  -7.560419660295991E-1  -4.740966807682512E-2   4.218104790871957E-2  
 1.020255063765942E9    -5.412683648390743E-2   4.334525049049695E-2  -6.475916441366268E-1  -7.512864079832700E-1  -6.378392988983100E-1  -7.555745460954354E-1  -4.750558011913833E-2   4.408506239553688E-2  
 1.021005251312828E9    -5.412477199961072E-2   4.246241924112874E-2  -6.493644673598195E-1  -7.496102659219636E-1  -6.392033293101990E-1  -7.549088338298633E-1  -4.773701775794419E-2   4.306646189674538E-2  
 1.021755438859715E9    -5.394816214500680E-2   4.321666331857933E-2  -6.512790079950437E-1  -7.483809779476341E-1  -6.401483545327809E-1  -7.557011979509242E-1  -4.603642810972124E-2   4.269053925417520E-2  
 1.022505626406602E9    -5.430270378812410E-2   4.361893452518163E-2  -6.523949800714155E-1  -7.482179104769376E-1  -6.416803694496835E-1  -7.535989861861014E-1  -4.665139918666119E-2   4.413524308390063E-2  
 1.023255813953488E9    -5.419156459320237E-2   4.418692260780296E-2  -6.534381602614471E-1  -7.464159329920649E-1  -6.424115281713625E-1  -7.536691258336190E-1  -4.678336627004363E-2   4.443739758811808E-2  
 1.024006001500375E9    -5.339983312971636E-2   4.500699140659298E-2  -6.547740159074325E-1  -7.456558621974493E-1  -6.446960812307816E-1  -7.530403482999608E-1  -4.639150339855309E-2   4.417454740485798E-2  
 1.024756189047262E9    -5.378666179174514E-2   4.395823723850056E-2  -6.566816119351191E-1  -7.433050816840987E-1  -6.465652947459496E-1  -7.513062299585631E-1  -4.735430038220573E-2   4.485174877838063E-2  
 1.025506376594149E9    -5.412448197344730E-2   4.311665983132793E-2  -6.574654600288445E-1  -7.430017828503209E-1  -6.478056573080374E-1  -7.511768490084517E-1  -4.747260443614276E-2   4.393459221625534E-2  
 1.026256564141035E9    -5.336245114397330E-2   4.401555460029075E-2  -6.579706235334333E-1  -7.415256785305860E-1  -6.504725788306112E-1  -7.508729038651337E-1  -4.632382962868591E-2   4.503695736460543E-2  
 1.027006751687922E9    -5.384107248732222E-2   4.404102413158030E-2  -6.593764036207035E-1  -7.414943640570987E-1  -6.512088074837238E-1  -7.498487058557962E-1  -4.658252767030065E-2   4.540353561386003E-2  
 1.027756939234809E9    -5.359480245144314E-2   4.427196666618383E-2  -6.591895315497639E-1  -7.399142767952573E-1  -6.513438625855483E-1  -7.502331255283480E-1  -4.625933044873271E-2   4.658720804414653E-2  
 1.028507126781695E9    -5.440702153469371E-2   4.388570295363861E-2  -6.604398620103851E-1  -7.379081481615262E-1  -6.546414956990441E-1  -7.494509482760743E-1  -4.667785889296677E-2   4.585984217019060E-2  
 1.029257314328582E9    -5.364192523628561E-2   4.513878172391841E-2  -6.628240738775771E-1  -7.365087884732038E-1  -6.562466841215813E-1  -7.477682962443739E-1  -4.695554894970291E-2   4.645474304202545E-2  
 1.030007501875469E9    -5.318955441074833E-2   4.331955763410983E-2  -6.636194809047076E-1  -7.352871096969906E-1  -6.590473745767753E-1  -7.462387615307585E-1  -4.730161992008540E-2   4.618350785920612E-2  
 1.030757689422356E9    -5.341831658750153E-2   4.332355261563828E-2  -6.658265045462390E-1  -7.333162521718371E-1  -6.587747955555832E-1  -7.458123706910957E-1  -4.546032972152190E-2   4.549010854956916E-2  
 1.031507876969242E9    -5.435818293506957E-2   4.291992511623494E-2  -6.674627453684480E-1  -7.308361673016498E-1  -6.618284215382831E-1  -7.455358125153685E-1  -4.586720477974944E-2   4.700232101804136E-2  
 1.032258064516129E9    -5.447457563750431E-2   4.308290879764196E-2  -6.671631093431913E-1  -7.315970386279059E-1  -6.634021007985742E-1  -7.439671433295032E-1  -4.627607096885675E-2   4.629137690135145E-2  
 1.033008252063016E9    -5.437963838134270E-2   4.212357209040015E-2  -6.670998951095017E-1  -7.302495664324610E-1  -6.656601684475976E-1  -7.437438336089129E-1  -4.602966317642172E-2   4.714702872650945E-2  
 1.033758439609903E9    -5.328122259827735E-2   4.258979298590460E-2  -6.688880188433127E-1  -7.290542936010644E-1  -6.664378351299380E-1  -7.417265942209486E-1  -4.676366288221279E-2   4.661040811306898E-2  
 1.034508627156789E9    -5.479439216181765E-2   4.181624516044609E-2  -6.690989226652793E-1  -7.284529119727881E-1  -6.688220151056054E-1  -7.414256961778718E-1  -4.548256693397879E-2   4.823788175630989E-2  
 1.035258814703676E9    -5.531573811387535E-2   4.213951037627346E-2  -6.706612838831472E-1  -7.265747262484568E-1  -6.707108934192868E-1  -7.403314351999369E-1  -4.543211959947211E-2   4.814883867971180E-2  
 1.036009002250563E9    -5.528168805136126E-2   4.143554669225965E-2  -6.712203992465464E-1  -7.265180540897032E-1  -6.714442699928622E-1  -7.392474056321193E-1  -4.510937692148075E-2   4.791533812613139E-2  
 1.036759189797449E9    -5.611077584347177E-2   4.204957018416120E-2  -6.729544628565595E-1  -7.235500906974904E-1  -6.734775751582578E-1  -7.381823075948820E-1  -4.548263181289236E-2   4.907283143105080E-2  
 1.037509377344336E9    -5.511023934494702E-2   4.094528608801060E-2  -6.732001203649943E-1  -7.233944822193120E-1  -6.758868966562829E-1  -7.368033658660016E-1  -4.469404057609187E-2   4.902171557756531E-2  
 1.038259564891223E9    -5.631425528507950E-2   3.941004826513742E-2  -6.757361706199255E-1  -7.213102146399630E-1  -6.780589886118413E-1  -7.350289165704151E-1  -4.530174555152346E-2   4.928778073545756E-2  
 1.039009752438110E9    -5.643958758834154E-2   4.015137825688116E-2  -6.747248604904290E-1  -7.225167545820613E-1  -6.784840605317377E-1  -7.347542587212027E-1  -4.354707905487142E-2   4.920966040582708E-2  
 1.039759939984996E9    -5.624307532720935E-2   3.966784859709068E-2  -6.763663464863091E-1  -7.203555727545183E-1  -6.802690768085772E-1  -7.332412747386220E-1  -4.384820557075253E-2   4.945199182195220E-2  
 1.040510127531883E9    -5.611610885501307E-2   3.993787487980298E-2  -6.776129458302981E-1  -7.190928874324984E-1  -6.822575848646287E-1  -7.311697038460226E-1  -4.449640698107792E-2   4.996103915572734E-2  
 1.041260315078770E9    -5.600669388111398E-2   3.926765511462968E-2  -6.782865629616079E-1  -7.182786456680902E-1  -6.846204719689547E-1  -7.300345329187237E-1  -4.458726949297901E-2   5.009501207299099E-2  
 1.042010502625656E9    -5.760796106921589E-2   3.909744128807931E-2  -6.804781664504607E-1  -7.169090688949780E-1  -6.859352947495502E-1  -7.272287962432138E-1  -4.321939331285106E-2   5.085557608146560E-2  
 1.042760690172543E9    -5.678224470573048E-2   3.944188208629595E-2  -6.809235689181015E-1  -7.161932619098491E-1  -6.872888320475323E-1  -7.268316520680977E-1  -4.252205773702134E-2   5.077510334807772E-2  
 1.043510877719430E9    -5.781370020534962E-2   4.003164432335686E-2  -6.811193088425649E-1  -7.154611899191268E-1  -6.888410904048185E-1  -7.229349969144666E-1  -4.298541159547098E-2   5.057261668226064E-2  
 1.044261065266317E9    -5.736989780551140E-2   3.947985705535444E-2  -6.824702728189744E-1  -7.144113448804472E-1  -6.905248735130297E-1  -7.228154611044841E-1  -4.263848246329229E-2   5.168073308268376E-2  
 1.045011252813203E9    -5.659534603216581E-2   3.880183655809889E-2  -6.844892301843027E-1  -7.131978764701886E-1  -6.924738037181631E-1  -7.209086685361947E-1  -4.260679963635310E-2   5.049202672459077E-2  
 1.045761440360090E9    -5.723860944571687E-2   3.936136677887786E-2  -6.843291951455429E-1  -7.120663404987795E-1  -6.934803965439049E-1  -7.191748253370365E-1  -4.170040019946877E-2   5.176597501115351E-2  
 1.046511627906977E9    -5.772198887706205E-2   3.899930402144796E-2  -6.867932099465872E-1  -7.101298142402781E-1  -6.949169229671622E-1  -7.170172025897744E-1  -4.192738355057752E-2   5.173494129066672E-2  
 1.047261815453864E9    -5.711522444854918E-2   3.953413765321662E-2  -6.883560693895151E-1  -7.101632726457882E-1  -6.961884990170464E-1  -7.140209367276943E-1  -4.155682662966470E-2   5.091693866362888E-2  
 1.048012003000750E9    -5.829659397499165E-2   3.973543905743432E-2  -6.884435463224290E-1  -7.089509314411946E-1  -6.971365800840988E-1  -7.131785252314028E-1  -4.166927870545676E-2   5.213916996739469E-2  
 1.048762190547637E9    -5.746920142656542E-2   3.870176736871960E-2  -6.896646662815731E-1  -7.084050012265168E-1  -6.985641018041942E-1  -7.111674923581853E-1  -4.183366058380590E-2   5.109159835588474E-2  
 1.049512378094524E9    -5.717570095929227E-2   3.936210615767731E-2  -6.908253627427523E-1  -7.078985472159615E-1  -6.993835167974725E-1  -7.094687125558701E-1  -4.125022554260689E-2   5.258519405504989E-2  
 1.050262565641410E9    -5.691909483149877E-2   3.952141501764103E-2  -6.926247826549831E-1  -7.068435428371325E-1  -7.004382249866432E-1  -7.073748535897158E-1  -4.124565281636814E-2   5.195136985514096E-2  
 1.051012753188297E9    -5.767444987161637E-2   3.997420541350167E-2  -6.937667373636808E-1  -7.053344764752225E-1  -7.011818504116449E-1  -7.058442348932128E-1  -4.062354406093912E-2   5.183008290768641E-2  
 1.051762940735184E9    -5.624378634826432E-2   3.978119770595670E-2  -6.944986944036551E-1  -7.045343495663079E-1  -7.016803092976973E-1  -7.046264687328215E-1  -4.160730498851757E-2   5.239584691040366E-2  
 1.052513128282071E9    -5.615432668338606E-2   4.072223039940936E-2  -6.965429237565975E-1  -7.037828034464538E-1  -7.025358770522456E-1  -7.016674548991926E-1  -4.053071967170945E-2   5.178514787787723E-2  
 1.053263315828957E9    -5.671202988665870E-2   3.926903001644237E-2  -6.973574053339204E-1  -7.035906523882489E-1  -7.026025800499199E-1  -7.004492662050689E-1  -4.037208440548806E-2   5.173856371544149E-2  
 1.054013503375844E9    -5.633255306245280E-2   4.027266643523698E-2  -6.991269330009229E-1  -7.019232003509759E-1  -7.038804240315414E-1  -6.998062374494737E-1  -4.166763203726780E-2   5.147563053353940E-2  
 1.054763690922731E9    -5.545468690745217E-2   3.963550820771008E-2  -7.002991643271553E-1  -7.011391498599451E-1  -7.044130229354401E-1  -6.972170274896102E-1  -4.095885748683813E-2   5.180888899513813E-2  
 1.055513878469617E9    -5.533977296104400E-2   4.024319038667962E-2  -7.007026130082588E-1  -6.997908930310227E-1  -7.053952903979812E-1  -6.961834985077720E-1  -4.040563220744672E-2   5.129678056933616E-2  
 1.056264066016504E9    -5.551242569695240E-2   3.970232145794221E-2  -7.018491206818115E-1  -6.979208526596760E-1  -7.055791900696101E-1  -6.949547684172091E-1  -4.060781118776932E-2   5.168588000029358E-2  
 1.057014253563391E9    -5.462696298029862E-2   3.994864517757966E-2  -7.046576601421957E-1  -6.978615096785621E-1  -7.059255689780815E-1  -6.933134780992418E-1  -4.022154293990653E-2   5.240711021892815E-2  
 1.057764441110278E9    -5.377279705804402E-2   4.030538702889407E-2  -7.057037472397446E-1  -6.962369262189651E-1  -7.072003551800451E-1  -6.919017730865009E-1  -4.096446165844000E-2   5.245104134128730E-2  
 1.058514628657164E9    -5.441044654244157E-2   4.007476895765732E-2  -7.063089094305652E-1  -6.951207337103067E-1  -7.074056173372585E-1  -6.913134078605616E-1  -4.048139225059221E-2   5.259080852453252E-2  
 1.059264816204051E9    -5.417926274268092E-2   4.086119195853216E-2  -7.076441000730658E-1  -6.949947508677187E-1  -7.073796922917576E-1  -6.894983631824825E-1  -4.075620890812422E-2   5.262614717236770E-2  
 1.060015003750938E9    -5.327508792751849E-2   3.985322807628657E-2  -7.090472479947250E-1  -6.932930208905141E-1  -7.082581408828672E-1  -6.881559032154093E-1  -4.043187527311999E-2   5.253277345955061E-2  
 1.060765191297825E9    -5.360124164337279E-2   4.021509569800180E-2  -7.101573576949800E-1  -6.929726285604166E-1  -7.091316559399036E-1  -6.861432930208730E-1  -4.042279009742832E-2   5.188393935208817E-2  
 1.061515378844711E9    -5.360611132147585E-2   4.043028407738769E-2  -7.121855644078471E-1  -6.907636214431092E-1  -7.091125563701632E-1  -6.865722610207083E-1  -4.017243139230636E-2   5.202186698863504E-2  
 1.062265566391598E9    -5.300186355731264E-2   3.966974571447093E-2  -7.134106024427955E-1  -6.890649871794733E-1  -7.100674404234135E-1  -6.854593310113043E-1  -4.037115745137174E-2   5.247216441507815E-2  
 1.063015753938485E9    -5.203853020335242E-2   4.100534857813497E-2  -7.145272024706720E-1  -6.885901657408994E-1  -7.099562253876947E-1  -6.840634333570802E-1  -4.044284486875102E-2   5.319111662748492E-2  
 1.063765941485371E9    -5.298634729908911E-2   3.996736099571537E-2  -7.154920257180608E-1  -6.874121674125960E-1  -7.112492074053173E-1  -6.824186588213483E-1  -4.010033329363323E-2   5.266177902609977E-2  
 1.064516129032258E9    -5.233035795077946E-2   4.123960444631596E-2  -7.173788665294231E-1  -6.856574996314444E-1  -7.116212914076493E-1  -6.819637595338187E-1  -3.989718986988670E-2   5.290791892651991E-2  
 1.065266316579145E9    -5.285876269514490E-2   4.180214057792344E-2  -7.190799928319561E-1  -6.846446056239198E-1  -7.121033392517790E-1  -6.815482515412076E-1  -4.097709030939732E-2   5.191830297604652E-2  
 1.066016504126032E9    -5.008064506181283E-2   4.181200315921076E-2  -7.195535345808999E-1  -6.829348456129489E-1  -7.134034295403015E-1  -6.811429939872337E-1  -3.939591651857002E-2   5.232761341419991E-2  
 1.066766691672918E9    -5.099327438417256E-2   4.204890435121192E-2  -7.218474725446299E-1  -6.817658166346285E-1  -7.138934995942514E-1  -6.800686614734497E-1  -4.045051485196827E-2   5.229206105237620E-2  
 1.067516879219805E9    -5.147912495892475E-2   4.349302319385175E-2  -7.223697200529169E-1  -6.806284540724538E-1  -7.140053687356930E-1  -6.786806830292304E-1  -3.946845833022347E-2   5.191451430455526E-2  
 1.068267066766692E9    -5.126101132951088E-2   4.343670527556484E-2  -7.230448852837721E-1  -6.788313374433768E-1  -7.158594682538002E-1  -6.783782719360575E-1  -3.983918945181740E-2   5.234095549159624E-2  
 1.069017254313578E9    -5.057355929266521E-2   4.370524379656630E-2  -7.249036334751168E-1  -6.771824911669007E-1  -7.156307862279066E-1  -6.772527516485443E-1  -4.043460214382987E-2   5.239759065057405E-2  
 1.069767441860465E9    -5.118208564105192E-2   4.474220842609655E-2  -7.258811015010477E-1  -6.764669053617605E-1  -7.174715051233667E-1  -6.776075423097141E-1  -4.007091868205979E-2   5.289566928339617E-2  
