#  HZ   S   RI   R     50.0 
! Rohde & Schwarz ZVL13 2Ports - Version 3.31 - 1303.6509k13 SN: 101088
! Date: 2023-03-06 14:46:26
! Data & Calibration Information:
! Trc4:S11(TOSM) Trc2:S21(TOSM) Trc3:S12(TOSM) Trc5:S22(TOSM)
! 
! 
! 
 1.000000000000000E9    -5.487156200259925E-2   3.338300398508867E-2  -6.080531199072935E-1  -7.849532411992551E-1  -6.148709963851065E-1  -7.834648995339871E-1  -4.635652483403683E-2   3.971043531086022E-2  
 1.000750187546887E9    -5.540523238591852E-2   3.307025197217105E-2  -6.101644566081188E-1  -7.837259629189970E-1  -6.147563713941071E-1  -7.825801603138449E-1  -4.697700442336501E-2   3.934472229344090E-2  
 1.001500375093774E9    -5.300524245686830E-2   3.312269318511572E-2  -6.111091367033023E-1  -7.827722757041457E-1  -6.148378643413471E-1  -7.798626882612707E-1  -4.684874493777752E-2   3.875658398079780E-2  
 1.002250562640660E9    -5.333843724019827E-2   3.562891982972763E-2  -6.118800432963889E-1  -7.814987854123116E-1  -6.158841138523186E-1  -7.790684219419957E-1  -4.626156483925879E-2   3.998425542343622E-2  
 1.003000750187547E9    -5.464134967587889E-2   3.531109468052395E-2  -6.138828575211721E-1  -7.811126942098142E-1  -6.175615898810144E-1  -7.768517350256443E-1  -4.615739703699948E-2   3.968056390260200E-2  
 1.003750937734434E9    -5.391346239186825E-2   3.505948945225927E-2  -6.163734424391641E-1  -7.795928937077523E-1  -6.173944389021605E-1  -7.762448314011099E-1  -4.719005447514356E-2   4.023751754521951E-2  
 1.004501125281320E9    -5.411806839779021E-2   3.511730780494623E-2  -6.167590025447841E-1  -7.784346538662912E-1  -6.188865824316490E-1  -7.749720254063607E-1  -4.711977486647667E-2   4.113057803016766E-2  
 1.005251312828207E9    -5.361324012726546E-2   3.609741158067484E-2  -6.191796460661120E-1  -7.773131730139258E-1  -6.197075941507770E-1  -7.736224166989327E-1  -4.837564003393054E-2   4.046369592259793E-2  
 1.006001500375094E9    -5.390060911662877E-2   3.700816258183670E-2  -6.206619942996724E-1  -7.767599732100965E-1  -6.212263915284303E-1  -7.718253399670125E-1  -4.646767725162208E-2   4.001118061841216E-2  
 1.006751687921981E9    -5.379602935425938E-2   3.609847902655642E-2  -6.222476474640001E-1  -7.755222960889340E-1  -6.209116569590932E-1  -7.705993291616441E-1  -4.741729324571789E-2   4.084269081967545E-2  
 1.007501875468867E9    -5.261320332288742E-2   3.697759395126182E-2  -6.229940216896993E-1  -7.741995490014555E-1  -6.218482181541779E-1  -7.699107327759267E-1  -4.691751850433650E-2   4.108212538257358E-2  
 1.008252063015754E9    -5.484271823242307E-2   3.601176730085574E-2  -6.247226471192084E-1  -7.727791786372664E-1  -6.229234053794450E-1  -7.684387291550637E-1  -4.630165650993585E-2   4.077038409291754E-2  
 1.009002250562641E9    -5.389419092275202E-2   3.746533814412510E-2  -6.270538401701958E-1  -7.723348908960821E-1  -6.256421819865878E-1  -7.661039185225964E-1  -4.657137106880546E-2   4.109040993916662E-2  
 1.009752438109527E9    -5.387411774322391E-2   3.808605924345864E-2  -6.265563152563746E-1  -7.714423725903037E-1  -6.239048916937378E-1  -7.666315308392048E-1  -4.910020615756513E-2   4.183471641013820E-2  
 1.010502625656414E9    -5.367061684131622E-2   3.672946380119140E-2  -6.293143729883429E-1  -7.694108476698398E-1  -6.247736926592921E-1  -7.657788926780224E-1  -4.721342740580441E-2   4.103887843901702E-2  
 1.011252813203301E9    -5.296964451111853E-2   3.814161944924596E-2  -6.305209075952671E-1  -7.689221740961075E-1  -6.252361952374987E-1  -7.651745698153974E-1  -4.758605569414794E-2   4.147277267736492E-2  
 1.012003000750188E9    -5.326070560179652E-2   3.789641374578905E-2  -6.325868503907132E-1  -7.679555276215079E-1  -6.257585424926955E-1  -7.635752710580828E-1  -4.732649851180613E-2   4.155752829817856E-2  
 1.012753188297074E9    -5.319381264708936E-2   3.893667368833727E-2  -6.334207865092517E-1  -7.656084805428982E-1  -6.272298803211176E-1  -7.626326192975044E-1  -4.837977646850052E-2   4.170746533687190E-2  
 1.013503375843961E9    -5.375483108125627E-2   3.908750636048695E-2  -6.350045789153371E-1  -7.644932010471821E-1  -6.281608734739461E-1  -7.620139607489113E-1  -4.750980731062592E-2   4.150484592209902E-2  
 1.014253563390848E9    -5.433342549428345E-2   3.997568697307100E-2  -6.364976129258803E-1  -7.640519932806493E-1  -6.279668484813201E-1  -7.617281687557699E-1  -4.806770649962128E-2   4.260217375604066E-2  
 1.015003750937735E9    -5.524360823817551E-2   3.968076329652402E-2  -6.364105860240695E-1  -7.630618794083596E-1  -6.282385270253542E-1  -7.619639364659787E-1  -4.789619711712002E-2   4.342639651631060E-2  
 1.015753938484621E9    -5.502420849390329E-2   4.075419144512977E-2  -6.385240269988762E-1  -7.622254564881326E-1  -6.301987796430247E-1  -7.616217528283598E-1  -4.848177295029164E-2   4.221242301226727E-2  
 1.016504126031508E9    -5.423686104342342E-2   4.118576642749919E-2  -6.413004193398424E-1  -7.593299924850465E-1  -6.323987301801683E-1  -7.593919105529785E-1  -4.783151715658606E-2   4.219636582064729E-2  
 1.017254313578395E9    -5.487009771615269E-2   4.228673502477183E-2  -6.423459862170345E-1  -7.582483987689019E-1  -6.327334977613103E-1  -7.587486587345602E-1  -4.752307942248882E-2   4.194099831548153E-2  
 1.018004501125281E9    -5.490087008699775E-2   4.120528284204567E-2  -6.424573677344138E-1  -7.576425942122937E-1  -6.332162335501915E-1  -7.589158648192884E-1  -4.785607337504626E-2   4.268399623570362E-2  
 1.018754688672168E9    -5.459347304068507E-2   4.152765556806331E-2  -6.466332782331674E-1  -7.541640971779825E-1  -6.349829022225429E-1  -7.582714244127274E-1  -4.797432631030680E-2   4.263493154017028E-2  
 1.019504876219055E9    -5.363157746493817E-2   4.256838062355143E-2  -6.471434801012267E-1  -7.538495452344419E-1  -6.355216369885340E-1  -7.580759533584119E-1  -4.762132114358247E-2   4.220203365909357E-2  
 1.020255063765942E9    -5.480945204384626E-2   4.328830773200257E-2  -6.464567361155783E-1  -7.534853846728804E-1  -6.367271926636801E-1  -7.577267438530922E-1  -4.789042913950981E-2   4.405561760474026E-2  
 1.021005251312828E9    -5.461530321873725E-2   4.221443219669090E-2  -6.485398493147571E-1  -7.516395786225797E-1  -6.380748870279066E-1  -7.568267431676389E-1  -4.794012183845042E-2   4.317867713718861E-2  
 1.021755438859715E9    -5.451115244179965E-2   4.303312545514097E-2  -6.500132657046239E-1  -7.504059957265857E-1  -6.387723129295044E-1  -7.578578887522224E-1  -4.624683261662722E-2   4.272767201605088E-2  
 1.022505626406602E9    -5.470179014168680E-2   4.330120612116406E-2  -6.513574343018167E-1  -7.503108826339247E-1  -6.404795042589305E-1  -7.555229248702527E-1  -4.712974949702620E-2   4.419709103414441E-2  
 1.023255813953488E9    -5.473218374066056E-2   4.389541869912097E-2  -6.522396110724887E-1  -7.482953889071942E-1  -6.413059443961322E-1  -7.555543555080894E-1  -4.726399041824044E-2   4.436807393094680E-2  
 1.024006001500375E9    -5.428663117103279E-2   4.490766944428905E-2  -6.539932472070581E-1  -7.475629399418832E-1  -6.433116812212428E-1  -7.550970303654672E-1  -4.667606415823102E-2   4.425168882530949E-2  
 1.024756189047262E9    -5.438246951401234E-2   4.377185941135556E-2  -6.553751920298142E-1  -7.455223631978034E-1  -6.454491950722180E-1  -7.535046556055548E-1  -4.783481407947839E-2   4.488585388567040E-2  
 1.025506376594149E9    -5.470316713824870E-2   4.291139062160052E-2  -6.563195821861247E-1  -7.450327329576016E-1  -6.464276002754844E-1  -7.532948213756086E-1  -4.795861133858562E-2   4.406588255026805E-2  
 1.026256564141035E9    -5.397946076579393E-2   4.378683061027838E-2  -6.569277335708147E-1  -7.434395688116551E-1  -6.492605667296292E-1  -7.527089727282523E-1  -4.657593776807190E-2   4.501192046364205E-2  
 1.027006751687922E9    -5.453601824380457E-2   4.386059763068440E-2  -6.585252241654017E-1  -7.435582879722119E-1  -6.503250823596491E-1  -7.516430799901488E-1  -4.695914627239109E-2   4.544096423649364E-2  
 1.027756939234809E9    -5.414000345058741E-2   4.416239094790066E-2  -6.582303009269686E-1  -7.420895332992076E-1  -6.500989162532030E-1  -7.523312254726888E-1  -4.668260748535395E-2   4.657144926962094E-2  
 1.028507126781695E9    -5.494656620435418E-2   4.384865444672222E-2  -6.592503974115338E-1  -7.398434566080573E-1  -6.533859332606130E-1  -7.512795072495937E-1  -4.719286079891027E-2   4.578212630277771E-2  
 1.029257314328582E9    -5.415543409362437E-2   4.502635624387069E-2  -6.619074359121463E-1  -7.383775926768780E-1  -6.551497771077051E-1  -7.497590917766096E-1  -4.735127274207773E-2   4.625036305896094E-2  
 1.030007501875469E9    -5.371305977478624E-2   4.313928257285588E-2  -6.625906577144187E-1  -7.374765400588513E-1  -6.577155326808151E-1  -7.483103657722474E-1  -4.776889250501991E-2   4.626822472518664E-2  
 1.030757689422356E9    -5.399520280919969E-2   4.323915137962965E-2  -6.650222919702988E-1  -7.352861484766008E-1  -6.576096262960737E-1  -7.477514492690566E-1  -4.586395617648960E-2   4.551018489175458E-2  
 1.031507876969242E9    -5.491248558759691E-2   4.260698303936372E-2  -6.662191536593123E-1  -7.325636823117735E-1  -6.606910188811075E-1  -7.473919621706011E-1  -4.638737242519857E-2   4.701499546051412E-2  
 1.032258064516129E9    -5.490191344991328E-2   4.289839319620536E-2  -6.656371051430747E-1  -7.338647683501244E-1  -6.623324626161554E-1  -7.460283395349979E-1  -4.693209119588138E-2   4.653672591063207E-2  
 1.033008252063016E9    -5.477528216987850E-2   4.212043845041900E-2  -6.658383132132676E-1  -7.324091284513475E-1  -6.644910043079114E-1  -7.460374086260797E-1  -4.636349951103330E-2   4.722146965063254E-2  
 1.033758439609903E9    -5.386336834095420E-2   4.239124745573011E-2  -6.678307999153879E-1  -7.312007187783718E-1  -6.653630215109974E-1  -7.436681876361370E-1  -4.714644881673158E-2   4.643638816368904E-2  
 1.034508627156789E9    -5.528611236177386E-2   4.169090577931560E-2  -6.680596387758823E-1  -7.303510902404786E-1  -6.675918950311084E-1  -7.435171062469482E-1  -4.589943927377462E-2   4.831429480215584E-2  
 1.035258814703676E9    -5.585603932477534E-2   4.210679085299224E-2  -6.698473387898554E-1  -7.288732417702675E-1  -6.696008654123138E-1  -7.423823262751104E-1  -4.582790135592222E-2   4.804584797769678E-2  
 1.036009002250563E9    -5.558342444710435E-2   4.134571078744226E-2  -6.701882591535677E-1  -7.287388423800468E-1  -6.704429758321864E-1  -7.412190483450891E-1  -4.564706228561700E-2   4.787742946663745E-2  
 1.036759189797449E9    -5.638046698272229E-2   4.177628655015835E-2  -6.718172715200360E-1  -7.258551654815676E-1  -6.724322851317001E-1  -7.402613659858706E-1  -4.601067164130510E-2   4.911669717715152E-2  
 1.037509377344336E9    -5.546624899171294E-2   4.071203425577159E-2  -6.720238049680402E-1  -7.252403254389762E-1  -6.748441082186714E-1  -7.389155301272870E-1  -4.530024745725095E-2   4.910493277534526E-2  
 1.038259564891223E9    -5.658941606804729E-2   3.925192762523908E-2  -6.747676491915108E-1  -7.229583833515645E-1  -6.770959548183758E-1  -7.367804457426073E-1  -4.582061186656356E-2   4.918680697690482E-2  
 1.039009752438110E9    -5.693755840323868E-2   3.995738712994361E-2  -6.738855584443886E-1  -7.244400753140449E-1  -6.775862734940369E-1  -7.369454690575599E-1  -4.407735884562135E-2   4.916061345880200E-2  
 1.039759939984996E9    -5.659000005945563E-2   3.953821266330869E-2  -6.750385360800992E-1  -7.222494423329829E-1  -6.793542872164685E-1  -7.349513536810874E-1  -4.445919172726572E-2   4.939316778020827E-2  
 1.040510127531883E9    -5.645497532747686E-2   3.980543509714088E-2  -6.765866986531839E-1  -7.211383775949479E-1  -6.813159275253597E-1  -7.332527439177036E-1  -4.496759469434620E-2   4.987010244322762E-2  
 1.041260315078770E9    -5.637413520291448E-2   3.921493238774114E-2  -6.772996520221987E-1  -7.204391150057317E-1  -6.832294891033859E-1  -7.321458159863951E-1  -4.512269807644188E-2   4.989233050146618E-2  
 1.042010502625656E9    -5.793581882752479E-2   3.901016456198735E-2  -6.797490944563276E-1  -7.187181333065034E-1  -6.849403985458414E-1  -7.294310617387295E-1  -4.371943389475345E-2   5.065271977381498E-2  
 1.042760690172543E9    -5.706584656462074E-2   3.934350365223596E-2  -6.798410392302131E-1  -7.181691044747830E-1  -6.860370661603531E-1  -7.287346297800542E-1  -4.320033516511321E-2   5.062635792006232E-2  
 1.043510877719430E9    -5.817153542265297E-2   3.976084714540513E-2  -6.798330098208389E-1  -7.175475646674633E-1  -6.876988141069569E-1  -7.252782643377782E-1  -4.340354703553021E-2   5.047304763338917E-2  
 1.044261065266317E9    -5.760046324618161E-2   3.932056262561289E-2  -6.814210430797693E-1  -7.163213396430016E-1  -6.894690544369858E-1  -7.250263225138187E-1  -4.324811651073396E-2   5.164905209753559E-2  
 1.045011252813203E9    -5.694324161522090E-2   3.846829447729407E-2  -6.836463152791548E-1  -7.151792497873307E-1  -6.914585872990340E-1  -7.230368610143663E-1  -4.315516510158778E-2   5.044142256365240E-2  
 1.045761440360090E9    -5.761833634190262E-2   3.928057588647987E-2  -6.834297625139495E-1  -7.141188403904438E-1  -6.923642586705400E-1  -7.209453605115412E-1  -4.212143312841654E-2   5.167749271215914E-2  
 1.046511627906977E9    -5.816451078392566E-2   3.879836450384953E-2  -6.858505387361802E-1  -7.122903738200663E-1  -6.941589134272928E-1  -7.190194216728212E-1  -4.247702963612975E-2   5.185559505820155E-2  
 1.047261815453864E9    -5.736248818263412E-2   3.919731044438232E-2  -6.872015505102629E-1  -7.122719626128674E-1  -6.950613745672186E-1  -7.163167477250102E-1  -4.208468817733229E-2   5.070650011036110E-2  
 1.048012003000750E9    -5.867451579906048E-2   3.948583704266087E-2  -6.873960218051332E-1  -7.110616457879543E-1  -6.961974757058271E-1  -7.152368767201901E-1  -4.231872519999743E-2   5.194354821042917E-2  
 1.048762190547637E9    -5.780137417130173E-2   3.866628311176618E-2  -6.885850595490904E-1  -7.102647779762746E-1  -6.976969430835219E-1  -7.132453305006028E-1  -4.236987769976260E-2   5.093164511580335E-2  
 1.049512378094524E9    -5.735310847759247E-2   3.916101213231008E-2  -6.898843386527545E-1  -7.097931848168374E-1  -6.981407924476689E-1  -7.116960478842258E-1  -4.191528704985977E-2   5.242050626218986E-2  
 1.050262565641410E9    -5.727447959631682E-2   3.927524504980789E-2  -6.915056058531391E-1  -7.092492316842080E-1  -6.997082836793437E-1  -7.095370312631130E-1  -4.180032011978328E-2   5.179395307353901E-2  
 1.051012753188297E9    -5.788262951485813E-2   3.993711070264264E-2  -6.927453551547784E-1  -7.072721439480783E-1  -7.003053850484742E-1  -7.081055043458939E-1  -4.120816367119551E-2   5.145100489903157E-2  
 1.051762940735184E9    -5.641643138565124E-2   3.974113339378674E-2  -6.937513968908664E-1  -7.064145433008672E-1  -7.006869046508442E-1  -7.068953154683114E-1  -4.226177825890481E-2   5.218098272956279E-2  
 1.052513128282071E9    -5.644079022295774E-2   4.044647368067784E-2  -6.953425847659698E-1  -7.058267988264561E-1  -7.015199719832811E-1  -7.036808263838292E-1  -4.109731074310839E-2   5.171487317003844E-2  
 1.053263315828957E9    -5.717196194902063E-2   3.912645903716740E-2  -6.966345874294975E-1  -7.058339981019497E-1  -7.018221898388046E-1  -7.023031055688858E-1  -4.099536302350462E-2   5.157478032382076E-2  
 1.054013503375844E9    -5.667679149247708E-2   4.002205021459786E-2  -6.980870428995712E-1  -7.042443420946599E-1  -7.029928602227717E-1  -7.021342943310739E-1  -4.222422452829778E-2   5.121241727881202E-2  
 1.054763690922731E9    -5.573566405475140E-2   3.954638796043073E-2  -6.996384231474464E-1  -7.030119850993156E-1  -7.033676346692165E-1  -6.995461677968503E-1  -4.151818257607520E-2   5.157816424460644E-2  
 1.055513878469617E9    -5.556498021706940E-2   4.002973356402505E-2  -6.996519152924727E-1  -7.019945311307908E-1  -7.044188900932925E-1  -6.984752425253392E-1  -4.103176951371134E-2   5.109624014005705E-2  
 1.056264066016504E9    -5.580381921082735E-2   3.948654454012936E-2  -7.009358721712573E-1  -7.002339821338653E-1  -7.047462116283128E-1  -6.969871666610241E-1  -4.114798597209157E-2   5.146108607131057E-2  
 1.057014253563391E9    -5.479986282177270E-2   3.968314987964806E-2  -7.035336193790265E-1  -7.003845826745033E-1  -7.048367338315521E-1  -6.955969951689245E-1  -4.067362095490099E-2   5.202718324244615E-2  
 1.057764441110278E9    -5.418546801507473E-2   4.001073390959110E-2  -7.043662423277635E-1  -6.986235456109048E-1  -7.060174691917432E-1  -6.940677697479725E-1  -4.155028553530574E-2   5.227147395587450E-2  
 1.058514628657164E9    -5.468346509486438E-2   3.986797846912689E-2  -7.053926509470919E-1  -6.971811254501344E-1  -7.065231323746877E-1  -6.931651775181295E-1  -4.102213955484331E-2   5.234612091993932E-2  
 1.059264816204051E9    -5.444693898148836E-2   4.053834553078749E-2  -7.068490373051286E-1  -6.970915324747563E-1  -7.064509805697861E-1  -6.912484684467316E-1  -4.114089213795961E-2   5.236012262204401E-2  
 1.060015003750938E9    -5.361224956214428E-2   3.939512637944364E-2  -7.081577131707122E-1  -6.958063997983933E-1  -7.069307202620478E-1  -6.903525662004950E-1  -4.106961220987142E-2   5.235549078509172E-2  
 1.060765191297825E9    -5.387499341145159E-2   4.010634125177172E-2  -7.091274320533074E-1  -6.951518939971925E-1  -7.081588958863712E-1  -6.883723882913589E-1  -4.104160816855729E-2   5.173228507258052E-2  
 1.061515378844711E9    -5.379677433595062E-2   4.012713657751255E-2  -7.113515740161763E-1  -6.930403369426726E-1  -7.082441113931519E-1  -6.888193394005300E-1  -4.086133728772402E-2   5.179425019713215E-2  
 1.062265566391598E9    -5.336715613156558E-2   3.958110903554837E-2  -7.124385800121418E-1  -6.912368648409843E-1  -7.090232421789103E-1  -6.877781956732275E-1  -4.080888560451567E-2   5.221035172563095E-2  
 1.063015753938485E9    -5.244775045625866E-2   4.078314134118911E-2  -7.136725822826637E-1  -6.909151366949082E-1  -7.089910594937330E-1  -6.862530945479871E-1  -4.093978500179948E-2   5.284823872912656E-2  
 1.063765941485371E9    -5.326038470417262E-2   3.978751512446882E-2  -7.145179659470612E-1  -6.895817898035050E-1  -7.104247792662777E-1  -6.844024687886239E-1  -4.061503392755986E-2   5.251579479538624E-2  
 1.064516129032258E9    -5.274224133640530E-2   4.109585120488070E-2  -7.162879356008496E-1  -6.880669196426870E-1  -7.108439022138388E-1  -6.841881302654745E-1  -4.036963822133839E-2   5.271766221219509E-2  
 1.065266316579145E9    -5.326152443997563E-2   4.148312277730273E-2  -7.181025282181640E-1  -6.868352699339390E-1  -7.110912581202161E-1  -6.837611510992051E-1  -4.151854971908033E-2   5.165328896723616E-2  
 1.066016504126032E9    -5.050670612379908E-2   4.163703918966128E-2  -7.187029054482668E-1  -6.850987966954709E-1  -7.124913740810052E-1  -6.829180376827718E-1  -3.997985964976252E-2   5.195649996549456E-2  
 1.066766691672918E9    -5.134506491683424E-2   4.196317686863052E-2  -7.207614557413721E-1  -6.843706613898281E-1  -7.130391838111591E-1  -6.824488511979581E-1  -4.109420411661267E-2   5.209186566201951E-2  
 1.067516879219805E9    -5.166071985512974E-2   4.333496882205418E-2  -7.211535210684839E-1  -6.828327616453170E-1  -7.129660631641751E-1  -6.811731483280661E-1  -3.992879216633737E-2   5.160611274851024E-2  
 1.068267066766692E9    -5.156209630146624E-2   4.328447563468660E-2  -7.220667579278451E-1  -6.810242519378663E-1  -7.151384158044148E-1  -6.802865847408772E-1  -4.031946770101786E-2   5.196020153498469E-2  
 1.069017254313578E9    -5.114452557042241E-2   4.348798157995937E-2  -7.241135951891317E-1  -6.792173844039441E-1  -7.146413159272068E-1  -6.793740487635137E-1  -4.089924900643528E-2   5.220405537465853E-2  
 1.069767441860465E9    -5.166543616168202E-2   4.457628001108557E-2  -7.249499644987276E-1  -6.784963808298113E-1  -7.164988180193129E-1  -6.797650865972043E-1  -4.049552436210216E-2   5.267989819617951E-2  
