#  HZ   S   RI   R     50.0 
! Rohde & Schwarz ZVL13 2Ports - Version 3.31 - 1303.6509k13 SN: 101088
! Date: 2023-03-06 14:35:28
! Data & Calibration Information:
! Trc4:S11(TOSM) Trc2:S21(TOSM) Trc3:S12(TOSM) Trc5:S22(TOSM)
! 
! 
! 
 1.000000000000000E9    -5.371819065883756E-2   3.335436950392148E-2  -6.086927286851838E-1  -7.819179040193559E-1  -6.150969696143926E-1  -7.807520483136178E-1  -4.551226094737650E-2   3.962884378475067E-2  
 1.000750187546887E9    -5.424499341472984E-2   3.315329788619666E-2  -6.109960442847968E-1  -7.806542977094650E-1  -6.155887469220019E-1  -7.793826102614405E-1  -4.631815882772207E-2   3.950656687029950E-2  
 1.001500375093774E9    -5.178602742403746E-2   3.308125754811277E-2  -6.116478010143422E-1  -7.798307219743730E-1  -6.156815297459609E-1  -7.769299020767213E-1  -4.613151913136245E-2   3.882646096877146E-2  
 1.002250562640660E9    -5.206953589618206E-2   3.571252919317257E-2  -6.126203121639690E-1  -7.785520274639129E-1  -6.168487780000580E-1  -7.759802968502045E-1  -4.545102614164353E-2   4.003746365660599E-2  
 1.003000750187547E9    -5.329750606417657E-2   3.523119282418108E-2  -6.145204268611118E-1  -7.778770561218263E-1  -6.181256079665198E-1  -7.742184394598010E-1  -4.541256109252573E-2   3.980092177177908E-2  
 1.003750937734434E9    -5.265082046017052E-2   3.509525824925670E-2  -6.170564422108475E-1  -7.766855458021162E-1  -6.184005153207126E-1  -7.731221594810488E-1  -4.632955602928997E-2   4.010893963298656E-2  
 1.004501125281320E9    -5.288251749053598E-2   3.512215048457573E-2  -6.171598487788795E-1  -7.756899784803392E-1  -6.196169702288578E-1  -7.721706652045252E-1  -4.647524771839381E-2   4.111494576418287E-2  
 1.005251312828207E9    -5.241398343816401E-2   3.637128548373136E-2  -6.195969406755726E-1  -7.743639123439791E-1  -6.204054071998904E-1  -7.708570438623431E-1  -4.760089930519463E-2   4.042630975072845E-2  
 1.006001500375094E9    -5.258609488606453E-2   3.715646328833537E-2  -6.212664336287136E-1  -7.737980068325997E-1  -6.215946217928006E-1  -7.690727530121804E-1  -4.562715238332749E-2   3.994877184818297E-2  
 1.006751687921981E9    -5.238061455637217E-2   3.621659446057163E-2  -6.225789914763129E-1  -7.726587583422662E-1  -6.215811350891154E-1  -7.678898336887360E-1  -4.687128421291709E-2   4.078599497755999E-2  
 1.007501875468867E9    -5.134755012020470E-2   3.706215497777306E-2  -6.236697892047772E-1  -7.712391853928565E-1  -6.226166146890998E-1  -7.668812074065210E-1  -4.623218152672053E-2   4.086296579322513E-2  
 1.008252063015754E9    -5.310496351495386E-2   3.622221051299303E-2  -6.255747009913498E-1  -7.696168100237847E-1  -6.234825722441517E-1  -7.654528263211252E-1  -4.542250496894121E-2   4.070029328002936E-2  
 1.009002250562641E9    -5.248544552549721E-2   3.780417110280601E-2  -6.274780644240260E-1  -7.695716888308526E-1  -6.261556055242405E-1  -7.628748298287393E-1  -4.591523384675383E-2   4.096946907828222E-2  
 1.009752438109527E9    -5.239802968874575E-2   3.824618892461171E-2  -6.269626885651009E-1  -7.683023273348808E-1  -6.245401362009060E-1  -7.636983813047409E-1  -4.850960627943279E-2   4.178319824413897E-2  
 1.010502625656414E9    -5.217223532125356E-2   3.689040059224654E-2  -6.300559237669040E-1  -7.666831403374673E-1  -6.255585468597282E-1  -7.629089205265047E-1  -4.658557928353550E-2   4.096763893741925E-2  
 1.011252813203301E9    -5.145011328533292E-2   3.823230987801892E-2  -6.311933554131637E-1  -7.656495677828790E-1  -6.259317335358590E-1  -7.618325801491739E-1  -4.690376311168076E-2   4.145158498949846E-2  
 1.012003000750188E9    -5.162102688476444E-2   3.786260658299136E-2  -6.332391523351719E-1  -7.649371077418328E-1  -6.263684511173201E-1  -7.605411919355393E-1  -4.651434772089124E-2   4.140694326923974E-2  
 1.012753188297074E9    -5.161258046329022E-2   3.881932359329784E-2  -6.340700396292474E-1  -7.626966913342477E-1  -6.281321821087875E-1  -7.595276929736139E-1  -4.761578377708794E-2   4.150123220165254E-2  
 1.013503375843961E9    -5.216006238758564E-2   3.915809749535477E-2  -6.356950433528410E-1  -7.614317328929903E-1  -6.285317493287120E-1  -7.588214766383172E-1  -4.685201859846713E-2   4.120831541091176E-2  
 1.014253563390848E9    -5.272010320797563E-2   4.021608681464654E-2  -6.369087973032834E-1  -7.611145624518395E-1  -6.288195459708504E-1  -7.582188868522646E-1  -4.742182420939206E-2   4.230696820826337E-2  
 1.015003750937735E9    -5.367250916734339E-2   3.980678568831290E-2  -6.369001334380073E-1  -7.601886848211288E-1  -6.288917102165810E-1  -7.590970582365991E-1  -4.725943654775620E-2   4.319045859786429E-2  
 1.015753938484621E9    -5.349248655885459E-2   4.085380997751879E-2  -6.392590658714920E-1  -7.592699609994889E-1  -6.307208235814629E-1  -7.586694029569626E-1  -4.770251436904074E-2   4.191930911515757E-2  
 1.016504126031508E9    -5.267577748000623E-2   4.130918255116843E-2  -6.419214316473951E-1  -7.564411496520043E-1  -6.328233379717707E-1  -7.564071160554887E-1  -4.706419687718153E-2   4.201489817718580E-2  
 1.017254313578395E9    -5.344371431693436E-2   4.232874955099654E-2  -6.432777695689128E-1  -7.544640573859216E-1  -6.330323049354837E-1  -7.557027888894082E-1  -4.674390119314195E-2   4.161995444912500E-2  
 1.018004501125281E9    -5.335940369591118E-2   4.139263900060129E-2  -6.424726937328067E-1  -7.549891815781593E-1  -6.336743464814097E-1  -7.559177257418632E-1  -4.725409111008050E-2   4.228737842276955E-2  
 1.018754688672168E9    -5.310574697330595E-2   4.159477950821679E-2  -6.471106482479000E-1  -7.512461692094803E-1  -6.352472911248897E-1  -7.549881140589716E-1  -4.743161850422623E-2   4.239231315184230E-2  
 1.019504876219055E9    -5.192169310897589E-2   4.254765364843554E-2  -6.476032044227319E-1  -7.505353122353555E-1  -6.360977446911762E-1  -7.549369147419931E-1  -4.707317145168782E-2   4.192446969842151E-2  
 1.020255063765942E9    -5.332796931266785E-2   4.318835453261992E-2  -6.468351171783581E-1  -7.504743245244027E-1  -6.373618501871914E-1  -7.543180118799211E-1  -4.720554634556175E-2   4.373527034613838E-2  
 1.021005251312828E9    -5.320924212411046E-2   4.231439223515409E-2  -6.488597306682581E-1  -7.485942068099977E-1  -6.385542763932578E-1  -7.536687163710594E-1  -4.740334931388497E-2   4.278112402955375E-2  
 1.021755438859715E9    -5.304533420875669E-2   4.309986459150152E-2  -6.506423882162146E-1  -7.475267044305802E-1  -6.395729008869453E-1  -7.547702267169953E-1  -4.558767789974809E-2   4.233238547634061E-2  
 1.022505626406602E9    -5.339678718149662E-2   4.343531492566687E-2  -6.518820806583052E-1  -7.473136917948723E-1  -6.411543335016542E-1  -7.522193486690524E-1  -4.622952497005463E-2   4.372993926453958E-2  
 1.023255813953488E9    -5.313874167203904E-2   4.400500587232838E-2  -6.530764378932548E-1  -7.451902860999108E-1  -6.420596318584659E-1  -7.524923617839813E-1  -4.640448898449541E-2   4.409877224610531E-2  
 1.024006001500375E9    -5.257597213238478E-2   4.508050627429409E-2  -6.542541590402451E-1  -7.446556367874146E-1  -6.439491804537442E-1  -7.522728141546251E-1  -4.596657469496131E-2   4.392460542931382E-2  
 1.024756189047262E9    -5.287930679321290E-2   4.380668921184362E-2  -6.560256270063997E-1  -7.425446093678475E-1  -6.460327348901027E-1  -7.501132369041446E-1  -4.706755881384016E-2   4.442449376485069E-2  
 1.025506376594149E9    -5.326149755343797E-2   4.298962246354502E-2  -6.569675197287553E-1  -7.419488132596017E-1  -6.470799463901282E-1  -7.502453296780587E-1  -4.711509851738812E-2   4.369311048495770E-2  
 1.026256564141035E9    -5.261121775582434E-2   4.384304232453660E-2  -6.573595505912631E-1  -7.405895169377328E-1  -6.498711135700884E-1  -7.498551951050758E-1  -4.584078181535006E-2   4.466742350255504E-2  
 1.027006751687922E9    -5.298950627818704E-2   4.399286639580587E-2  -6.587768760902939E-1  -7.406128228902817E-1  -6.507719396250672E-1  -7.488800611495973E-1  -4.619673969596626E-2   4.494532020684647E-2  
 1.027756939234809E9    -5.263054557517170E-2   4.419507674798925E-2  -6.586703931555308E-1  -7.391578495502472E-1  -6.507332620331635E-1  -7.490887075662616E-1  -4.569711393117906E-2   4.624473506630571E-2  
 1.028507126781695E9    -5.354042789712548E-2   4.389994720905922E-2  -6.600084306281637E-1  -7.365951359272004E-1  -6.541417832154587E-1  -7.481863629817962E-1  -4.636696143075825E-2   4.566286509294970E-2  
 1.029257314328582E9    -5.277487341687084E-2   4.524355113428182E-2  -6.622347406064976E-1  -7.354630034565928E-1  -6.558156857441942E-1  -7.467825512290001E-1  -4.643580280616880E-2   4.607476181049662E-2  
 1.030007501875469E9    -5.235972203314304E-2   4.321448275228924E-2  -6.631562070045991E-1  -7.343447381258013E-1  -6.584366189727855E-1  -7.450713549256326E-1  -4.701907574757935E-2   4.564106915742186E-2  
 1.030757689422356E9    -5.274099031835796E-2   4.330808754567465E-2  -6.654297929799354E-1  -7.324102234244346E-1  -6.582020656379350E-1  -7.447405787110331E-1  -4.503547169640661E-2   4.525114388677559E-2  
 1.031507876969242E9    -5.366464210301638E-2   4.277442128846001E-2  -6.666497321553654E-1  -7.298817449808122E-1  -6.613295409652545E-1  -7.444896235466005E-1  -4.537230523675681E-2   4.677002570451651E-2  
 1.032258064516129E9    -5.393079016357660E-2   4.268574356620770E-2  -6.662318769133798E-1  -7.305257766246796E-1  -6.629638214743961E-1  -7.429374021291734E-1  -4.577147173136473E-2   4.623789336881391E-2  
 1.033008252063016E9    -5.353194633126261E-2   4.191913401062909E-2  -6.663665623968282E-1  -7.290078845024109E-1  -6.649348990148364E-1  -7.427814878225328E-1  -4.552242417261005E-2   4.694035265329391E-2  
 1.033758439609903E9    -5.260445008054376E-2   4.238167049941857E-2  -6.684073383511658E-1  -7.278478691577913E-1  -6.658220119793429E-1  -7.409208070039750E-1  -4.636556172370911E-2   4.627934777922434E-2  
 1.034508627156789E9    -5.408361929655076E-2   4.182326297393001E-2  -6.683411571428776E-1  -7.276862617135048E-1  -6.680782351079367E-1  -7.406579343080522E-1  -4.497638832405210E-2   4.805106051593524E-2  
 1.035258814703676E9    -5.459872397780418E-2   4.205299105916895E-2  -6.701812239504930E-1  -7.255023962855342E-1  -6.701772769780195E-1  -7.391662970185281E-1  -4.492125811427832E-2   4.788441021740489E-2  
 1.036009002250563E9    -5.460208612680437E-2   4.137682623800731E-2  -6.705210447635295E-1  -7.256762106418611E-1  -6.710372607487287E-1  -7.380966206192970E-1  -4.477578332647681E-2   4.774849107887301E-2  
 1.036759189797449E9    -5.507699692249298E-2   4.185070091333083E-2  -6.723431742874741E-1  -7.228327670693397E-1  -6.726152653983418E-1  -7.376670058369638E-1  -4.498793101683259E-2   4.885039416525974E-2  
 1.037509377344336E9    -5.427906497195364E-2   4.084290971827027E-2  -6.726869219382911E-1  -7.223930860161781E-1  -6.750990442331020E-1  -7.358314760327338E-1  -4.428644482046366E-2   4.879434454712082E-2  
 1.038259564891223E9    -5.555450223386288E-2   3.930505239772736E-2  -6.752895570461107E-1  -7.201120060682298E-1  -6.774340286709576E-1  -7.340524668693544E-1  -4.487184260413051E-2   4.905505978017624E-2  
 1.039009752438110E9    -5.573114160820843E-2   4.015202350343876E-2  -6.745001699602090E-1  -7.212219418883324E-1  -6.780851613322779E-1  -7.338406503796578E-1  -4.307492691650987E-2   4.929425372478940E-2  
 1.039759939984996E9    -5.561333084851504E-2   3.952993849949614E-2  -6.756366865612360E-1  -7.192453029155733E-1  -6.796834901355762E-1  -7.322847461700440E-1  -4.335161802917720E-2   4.927945932774428E-2  
 1.040510127531883E9    -5.546209454908968E-2   3.984803273843970E-2  -6.771376260918461E-1  -7.180654687285423E-1  -6.816704632293280E-1  -7.300891942977905E-1  -4.381418357044459E-2   4.978550050023015E-2  
 1.041260315078770E9    -5.523490062355996E-2   3.936708907106067E-2  -6.775278251620006E-1  -7.172977888584136E-1  -6.837482183918311E-1  -7.288026846051218E-1  -4.402600309997798E-2   4.985585455568274E-2  
 1.042010502625656E9    -5.706146685779096E-2   3.897023198866589E-2  -6.798139061527624E-1  -7.159883738160134E-1  -6.851911888539576E-1  -7.263674809932709E-1  -4.254593249037862E-2   5.048804980955512E-2  
 1.042760690172543E9    -5.612770478054883E-2   3.930690440897960E-2  -6.800047363653934E-1  -7.154433470368387E-1  -6.863374199778989E-1  -7.257816895842553E-1  -4.202190810069443E-2   5.031601949359588E-2  
 1.043510877719430E9    -5.718182481080295E-2   3.992156507491535E-2  -6.807599583219699E-1  -7.144023668169978E-1  -6.884348153575287E-1  -7.219320352673532E-1  -4.242856431007385E-2   5.045948651936318E-2  
 1.044261065266317E9    -5.672825312241912E-2   3.944012948490321E-2  -6.818341680631963E-1  -7.133932427763939E-1  -6.901019941853943E-1  -7.216330189704894E-1  -4.193273870646953E-2   5.166889742646329E-2  
 1.045011252813203E9    -5.595916050300002E-2   3.855003309907656E-2  -6.841167028376670E-1  -7.119658371210100E-1  -6.917527709780370E-1  -7.196817997694017E-1  -4.183449184894563E-2   5.048705032232334E-2  
 1.045761440360090E9    -5.678699850291015E-2   3.917705456729425E-2  -6.840917882926396E-1  -7.110904133915902E-1  -6.926142221986864E-1  -7.182121527194976E-1  -4.092437976971269E-2   5.152443780960903E-2  
 1.046511627906977E9    -5.733083038032055E-2   3.900959158330065E-2  -6.862377628888116E-1  -7.094632447957991E-1  -6.944877402832851E-1  -7.159388722181321E-1  -4.128323823586106E-2   5.165044846171449E-2  
 1.047261815453864E9    -5.643280930072069E-2   3.915345322713117E-2  -6.875105655231970E-1  -7.091043461561204E-1  -6.955044785513206E-1  -7.132968910932541E-1  -4.090699062496424E-2   5.063481533107316E-2  
 1.048012003000750E9    -5.772437675669789E-2   3.965863733756202E-2  -6.879751279598821E-1  -7.082089780569078E-1  -6.965904011864524E-1  -7.121546276807785E-1  -4.114829475060106E-2   5.196911389956712E-2  
 1.048762190547637E9    -5.695245676115156E-2   3.871402838394502E-2  -6.889411863732202E-1  -7.071745367646219E-1  -6.980698902837530E-1  -7.100888064503671E-1  -4.109337521344424E-2   5.097426301989648E-2  
 1.049512378094524E9    -5.645585401356221E-2   3.920570662332221E-2  -6.904220374360652E-1  -7.065994099378585E-1  -6.987426786820637E-1  -7.085598448514938E-1  -4.056832209974528E-2   5.237790390332506E-2  
 1.050262565641410E9    -5.652799973636866E-2   3.941246595187301E-2  -6.922992330274000E-1  -7.060019759535791E-1  -7.000991252784548E-1  -7.063449332118035E-1  -4.068221872672439E-2   5.181087706825773E-2  
 1.051012753188297E9    -5.704976715520025E-2   4.002226015886152E-2  -6.932428600755335E-1  -7.041069755554199E-1  -7.006632706265947E-1  -7.049480971097948E-1  -3.996709305047989E-2   5.166626864184352E-2  
 1.051762940735184E9    -5.577329429984093E-2   3.963298677273305E-2  -6.939207666113194E-1  -7.035984160304071E-1  -7.011309510378921E-1  -7.037254091501237E-1  -4.102804258465767E-2   5.235423298892712E-2  
 1.052513128282071E9    -5.554126661643386E-2   4.046026118801673E-2  -6.957632644952750E-1  -7.027294981479645E-1  -7.019900753363580E-1  -7.008979317545891E-1  -3.996206156909466E-2   5.152929700108914E-2  
 1.053263315828957E9    -5.625342153757811E-2   3.915366801744172E-2  -6.968819688196618E-1  -7.025927906036377E-1  -7.017869979067380E-1  -6.993903420567513E-1  -3.974978031590582E-2   5.168509443979819E-2  
 1.054013503375844E9    -5.564454080909492E-2   4.007759024708491E-2  -6.986007081702687E-1  -7.007855342626573E-1  -7.032431438813740E-1  -6.987547991275789E-1  -4.090716072171927E-2   5.119174873297593E-2  
 1.054763690922731E9    -5.489758931100369E-2   3.963780239694527E-2  -6.999308493343684E-1  -6.998996075391770E-1  -7.036895263728068E-1  -6.960799881815912E-1  -4.035740434005857E-2   5.165624669937693E-2  
 1.055513878469617E9    -5.489170314744115E-2   4.013776555826226E-2  -7.002132584952340E-1  -6.988004705905915E-1  -7.047840084869755E-1  -6.951793385744096E-1  -3.985886885970832E-2   5.114369343058451E-2  
 1.056264066016504E9    -5.493945270031692E-2   3.966227178643074E-2  -7.014321665923275E-1  -6.967722515463831E-1  -7.051141476540075E-1  -6.938413264155389E-1  -4.001808445528151E-2   5.145681339684367E-2  
 1.057014253563391E9    -5.400414063781499E-2   3.979662993799189E-2  -7.040751390597547E-1  -6.970912040472032E-1  -7.052546633580434E-1  -6.921728237867357E-1  -3.943660696223379E-2   5.219319916543506E-2  
 1.057764441110278E9    -5.327753106504679E-2   4.000013696549618E-2  -7.050271528353781E-1  -6.954877142906191E-1  -7.062385983346666E-1  -6.912777011990547E-1  -4.036252880468965E-2   5.225061077773514E-2  
 1.058514628657164E9    -5.383256649971008E-2   3.994262979675518E-2  -7.057189142121665E-1  -6.939355031847955E-1  -7.069027610862311E-1  -6.903905121684076E-1  -3.977830503880978E-2   5.233969938163351E-2  
 1.059264816204051E9    -5.352385126799346E-2   4.056288628732725E-2  -7.073022443437127E-1  -6.942193322181701E-1  -7.067558247295382E-1  -6.884078093171119E-1  -3.993437100946903E-2   5.240364134511968E-2  
 1.060015003750938E9    -5.270392834022643E-2   3.962842131486029E-2  -7.084195271586546E-1  -6.927525028586389E-1  -7.074137596809680E-1  -6.873297033309938E-1  -3.977116752043367E-2   5.237805278426751E-2  
 1.060765191297825E9    -5.296623696759344E-2   4.004701309080318E-2  -7.094039701256567E-1  -6.919439720511436E-1  -7.084504895054903E-1  -6.849586870074272E-1  -3.976367325335741E-2   5.181749342815750E-2  
 1.061515378844711E9    -5.304568876326084E-2   4.034629280960147E-2  -7.116421158586738E-1  -6.894973783493044E-1  -7.088027274076050E-1  -6.856543316841126E-1  -3.963492602482439E-2   5.180442323252173E-2  
 1.062265566391598E9    -5.242141332477332E-2   3.956888124439784E-2  -7.125691619185337E-1  -6.883792775869370E-1  -7.094155609624199E-1  -6.845564779043200E-1  -3.973547104373575E-2   5.218332313337623E-2  
 1.063015753938485E9    -5.143271175771952E-2   4.074515666292849E-2  -7.139783899178246E-1  -6.878892154693604E-1  -7.093422694188848E-1  -6.831483770608904E-1  -3.976826791837812E-2   5.286494235403331E-2  
 1.063765941485371E9    -5.235193612426520E-2   3.969924730927069E-2  -7.149850299853056E-1  -6.862960170507432E-1  -7.105321641876619E-1  -6.811796823143960E-1  -3.940918298065664E-2   5.246006816021733E-2  
 1.064516129032258E9    -5.153170973807573E-2   4.111041155681279E-2  -7.166759348482178E-1  -6.848038216233254E-1  -7.111769783664071E-1  -6.810178129673004E-1  -3.912450003996493E-2   5.270509037493139E-2  
 1.065266316579145E9    -5.218788879737259E-2   4.150548483142579E-2  -7.185923429740088E-1  -6.837829281687737E-1  -7.113727275478695E-1  -6.805875433683397E-1  -4.037645218521357E-2   5.177070353973086E-2  
 1.066016504126032E9    -4.930259786173702E-2   4.152822018351222E-2  -7.190986004674513E-1  -6.822744135856629E-1  -7.127966601162431E-1  -6.800386390686035E-1  -3.870375565066934E-2   5.189617429495920E-2  
 1.066766691672918E9    -5.023481657728554E-2   4.185767680949402E-2  -7.208289839061627E-1  -6.809712165594101E-1  -7.133604783264264E-1  -6.789937888383867E-1  -3.987996290996671E-2   5.193202133102579E-2  
 1.067516879219805E9    -5.048537864908577E-2   4.319284215225022E-2  -7.218298428435733E-1  -6.794525279402733E-1  -7.136346653400468E-1  -6.773238812088966E-1  -3.897303830459715E-2   5.127845454674199E-2  
 1.068267066766692E9    -5.053072218224407E-2   4.324867734575002E-2  -7.222178717949815E-1  -6.781380000114442E-1  -7.152394042143306E-1  -6.771566839814187E-1  -3.933451725542546E-2   5.191327687213523E-2  
 1.069017254313578E9    -4.982050341367722E-2   4.338627043152148E-2  -7.244037403930923E-1  -6.760340707302094E-1  -7.152268400758232E-1  -6.764652931094171E-1  -3.985168251767755E-2   5.188063616429779E-2  
 1.069767441860465E9    -5.029530302062631E-2   4.437369747587445E-2  -7.252460385772115E-1  -6.754698856472969E-1  -7.169568252432156E-1  -6.764333902001383E-1  -3.954582675546409E-2   5.252507557589752E-2  
