#  HZ   S   RI   R     50.0 
! Rohde & Schwarz ZVL13 2Ports - Version 3.31 - 1303.6509k13 SN: 101088
! Date: 2023-03-06 15:59:28
! Data & Calibration Information:
! Trc4:S11(TOSM) Trc2:S21(TOSM) Trc3:S12(TOSM) Trc5:S22(TOSM)
! 
! 
! 
 1.000000000000000E10    3.171829048709308E-1   8.089829936537596E-2  -8.316605930157131E-1   1.899184600820564E-1  -8.140391903945071E-1   2.300296056927968E-1   2.308408467177134E-1   1.896759637271607E-1  
 1.000075018754689E10    3.173110557001764E-1   8.100217165630069E-2  -8.322650332196891E-1   1.937732111961800E-1  -8.113218555884818E-1   2.305127103722334E-1   2.323512014889143E-1   1.917976121114461E-1  
 1.000150037509377E10    3.182777817204304E-1   7.888967993709709E-2  -8.341462637678699E-1   1.965193644004171E-1  -8.095111730066558E-1   2.274451965042917E-1   2.349361157226254E-1   1.903276868664559E-1  
 1.000225056264066E10    3.174077094647078E-1   7.836584063091424E-2  -8.363889817696456E-1   1.957133733609454E-1  -8.071926772061303E-1   2.249300231619572E-1   2.363537779755837E-1   1.884970500040558E-1  
 1.000300075018755E10    3.170328171933400E-1   7.951872218981057E-2  -8.378919518311466E-1   1.993707403566786E-1  -8.030654882546493E-1   2.237447285061432E-1   2.392997212433827E-1   1.909210632889079E-1  
 1.000375093773443E10    3.191245128374861E-1   7.659021473717723E-2  -8.393634094817117E-1   2.004670624089719E-1  -8.034683908648951E-1   2.206766471156990E-1   2.411849037616743E-1   1.916125433272458E-1  
 1.000450112528132E10    3.150273774184638E-1   7.609549529922066E-2  -8.385098123034871E-1   2.023333394392668E-1  -8.002173923654370E-1   2.193837966593259E-1   2.458554968332050E-1   1.938838854799460E-1  
 1.000525131282821E10    3.162486391808104E-1   7.852395713281733E-2  -8.388900952634479E-1   2.075691152264673E-1  -8.003889717099861E-1   2.164434438742474E-1   2.442207606418488E-1   1.920479290796060E-1  
 1.000600150037509E10    3.178612677653584E-1   7.558360998307007E-2  -8.418892766944109E-1   2.099523428808122E-1  -7.979521727493416E-1   2.127772340695209E-1   2.469625416932690E-1   1.918449731287656E-1  
 1.000675168792198E10    3.181615879468353E-1   7.474210930125810E-2  -8.425038813734985E-1   2.162966915904033E-1  -7.970320939229000E-1   2.097843928548172E-1   2.483416730455382E-1   1.943911100587779E-1  
 1.000750187546887E10    3.168175966908853E-1   7.647134982231843E-2  -8.457874577986403E-1   2.181419022135892E-1  -7.972284036150901E-1   2.062462667219036E-1   2.519290487727166E-1   1.972577786128797E-1  
 1.000825206301576E10    3.158923249435645E-1   7.435293068603865E-2  -8.425611920053103E-1   2.265802277379636E-1  -7.955534315582687E-1   2.054424198519881E-1   2.527627108487215E-1   1.981935715157949E-1  
 1.000900225056264E10    3.235245818214245E-1   7.113367545653355E-2  -8.458588623509988E-1   2.318516095593610E-1  -7.937520814111093E-1   2.065574974903251E-1   2.528626977028251E-1   2.029729866815649E-1  
 1.000975243810953E10    3.198264033337342E-1   7.393098088438871E-2  -8.440616505242657E-1   2.326957972955256E-1  -7.913183261759791E-1   1.987920595000932E-1   2.560927764144635E-1   2.019345613601765E-1  
 1.001050262565641E10    3.252354368983676E-1   7.447776837862383E-2  -8.405114132790732E-1   2.367494393778114E-1  -7.931343302322340E-1   1.956460433900579E-1   2.587154669199220E-1   2.018863419206094E-1  
 1.001125281320330E10    3.237351932636334E-1   7.460803007390686E-2  -8.425305803363942E-1   2.433380611232485E-1  -7.911151657666569E-1   1.918818795529049E-1   2.597520123033191E-1   2.025042040867793E-1  
 1.001200300075019E10    3.259009027020111E-1   7.273292518649614E-2  -8.403046587473052E-1   2.478531915258824E-1  -7.921820806107071E-1   1.901997361110777E-1   2.608765964049126E-1   2.092760206541346E-1  
 1.001275318829707E10    3.258097135256997E-1   7.222845249395909E-2  -8.363811505786715E-1   2.548327296497553E-1  -7.915893404851455E-1   1.875946822355769E-1   2.653584391466156E-1   2.108057237069125E-1  
 1.001350337584396E10    3.282934406330723E-1   7.362317286628770E-2  -8.372000613899139E-1   2.562369652963305E-1  -7.940011696148975E-1   1.820208276587022E-1   2.623487662176105E-1   2.135221135560639E-1  
 1.001425356339085E10    3.286030954929451E-1   7.032701170272745E-2  -8.379247255834197E-1   2.603016825515552E-1  -7.917121951108459E-1   1.816422771469765E-1   2.650981512309040E-1   2.143553239166251E-1  
 1.001500375093774E10    3.329235147269060E-1   6.698623327497770E-2  -8.331919735310540E-1   2.668862556616855E-1  -7.922385345520625E-1   1.773082192609516E-1   2.647730948632061E-1   2.150639709049792E-1  
 1.001575393848462E10    3.319206105993533E-1   7.022598482257818E-2  -8.273833613834076E-1   2.755434607115714E-1  -7.946345808144119E-1   1.743361657645225E-1   2.670255570285553E-1   2.190475502250957E-1  
 1.001650412603151E10    3.354577328846133E-1   6.601577297419572E-2  -8.252405463632244E-1   2.788675392757065E-1  -7.937681638521226E-1   1.731549984229464E-1   2.702157146830485E-1   2.209997737309046E-1  
 1.001725431357839E10    3.348463627875434E-1   6.685939160877112E-2  -8.211597333144517E-1   2.804248012152958E-1  -7.957570879039803E-1   1.694637574034520E-1   2.703831683855309E-1   2.238782024356887E-1  
 1.001800450112528E10    3.361617000290906E-1   6.460379786061266E-2  -8.200449015778820E-1   2.877692897893220E-1  -7.959873138226632E-1   1.660328277120061E-1   2.726281365438467E-1   2.231523471135287E-1  
 1.001875468867217E10    3.417673442813714E-1   6.396373191489252E-2  -8.162876824059371E-1   2.913259832267968E-1  -7.960138336355773E-1   1.661173798789466E-1   2.701770771759561E-1   2.257895606217276E-1  
 1.001950487621906E10    3.384301821017426E-1   6.060870288251241E-2  -8.114144614954537E-1   2.935502197801723E-1  -7.969887507079296E-1   1.644256867165183E-1   2.715367595005640E-1   2.296497630321883E-1  
 1.002025506376594E10    3.413607881376946E-1   6.118785088247559E-2  -8.067901385600391E-1   2.988928139902407E-1  -8.016820551122720E-1   1.626827958907447E-1   2.746246415308418E-1   2.309175299534294E-1  
 1.002100525131283E10    3.414938411657095E-1   5.835790007358467E-2  -8.046815170614015E-1   3.038745309084595E-1  -8.004399068013600E-1   1.624165626088248E-1   2.710125403490557E-1   2.312522561812312E-1  
 1.002175543885972E10    3.437152644429757E-1   5.765606529417242E-2  -8.002516850866415E-1   3.071419154492195E-1  -8.020557691738712E-1   1.631125265060386E-1   2.739230246802708E-1   2.306407867887283E-1  
 1.002250562640660E10    3.441032660341707E-1   5.425538101252223E-2  -7.946876927317231E-1   3.120555796699625E-1  -8.060724084062285E-1   1.636123763210960E-1   2.770069934120593E-1   2.335101996155821E-1  
 1.002325581395349E10    3.430695207922472E-1   5.547768444588679E-2  -7.904695094319589E-1   3.133868359438504E-1  -8.047645698720771E-1   1.631327395066949E-1   2.715704329115006E-1   2.310041584192007E-1  
 1.002400600150038E10    3.455770707620996E-1   5.310188195899841E-2  -7.886731256277860E-1   3.143170126875540E-1  -8.073346887942079E-1   1.640725764778475E-1   2.727621784010257E-1   2.344056339078240E-1  
 1.002475618904726E10    3.468444457715116E-1   5.046171768930803E-2  -7.825582784082078E-1   3.172519109136259E-1  -8.073707999165806E-1   1.657833682628553E-1   2.740647425435051E-1   2.335959575772708E-1  
 1.002550637659415E10    3.490577915989507E-1   4.778850191790038E-2  -7.793190150704509E-1   3.221719503021206E-1  -8.093785508709614E-1   1.666933266560290E-1   2.737119697788334E-1   2.326746671874769E-1  
 1.002625656414104E10    3.468995534009022E-1   4.733640834535115E-2  -7.743410268375320E-1   3.216907026219680E-1  -8.111992772633585E-1   1.685955573239714E-1   2.707970985764722E-1   2.334346382663059E-1  
 1.002700675168792E10    3.475876813322457E-1   4.345318388701757E-2  -7.725753321959168E-1   3.224386769547337E-1  -8.150229842804683E-1   1.706231104015685E-1   2.717039010645180E-1   2.367134718049017E-1  
 1.002775693923481E10    3.474812728001664E-1   4.321294619556691E-2  -7.697723104411400E-1   3.265262245482928E-1  -8.138180340632089E-1   1.718012131866053E-1   2.711800696468144E-1   2.338617994954680E-1  
 1.002850712678170E10    3.463390299201070E-1   4.192316918881116E-2  -7.686864382565026E-1   3.210867892812526E-1  -8.156519068799134E-1   1.736951171373854E-1   2.692558919412019E-1   2.343126814386516E-1  
 1.002925731432858E10    3.468731365958279E-1   4.239085536784059E-2  -7.620403858894775E-1   3.260366301095721E-1  -8.158568634456813E-1   1.788337290697940E-1   2.687786955411043E-1   2.329939479844324E-1  
 1.003000750187547E10    3.467261221079885E-1   3.894982221382706E-2  -7.593558193838486E-1   3.283182364182316E-1  -8.161092804861163E-1   1.856275229709806E-1   2.648939342580866E-1   2.341369477310409E-1  
 1.003075768942236E10    3.482444869200261E-1   3.801637827170777E-2  -7.573043147235177E-1   3.247579833655296E-1  -8.171705153291500E-1   1.903621401293833E-1   2.648362361633186E-1   2.327377770124727E-1  
 1.003150787696924E10    3.481736779457983E-1   3.547910717781885E-2  -7.569210641467431E-1   3.203148891990931E-1  -8.203248190753629E-1   1.866415481507771E-1   2.598324107092702E-1   2.346590013627640E-1  
 1.003225806451613E10    3.468785397401734E-1   3.970341866271394E-2  -7.526623372418227E-1   3.239442266844700E-1  -8.179853213861623E-1   1.996421788498841E-1   2.621952399144494E-1   2.318509232061303E-1  
 1.003300825206302E10    3.439092285129401E-1   3.838749748155535E-2  -7.488746678939258E-1   3.251114900390766E-1  -8.171334390748605E-1   2.077571885924346E-1   2.621108565212635E-1   2.316039808414919E-1  
 1.003375843960990E10    3.468410804029540E-1   3.529589422090208E-2  -7.482145579330304E-1   3.207252613810764E-1  -8.170702228899199E-1   2.090514039593732E-1   2.557405902671698E-1   2.304827936589111E-1  
 1.003450862715679E10    3.462757912371149E-1   3.473060145131139E-2  -7.473147069718515E-1   3.197785271475914E-1  -8.149861089045285E-1   2.119355216607465E-1   2.548916599910777E-1   2.319315298239688E-1  
 1.003525881470368E10    3.462941015633213E-1   3.898134600072989E-2  -7.444174614222132E-1   3.179163981057858E-1  -8.133906148027617E-1   2.185789076214572E-1   2.526690444967664E-1   2.290611578358329E-1  
 1.003600900225056E10    3.479691186878895E-1   3.513639603562789E-2  -7.450367827848415E-1   3.189085680361248E-1  -8.147803997732028E-1   2.222259812587446E-1   2.517137449177019E-1   2.319177532891855E-1  
 1.003675918979745E10    3.406894923586759E-1   3.575016510743987E-2  -7.430504090972064E-1   3.167201954897788E-1  -8.133083734668397E-1   2.300731411675250E-1   2.509541533742432E-1   2.272270208988836E-1  
 1.003750937734434E10    3.447388677660053E-1   3.733630459837879E-2  -7.436235551758501E-1   3.150750188241391E-1  -8.109533178912527E-1   2.348813539399654E-1   2.473427980844873E-1   2.268431650872479E-1  
 1.003825956489122E10    3.451014193105865E-1   3.674416540789149E-2  -7.435554688082672E-1   3.145898823388241E-1  -8.092525765054817E-1   2.405292586796084E-1   2.461305837915857E-1   2.246602772049734E-1  
 1.003900975243811E10    3.437951161164387E-1   3.920929480389511E-2  -7.425881337813310E-1   3.136953601601959E-1  -8.060843201197364E-1   2.478368705769060E-1   2.448309159907437E-1   2.260418240363017E-1  
 1.003975993998500E10    3.412324759654984E-1   4.117940313430033E-2  -7.453169285018735E-1   3.118467272518515E-1  -8.049723051036646E-1   2.517414903134583E-1   2.423187406425090E-1   2.245134050526133E-1  
 1.004051012753188E10    3.438980810088905E-1   4.080513214935828E-2  -7.453102890502731E-1   3.090253588297024E-1  -8.035035222102183E-1   2.581398717556668E-1   2.388336887844969E-1   2.227596740252288E-1  
 1.004126031507877E10    3.440953419775452E-1   3.885230374647945E-2  -7.476034521583581E-1   3.052858248587840E-1  -8.004221667580449E-1   2.606344875633029E-1   2.369345421259235E-1   2.207982842794987E-1  
 1.004201050262566E10    3.429068878369844E-1   4.089962114458315E-2  -7.455233682842098E-1   3.052465057946259E-1  -7.970679511981320E-1   2.667231744348605E-1   2.368199075939488E-1   2.175377042201917E-1  
 1.004276069017254E10    3.406883343041779E-1   4.185457172182201E-2  -7.479120542278829E-1   3.044033629389920E-1  -7.965695877255612E-1   2.736669852825267E-1   2.369538153887446E-1   2.155912717971157E-1  
 1.004351087771943E10    3.433285975073536E-1   4.395597232095360E-2  -7.494605393457777E-1   3.035062009512062E-1  -7.945044587309537E-1   2.793744936062088E-1   2.369548768194757E-1   2.144099980713587E-1  
 1.004426106526632E10    3.430738108399755E-1   4.330700313435822E-2  -7.507984035744535E-1   3.020206958119709E-1  -7.899072789618149E-1   2.802600592539729E-1   2.360955454313684E-1   2.118543449967181E-1  
 1.004501125281320E10    3.405316722998660E-1   4.607992741065994E-2  -7.521002034699791E-1   3.030996985036526E-1  -7.880666380879602E-1   2.896864581158441E-1   2.368911758853700E-1   2.105395739708549E-1  
 1.004576144036009E10    3.397325426421629E-1   4.585134954672253E-2  -7.573691461869099E-1   2.993276622375651E-1  -7.873279279619040E-1   2.928251087101080E-1   2.348013787337215E-1   2.094368603775113E-1  
 1.004651162790698E10    3.427726731016926E-1   4.832454426348691E-2  -7.589242023066201E-1   2.937419680317392E-1  -7.856184801822143E-1   2.936742433484945E-1   2.354009461044850E-1   2.080307079453687E-1  
 1.004726181545386E10    3.451452662027074E-1   4.597715785992879E-2  -7.629072836203388E-1   2.922589723638341E-1  -7.804358570233385E-1   2.962233886272248E-1   2.339570573029533E-1   2.059943680432731E-1  
 1.004801200300075E10    3.376816467141487E-1   4.399448031027824E-2  -7.654792129439175E-1   2.929230388340548E-1  -7.773448955568996E-1   3.026906617439725E-1   2.308330418067457E-1   2.033782418535093E-1  
 1.004876219054764E10    3.416439220797054E-1   4.222425592331260E-2  -7.664971015576039E-1   2.953210767117808E-1  -7.743865970194754E-1   3.057270383320535E-1   2.351725567268720E-1   2.012604510522233E-1  
 1.004951237809452E10    3.425737966817866E-1   4.442076812029566E-2  -7.705467909381966E-1   2.889657477350648E-1  -7.758240183602640E-1   3.032030583313759E-1   2.351109238500780E-1   1.964375516249407E-1  
 1.005026256564141E10    3.418852058164555E-1   4.616543275844601E-2  -7.716485288975464E-1   2.927486310885630E-1  -7.700612987776359E-1   3.138341952722339E-1   2.373488942933953E-1   1.957576873159662E-1  
 1.005101275318830E10    3.417614243585165E-1   4.973647464008741E-2  -7.753314708725494E-1   2.909866864956339E-1  -7.676629016451355E-1   3.162836114369407E-1   2.370735168011851E-1   1.944066522562968E-1  
 1.005176294073518E10    3.407137100504581E-1   4.484387279690154E-2  -7.779783597388997E-1   2.900297535274816E-1  -7.668800701794347E-1   3.156428958526726E-1   2.397229125589623E-1   1.899127092633640E-1  
 1.005251312828207E10    3.390516367050556E-1   4.709886491312798E-2  -7.768978943172135E-1   2.926878450612089E-1  -7.632990825241987E-1   3.181860380901017E-1   2.412388747796609E-1   1.868928888916031E-1  
 1.005326331582896E10    3.396047369956252E-1   4.633766287193377E-2  -7.834673342209974E-1   2.913794634053617E-1  -7.619939564973691E-1   3.180158982418777E-1   2.412182586283578E-1   1.860444213691640E-1  
 1.005401350337584E10    3.381119148767931E-1   4.775779722229070E-2  -7.847170969086077E-1   2.928253998805461E-1  -7.594975007818681E-1   3.214783895072284E-1   2.458854593067620E-1   1.845978195120551E-1  
 1.005476369092273E10    3.401868753095405E-1   4.749122731851668E-2  -7.859344357135858E-1   2.949843548106407E-1  -7.592732718664623E-1   3.222313039316354E-1   2.440140602458590E-1   1.808229734245635E-1  
 1.005551387846962E10    3.390366669128164E-1   4.551277228947273E-2  -7.923620721969709E-1   2.943161800919464E-1  -7.577278149832830E-1   3.203951020030330E-1   2.461098092616887E-1   1.772379373890096E-1  
 1.005626406601650E10    3.387495080208978E-1   4.825327844746465E-2  -7.931837204125942E-1   2.963861168077400E-1  -7.566990966564009E-1   3.217873762406231E-1   2.458090064033258E-1   1.739407894118923E-1  
 1.005701425356339E10    3.370329401474181E-1   4.717785398631706E-2  -7.932747997307140E-1   2.995857674798871E-1  -7.551537231803952E-1   3.205130955088013E-1   2.501905437837272E-1   1.739053861008795E-1  
 1.005776444111028E10    3.377774591987243E-1   4.294822235964608E-2  -7.964511077751303E-1   3.019484106142116E-1  -7.560257277492882E-1   3.217826814314507E-1   2.521196640943643E-1   1.742075506072857E-1  
 1.005851462865716E10    3.376975011792887E-1   4.346947832858905E-2  -7.973629779209738E-1   3.054638861060897E-1  -7.529734897671392E-1   3.213463595143831E-1   2.532413944843006E-1   1.710352677069369E-1  
 1.005926481620405E10    3.374658789588418E-1   4.423481016412876E-2  -8.008592696796997E-1   3.063785667267208E-1  -7.547819423011386E-1   3.208222069424175E-1   2.536736791905656E-1   1.677533014334808E-1  
 1.006001500375094E10    3.359836785511469E-1   4.516381224035166E-2  -8.017999453793425E-1   3.067712589332108E-1  -7.533827577118710E-1   3.202423529718653E-1   2.558632209778283E-1   1.709022708781791E-1  
 1.006076519129783E10    3.371524484387705E-1   4.478997421054730E-2  -8.013980544841356E-1   3.119412123058385E-1  -7.518730247758798E-1   3.174943102463249E-1   2.571656956813702E-1   1.616549604541262E-1  
 1.006151537884471E10    3.363172234818243E-1   4.563839132723278E-2  -8.049199258022514E-1   3.141959213303598E-1  -7.521677024577116E-1   3.159047538283112E-1   2.612810168307281E-1   1.651339963700902E-1  
 1.006226556639160E10    3.364458133334746E-1   4.445408319052242E-2  -8.040077235381107E-1   3.187356611914333E-1  -7.533381094876567E-1   3.152125648287470E-1   2.635928450718165E-1   1.633193528962986E-1  
 1.006301575393848E10    3.378293438909869E-1   4.281748211524197E-2  -8.035322501680758E-1   3.237089363418296E-1  -7.526939381692421E-1   3.124545208701447E-1   2.666725802656573E-1   1.633756708238724E-1  
 1.006376594148537E10    3.399764025232450E-1   4.341812295185370E-2  -8.034476326678901E-1   3.238421689092495E-1  -7.531144052711737E-1   3.123564372390073E-1   2.706522542965919E-1   1.620062895041685E-1  
 1.006451612903226E10    3.372911307663477E-1   4.268231591287269E-2  -8.022282177557200E-1   3.281222446817452E-1  -7.529637267066501E-1   3.095727171000793E-1   2.719144021401111E-1   1.618851556854169E-1  
 1.006526631657915E10    3.375233948217786E-1   4.222510401226532E-2  -8.017981686512647E-1   3.329155683651513E-1  -7.562503092854715E-1   3.065182453236415E-1   2.762086999266943E-1   1.595389816425733E-1  
 1.006601650412603E10    3.355539711541127E-1   4.203393113798467E-2  -7.995803665786159E-1   3.344180203430995E-1  -7.580264672115722E-1   3.050013128048963E-1   2.773964084824789E-1   1.629531375140332E-1  
 1.006676669167292E10    3.415838883211760E-1   3.921718951449748E-2  -7.989046109740949E-1   3.405293499590318E-1  -7.557100132431469E-1   3.041176978947484E-1   2.797158633287349E-1   1.643694517128441E-1  
 1.006751687921981E10    3.417631227777824E-1   3.881398625211546E-2  -7.978827763832265E-1   3.451062737601495E-1  -7.607733443584512E-1   3.006912287730520E-1   2.815761265579424E-1   1.629594999717765E-1  
 1.006826706676669E10    3.437586807603028E-1   3.698676442626717E-2  -7.950567210599568E-1   3.467845569159820E-1  -7.594426852644194E-1   2.986900798825348E-1   2.889354961750091E-1   1.606129720836002E-1  
 1.006901725431358E10    3.419686409337379E-1   3.644443124891173E-2  -7.938517643775976E-1   3.485011988260696E-1  -7.616844690988756E-1   2.970734366194818E-1   2.896923294022358E-1   1.648989800849435E-1  
 1.006976744186047E10    3.429934900887462E-1   3.608309044223223E-2  -7.893598731694798E-1   3.520511141823332E-1  -7.641045223694426E-1   2.953337226195414E-1   2.901975107191294E-1   1.638601656784433E-1  
