#  HZ   S   RI   R     50.0 
! Rohde & Schwarz ZVL13 2Ports - Version 3.31 - 1303.6509k13 SN: 101088
! Date: 2023-03-06 15:57:56
! Data & Calibration Information:
! Trc4:S11(TOSM) Trc2:S21(TOSM) Trc3:S12(TOSM) Trc5:S22(TOSM)
! 
! 
! 
 1.000000000000000E10    3.160451669991017E-1   7.840100996475212E-2  -8.312297482277866E-1   1.913839735686779E-1  -8.139079594515031E-1   2.315224673300982E-1   2.317919934540988E-1   1.899109631063630E-1  
 1.000075018754689E10    3.170502760112286E-1   7.918660174926843E-2  -8.322687045147973E-1   1.957601275742054E-1  -8.110360771296070E-1   2.324956344217062E-1   2.324783747643233E-1   1.915815773086580E-1  
 1.000150037509377E10    3.180298452675343E-1   7.777111365221096E-2  -8.345003469196339E-1   1.981213027983904E-1  -8.092775616269868E-1   2.291117867976427E-1   2.357415722459555E-1   1.895487916362933E-1  
 1.000225056264066E10    3.182009981870651E-1   7.519565273189266E-2  -8.363194975087149E-1   1.981613714396953E-1  -8.071236825619021E-1   2.265786292403937E-1   2.372435733079911E-1   1.888886805047310E-1  
 1.000300075018755E10    3.171641228795051E-1   7.597579171867319E-2  -8.375037318855599E-1   2.017660640329123E-1  -8.029653759284463E-1   2.256825108379126E-1   2.399943994134665E-1   1.914065246479092E-1  
 1.000375093773443E10    3.194125673770905E-1   7.379410712070141E-2  -8.389494573039341E-1   2.025038673281670E-1  -8.034052429691477E-1   2.227966420352460E-1   2.409767385125160E-1   1.921713114373239E-1  
 1.000450112528132E10    3.154649389088154E-1   7.607265711758945E-2  -8.392229115587624E-1   2.041395124047995E-1  -8.000721690392345E-1   2.216141617596150E-1   2.469309168606997E-1   1.937261761622858E-1  
 1.000525131282821E10    3.149818878173828E-1   7.661282788642471E-2  -8.386726187833391E-1   2.089381205886603E-1  -8.006541467629258E-1   2.183343270719051E-1   2.466079168170691E-1   1.920346606194654E-1  
 1.000600150037509E10    3.176728473603726E-1   7.241939023695268E-2  -8.414943616167334E-1   2.126105051785708E-1  -7.982237509642477E-1   2.142182587087155E-1   2.475164255052806E-1   1.918871513017955E-1  
 1.000675168792198E10    3.175767608284950E-1   7.354521584195720E-2  -8.424046264167752E-1   2.181070736199618E-1  -7.971983527513037E-1   2.118667335212231E-1   2.497320469170809E-1   1.944590027420448E-1  
 1.000750187546887E10    3.156738268136978E-1   7.562890980355499E-2  -8.461785604228893E-1   2.197990126162768E-1  -7.978178276332217E-1   2.076946580260992E-1   2.519789819121361E-1   1.969840994189177E-1  
 1.000825206301576E10    3.162945081293584E-1   7.337772110615642E-2  -8.427833895738197E-1   2.284149512797594E-1  -7.954923687563926E-1   2.072268119603396E-1   2.533794738054276E-1   1.984246534309663E-1  
 1.000900225056264E10    3.234722951054574E-1   7.151514317438125E-2  -8.469357140069415E-1   2.327821164131165E-1  -7.937407034627706E-1   2.083852069377900E-1   2.555519228875637E-1   2.024091903433889E-1  
 1.000975243810953E10    3.189667999148370E-1   7.186087630032464E-2  -8.441121260164058E-1   2.342931902557612E-1  -7.914761777535917E-1   2.009651442319155E-1   2.570615912973881E-1   2.013546853796908E-1  
 1.001050262565641E10    3.257971697747709E-1   7.358237389846453E-2  -8.402080140635975E-1   2.392032954841853E-1  -7.934639265918181E-1   1.975658571422100E-1   2.595417400598526E-1   2.011308508465415E-1  
 1.001125281320330E10    3.236236045062543E-1   7.328199304285377E-2  -8.423495859306911E-1   2.453678019791842E-1  -7.914566255842694E-1   1.941284852772952E-1   2.603028992116451E-1   2.023405871093530E-1  
 1.001200300075019E10    3.250090056359768E-1   7.002356325592272E-2  -8.395572547819192E-1   2.503553348481655E-1  -7.924990361481223E-1   1.930618463009596E-1   2.615803001523017E-1   2.085162107733686E-1  
 1.001275318829707E10    3.259569178223611E-1   7.169723343281911E-2  -8.367143510884190E-1   2.559493611752988E-1  -7.920851209162654E-1   1.897572879493237E-1   2.656569239497185E-1   2.096646162463761E-1  
 1.001350337584396E10    3.282902772426605E-1   7.257067169135924E-2  -8.378785889813500E-1   2.567529218494892E-1  -7.943312812858884E-1   1.829502071142197E-1   2.645229975879193E-1   2.129513273206450E-1  
 1.001425356339085E10    3.285666436553001E-1   6.914758184217355E-2  -8.375184923540399E-1   2.624712180793286E-1  -7.918295047252830E-1   1.839190384149551E-1   2.659974022507667E-1   2.141438169521779E-1  
 1.001500375093774E10    3.350041279196740E-1   6.542394115742781E-2  -8.324406022745593E-1   2.709226696193218E-1  -7.924897200777061E-1   1.793868387490511E-1   2.658045463562012E-1   2.150552075959695E-1  
 1.001575393848462E10    3.322145829796792E-1   7.047053245885446E-2  -8.278993205787698E-1   2.773013297021389E-1  -7.945824731750399E-1   1.764513741731643E-1   2.687803650498390E-1   2.181358501520376E-1  
 1.001650412603151E10    3.358661279380322E-1   6.628925505012781E-2  -8.254051319507383E-1   2.804173379540444E-1  -7.940779243145993E-1   1.743919978737831E-1   2.712137601673603E-1   2.203845756866897E-1  
 1.001725431357839E10    3.355650670528412E-1   6.645919740304102E-2  -8.209679185626976E-1   2.833986786007882E-1  -7.959617527472829E-1   1.713340696096421E-1   2.715027763247490E-1   2.231142695800686E-1  
 1.001800450112528E10    3.374166995882988E-1   6.402964386719831E-2  -8.194686353313097E-1   2.902867656350136E-1  -7.960905572038727E-1   1.684011183381081E-1   2.738313104212284E-1   2.231144115731530E-1  
 1.001875468867217E10    3.416715744137764E-1   6.359722767612624E-2  -8.159206667980150E-1   2.933171282410622E-1  -7.963929194918737E-1   1.684393361955881E-1   2.713997701406479E-1   2.251448616527538E-1  
 1.001950487621906E10    3.395627271533013E-1   5.977107101799126E-2  -8.106286364267457E-1   2.960576689839363E-1  -7.971969628333908E-1   1.666859467625618E-1   2.733834502100944E-1   2.292104377901737E-1  
 1.002025506376594E10    3.416008384227753E-1   6.116831518599711E-2  -8.067000536936583E-1   3.008077624142171E-1  -8.019072040139990E-1   1.647156449407339E-1   2.771898976266384E-1   2.295931120452739E-1  
 1.002100525131283E10    3.418870160877705E-1   5.870499295039124E-2  -8.044648674341081E-1   3.062414177358151E-1  -8.002396014942783E-1   1.650709508955479E-1   2.725649821162224E-1   2.292012673251291E-1  
 1.002175543885972E10    3.434411012530326E-1   5.757228436289037E-2  -7.997863818985865E-1   3.093688634037972E-1  -8.020997262171159E-1   1.652435348927975E-1   2.765342808067799E-1   2.307851539061152E-1  
 1.002250562640660E10    3.444276778101921E-1   5.472411142389400E-2  -7.941687026621191E-1   3.142939424514771E-1  -8.058204796416255E-1   1.657580141276122E-1   2.770922581553459E-1   2.328648400557785E-1  
 1.002325581395349E10    3.431587745547294E-1   5.483212730930041E-2  -7.899316444242446E-1   3.155491934716702E-1  -8.048035720277584E-1   1.654611248522997E-1   2.738926181197167E-1   2.302564000005758E-1  
 1.002400600150038E10    3.469208588004113E-1   5.314191300975354E-2  -7.878616662716067E-1   3.169020363092423E-1  -8.073372039786345E-1   1.666463344097138E-1   2.752846252322196E-1   2.318105066967394E-1  
 1.002475618904726E10    3.477131006121636E-1   5.105360229964419E-2  -7.821504483654741E-1   3.193944758772851E-1  -8.070741686498206E-1   1.679594468474389E-1   2.757558393478394E-1   2.326228550318684E-1  
 1.002550637659415E10    3.492171372473240E-1   4.853599266222301E-2  -7.790314229148909E-1   3.241534868776799E-1  -8.087643198582162E-1   1.691222786307335E-1   2.748618311882020E-1   2.320625719515071E-1  
 1.002625656414104E10    3.481817041039467E-1   4.787520418007294E-2  -7.733771752750497E-1   3.240918636918068E-1  -8.112220947624619E-1   1.708384498953819E-1   2.731890411078931E-1   2.327017017497134E-1  
 1.002700675168792E10    3.489924797415734E-1   4.291023888210142E-2  -7.716059720737744E-1   3.243393117487431E-1  -8.153086831359619E-1   1.725755271017552E-1   2.750668677389621E-1   2.355000884393035E-1  
 1.002775693923481E10    3.482492477893829E-1   4.398761890083541E-2  -7.689510238411782E-1   3.287553948462010E-1  -8.135707252159403E-1   1.737777270078660E-1   2.726591496467590E-1   2.344652964424545E-1  
 1.002850712678170E10    3.478511852622033E-1   4.217858799837096E-2  -7.676307328749451E-1   3.232912366688252E-1  -8.153448824825851E-1   1.763133154213429E-1   2.726581703424453E-1   2.329249549951008E-1  
 1.002925731432858E10    3.472782324850559E-1   4.339451782180919E-2  -7.611874507118015E-1   3.287022607326508E-1  -8.155482411346335E-1   1.811649482995272E-1   2.711485036909580E-1   2.329463750403234E-1  
 1.003000750187547E10    3.477576153874397E-1   3.954843969086657E-2  -7.580076123326949E-1   3.308279775083065E-1  -8.159361865811510E-1   1.878365353196860E-1   2.690052546560764E-1   2.335335086089041E-1  
 1.003075768942236E10    3.490915434956551E-1   3.855589602681279E-2  -7.556066600048599E-1   3.278843876421452E-1  -8.168332509079684E-1   1.931027700752020E-1   2.683567229211330E-1   2.311753990226615E-1  
 1.003150787696924E10    3.478359954953194E-1   3.557724676891025E-2  -7.557520715777745E-1   3.230209401845933E-1  -8.201117454590301E-1   1.896730267405510E-1   2.628488028347493E-1   2.345474358875670E-1  
 1.003225806451613E10    3.470651372075082E-1   3.833946778644691E-2  -7.518632251780083E-1   3.248224185705185E-1  -8.178417423093410E-1   2.014081712514162E-1   2.637421337962150E-1   2.312102654982951E-1  
 1.003300825206302E10    3.442246261835099E-1   3.784192418979607E-2  -7.477525175867299E-1   3.270245625376701E-1  -8.172776620197190E-1   2.091404595375062E-1   2.651725031733513E-1   2.323939271780400E-1  
 1.003375843960990E10    3.468084067404270E-1   3.467637951357386E-2  -7.471820987494269E-1   3.224700255692005E-1  -8.169148458551837E-1   2.112412279695273E-1   2.589419463276864E-1   2.310610771774140E-1  
 1.003450862715679E10    3.461137453317641E-1   3.582088523982814E-2  -7.464476322504932E-1   3.220299917757512E-1  -8.144119707188195E-1   2.145774661302567E-1   2.575053045451642E-1   2.309104089833118E-1  
 1.003525881470368E10    3.467457575500012E-1   3.948262789010638E-2  -7.429806406291594E-1   3.205317660868168E-1  -8.122597405195050E-1   2.227227587252856E-1   2.573985126614571E-1   2.283391048214710E-1  
 1.003600900225056E10    3.484313521683217E-1   3.501736964375713E-2  -7.439643933743846E-1   3.205538279116154E-1  -8.142836047592961E-1   2.240510864257813E-1   2.551058723330498E-1   2.317187385048063E-1  
 1.003675918979745E10    3.414219322502614E-1   3.598779776378034E-2  -7.421384358491636E-1   3.184536449015141E-1  -8.124164300515573E-1   2.323663541078568E-1   2.540557373166085E-1   2.277229903015989E-1  
 1.003750937734434E10    3.455261000096799E-1   3.698437882139600E-2  -7.423845171823555E-1   3.174424954354763E-1  -8.106736923882720E-1   2.361095137596131E-1   2.492200285345316E-1   2.271234614995379E-1  
 1.003825956489122E10    3.452914230227471E-1   3.712611229219928E-2  -7.418793067730128E-1   3.174285765290261E-1  -8.088416079758021E-1   2.427925918400288E-1   2.494139843583107E-1   2.257625023132768E-1  
 1.003900975243811E10    3.444619219303131E-1   3.854885388000211E-2  -7.414376301122169E-1   3.148909052610398E-1  -8.056043567895913E-1   2.496417891234160E-1   2.480643143206835E-1   2.270407167157799E-1  
 1.003975993998500E10    3.418103927075864E-1   4.022419692082983E-2  -7.438616374977878E-1   3.138263761401177E-1  -8.049461263925714E-1   2.532056224942207E-1   2.458115230947733E-1   2.271705943998636E-1  
 1.004051012753188E10    3.443370375335217E-1   4.024040819871374E-2  -7.439507718335324E-1   3.110567076206208E-1  -8.027650110713757E-1   2.606811912357807E-1   2.421071080267430E-1   2.240583334313725E-1  
 1.004126031507877E10    3.461595660746099E-1   3.784262685826002E-2  -7.462977380575327E-1   3.062000300884247E-1  -7.992065141156295E-1   2.631781736612320E-1   2.395540588498116E-1   2.207091299317816E-1  
 1.004201050262566E10    3.434825191199780E-1   3.977891946584679E-2  -7.441145658264499E-1   3.067834164202214E-1  -7.962642391513080E-1   2.696232475638389E-1   2.410275547951460E-1   2.197146840160879E-1  
 1.004276069017254E10    3.416310406327248E-1   4.154384633694535E-2  -7.463078819076529E-1   3.061668426990509E-1  -7.959725403918007E-1   2.754619590342045E-1   2.396699586361647E-1   2.172282391425321E-1  
 1.004351087771943E10    3.440145063698293E-1   4.267224070907191E-2  -7.482064830032642E-1   3.049237141311170E-1  -7.933249446502433E-1   2.815199452638627E-1   2.389378009289503E-1   2.151688661509408E-1  
 1.004426106526632E10    3.438824635744096E-1   4.171960793561960E-2  -7.493822062723311E-1   3.037989845871925E-1  -7.896816376342625E-1   2.819704887568951E-1   2.390383425503970E-1   2.155771106322190E-1  
 1.004501125281320E10    3.425247348845005E-1   4.370652022155769E-2  -7.504500120011121E-1   3.049945292174817E-1  -7.876675900723142E-1   2.918229892253875E-1   2.402734612524509E-1   2.144492176700189E-1  
 1.004576144036009E10    3.410079018175602E-1   4.256023522624317E-2  -7.559792753993114E-1   3.011831458806992E-1  -7.866256332780410E-1   2.949155952036381E-1   2.373327257037163E-1   2.132581227812403E-1  
 1.004651162790698E10    3.432806763648987E-1   4.764192166778099E-2  -7.572881019950993E-1   2.956432608664036E-1  -7.851652389793401E-1   2.954794880449772E-1   2.371251469701529E-1   2.119311320516991E-1  
 1.004726181545386E10    3.459472164213658E-1   4.361378132248550E-2  -7.612348283376260E-1   2.941927883923053E-1  -7.794194652774379E-1   2.976601278781891E-1   2.362498634755612E-1   2.081271457105929E-1  
 1.004801200300075E10    3.398973141908646E-1   4.310692570917766E-2  -7.638074424021816E-1   2.946214227676392E-1  -7.763087004181749E-1   3.049601590037346E-1   2.335332489609719E-1   2.061247379548943E-1  
 1.004876219054764E10    3.423963546454906E-1   4.142287311102813E-2  -7.649846043332087E-1   2.967945156097413E-1  -7.734951709041096E-1   3.073112693428994E-1   2.368061243295670E-1   2.044572052649807E-1  
 1.004951237809452E10    3.445742853283882E-1   4.271805553696122E-2  -7.692389319182261E-1   2.902598906159402E-1  -7.748957070041375E-1   3.054327790439128E-1   2.367409303486348E-1   2.000596692034179E-1  
 1.005026256564141E10    3.425825047194958E-1   4.387814220833564E-2  -7.698290590193536E-1   2.945017059445381E-1  -7.688394312185796E-1   3.158244973719120E-1   2.390841393321753E-1   1.996001680452618E-1  
 1.005101275318830E10    3.435680586993694E-1   4.749562939369894E-2  -7.734859292747091E-1   2.925252863466741E-1  -7.664644798539002E-1   3.182591469585895E-1   2.374774040579796E-1   1.984802929861142E-1  
 1.005176294073518E10    3.422240255773068E-1   4.298807014055036E-2  -7.767397766324726E-1   2.913497177064419E-1  -7.659069245412835E-1   3.169407390356064E-1   2.411751232147217E-1   1.941106368640034E-1  
 1.005251312828207E10    3.410425073206425E-1   4.550028029474745E-2  -7.753238830357140E-1   2.944717285931111E-1  -7.624384896952228E-1   3.202278388440609E-1   2.415866933763027E-1   1.911802892939294E-1  
 1.005326331582896E10    3.408823098540306E-1   4.504949790726383E-2  -7.821173158019811E-1   2.927265675961971E-1  -7.609674946995583E-1   3.198686647117138E-1   2.422930136620999E-1   1.901276707877857E-1  
 1.005401350337584E10    3.393623337149621E-1   4.436307045719445E-2  -7.830135774360831E-1   2.941400166451932E-1  -7.590121515182411E-1   3.226907675564289E-1   2.460008496493101E-1   1.895247471500746E-1  
 1.005476369092273E10    3.407172873616219E-1   4.497820292096768E-2  -7.848107878987977E-1   2.958657898902893E-1  -7.589808245925702E-1   3.222720285952092E-1   2.438461389988661E-1   1.847769249968979E-1  
 1.005551387846962E10    3.405266750454902E-1   4.306944132508624E-2  -7.908693546789060E-1   2.954617205560208E-1  -7.572598892838744E-1   3.217037203013897E-1   2.458885980099440E-1   1.822666327756783E-1  
 1.005626406601650E10    3.404158875048161E-1   4.679358860164919E-2  -7.919310075187305E-1   2.978871132731438E-1  -7.564008895325201E-1   3.225601951777936E-1   2.435432373732329E-1   1.778121007423184E-1  
 1.005701425356339E10    3.376775534451007E-1   4.456165787925840E-2  -7.914208380705888E-1   3.006567963361741E-1  -7.544032935888093E-1   3.215571417808533E-1   2.496552776247263E-1   1.784231662309135E-1  
 1.005776444111028E10    3.393213725388050E-1   4.197835107285601E-2  -7.950724448812050E-1   3.023274589478969E-1  -7.551760455888230E-1   3.233371334075927E-1   2.513692986518145E-1   1.782400479443564E-1  
 1.005851462865716E10    3.374683350920677E-1   4.114211192353704E-2  -7.954869031811152E-1   3.056888450980186E-1  -7.519840262073340E-1   3.233581952154637E-1   2.522409203946591E-1   1.757122408301717E-1  
 1.005926481620405E10    3.396171843409538E-1   4.103374232617661E-2  -7.988119526323071E-1   3.080546822845936E-1  -7.541595633284277E-1   3.220278828144074E-1   2.517215393632650E-1   1.729047807404194E-1  
 1.006001500375094E10    3.389315558075904E-1   4.265205635835284E-2  -8.003774024814716E-1   3.087066335380078E-1  -7.523828692846403E-1   3.217454601228237E-1   2.545582133829594E-1   1.751804651686295E-1  
 1.006076519129783E10    3.397948113679886E-1   4.119764822518870E-2  -7.993160233558005E-1   3.138944489955902E-1  -7.509025299554213E-1   3.192631816565991E-1   2.557617281973362E-1   1.666396109203592E-1  
 1.006151537884471E10    3.383271282613278E-1   4.265223467183175E-2  -8.031397104657556E-1   3.160882440805436E-1  -7.514346349403377E-1   3.167930724024774E-1   2.589061047136784E-1   1.702988214777738E-1  
 1.006226556639160E10    3.386834134161473E-1   4.150859401477172E-2  -8.021045377461151E-1   3.204289467930794E-1  -7.532112183107651E-1   3.160351063609124E-1   2.608163701891900E-1   1.670078881308187E-1  
 1.006301575393848E10    3.382643486857415E-1   4.067677521452523E-2  -8.023080030814881E-1   3.243672644495965E-1  -7.521694097030047E-1   3.138564471006393E-1   2.653500449955464E-1   1.674054755154328E-1  
 1.006376594148537E10    3.425554789304734E-1   4.044547776750535E-2  -8.016582448043041E-1   3.261703777313232E-1  -7.526442348074722E-1   3.133950850963593E-1   2.665769131481647E-1   1.661218134519137E-1  
 1.006451612903226E10    3.388655110001565E-1   3.999854889808741E-2  -8.010846157231686E-1   3.287472521662712E-1  -7.526313523258390E-1   3.104298275709153E-1   2.691109471321106E-1   1.651122977489814E-1  
 1.006526631657915E10    3.390875579118729E-1   4.003627302768480E-2  -8.006601294382294E-1   3.341845198273659E-1  -7.559286603149276E-1   3.077851435244083E-1   2.716325915753841E-1   1.635854648238108E-1  
 1.006601650412603E10    3.379338179230690E-1   3.848823138694723E-2  -7.977075924952616E-1   3.360948929488659E-1  -7.577805975165741E-1   3.059429931938649E-1   2.735085499286651E-1   1.655526968626220E-1  
 1.006676669167292E10    3.436207523643970E-1   3.607622177736607E-2  -7.975417614269779E-1   3.423129321336746E-1  -7.554118352165993E-1   3.054957069456578E-1   2.753839443922043E-1   1.677988634357208E-1  
 1.006751687921981E10    3.434874221384526E-1   3.638506527033826E-2  -7.968119246824965E-1   3.459870256781578E-1  -7.603259189709004E-1   3.017546066939831E-1   2.785937790870667E-1   1.655752824990316E-1  
 1.006826706676669E10    3.446429425477982E-1   3.373230381835662E-2  -7.936211741369919E-1   3.474495403468609E-1  -7.595204957766650E-1   2.994412201344968E-1   2.845800169706346E-1   1.634087330881054E-1  
 1.006901725431358E10    3.451205349266530E-1   3.448745576753082E-2  -7.925588535462285E-1   3.504766292273998E-1  -7.617007205771921E-1   2.978645282685758E-1   2.843019668161869E-1   1.676863991862443E-1  
 1.006976744186047E10    3.445590821206570E-1   3.354577316506457E-2  -7.881017607792985E-1   3.537064915597439E-1  -7.640452609268416E-1   2.960315063893795E-1   2.849235481321812E-1   1.666873549480149E-1  
