#  HZ   S   RI   R     50.0 
! Rohde & Schwarz ZVL13 2Ports - Version 3.31 - 1303.6509k13 SN: 101088
! Date: 2023-03-06 15:53:02
! Data & Calibration Information:
! Trc4:S11(TOSM) Trc2:S21(TOSM) Trc3:S12(TOSM) Trc5:S22(TOSM)
! 
! 
! 
 1.000000000000000E10    3.138940985500813E-1   8.034297467460894E-2  -8.343570663129216E-1   1.971466996073723E-1  -8.149670564764101E-1   2.379539028853178E-1   2.336616461426020E-1   1.845414628239123E-1  
 1.000075018754689E10    3.152973434925079E-1   8.027134615579211E-2  -8.351943781288234E-1   2.017896123975515E-1  -8.121530449511210E-1   2.387157828509808E-1   2.342592357695103E-1   1.860092272560950E-1  
 1.000150037509377E10    3.156163250505925E-1   7.845359563750826E-2  -8.367433124668003E-1   2.040829900950194E-1  -8.103557396614083E-1   2.356802859753371E-1   2.371184188127518E-1   1.852283595547364E-1  
 1.000225056264066E10    3.151687700450421E-1   7.872049592952239E-2  -8.390705606633376E-1   2.031965144127608E-1  -8.084330044650805E-1   2.326310809105635E-1   2.393234168440104E-1   1.841676590144354E-1  
 1.000300075018755E10    3.143619957864285E-1   7.759425262746959E-2  -8.404260754730205E-1   2.076332698613406E-1  -8.041115343134544E-1   2.320991993397474E-1   2.419964629411698E-1   1.857813391520048E-1  
 1.000375093773443E10    3.164416113793850E-1   7.634820161158865E-2  -8.423475163330754E-1   2.083335492163897E-1  -8.044514573271522E-1   2.290269064605237E-1   2.440311692506075E-1   1.854063033048012E-1  
 1.000450112528132E10    3.121618337929249E-1   7.599839419537555E-2  -8.412697434114991E-1   2.098677126020193E-1  -8.015222213099662E-1   2.277789406478406E-1   2.495285642296076E-1   1.892718130322173E-1  
 1.000525131282821E10    3.123975419998170E-1   7.734694998216869E-2  -8.413629045765729E-1   2.150130863487721E-1  -8.014650214360757E-1   2.249412924796343E-1   2.482825213372708E-1   1.859379324346702E-1  
 1.000600150037509E10    3.162420316934587E-1   7.336843254591419E-2  -8.442329742817087E-1   2.187192232459784E-1  -7.992906466082438E-1   2.204985981881619E-1   2.507602456808091E-1   1.856855698104073E-1  
 1.000675168792198E10    3.143512543737889E-1   7.403871184845787E-2  -8.447548011386451E-1   2.241269731074572E-1  -7.982221059063044E-1   2.183387246429920E-1   2.527309247851372E-1   1.892816855720321E-1  
 1.000750187546887E10    3.132990201413632E-1   7.527534330594506E-2  -8.484761822295592E-1   2.256824997961522E-1  -7.985432357288603E-1   2.148419133573770E-1   2.565815633535385E-1   1.911630829342034E-1  
 1.000825206301576E10    3.121161257028580E-1   7.368189571762228E-2  -8.452008587734065E-1   2.342120296508074E-1  -7.969248739816055E-1   2.139941028952599E-1   2.577311249077320E-1   1.918944884042613E-1  
 1.000900225056264E10    3.201181861460209E-1   7.012327897327174E-2  -8.481994834550521E-1   2.392330514639617E-1  -7.949426924537512E-1   2.145836872458458E-1   2.581422631740570E-1   1.974697325951275E-1  
 1.000975243810953E10    3.171970063745976E-1   7.031626404337364E-2  -8.456954757720847E-1   2.407046778202057E-1  -7.928819872759392E-1   2.068481061458588E-1   2.617553061544895E-1   1.957504597351981E-1  
 1.001050262565641E10    3.228407385647296E-1   7.348288818711264E-2  -8.427165912906072E-1   2.449851658493281E-1  -7.946109803932586E-1   2.041755616813898E-1   2.645172006189823E-1   1.948283483955353E-1  
 1.001125281320330E10    3.208335255384445E-1   7.151144297665787E-2  -8.441076515502761E-1   2.510959540754557E-1  -7.925865003941076E-1   2.001874121129513E-1   2.662681653797627E-1   1.960102781760995E-1  
 1.001200300075019E10    3.235038546919823E-1   6.953421883829503E-2  -8.417807574989760E-1   2.561864275634289E-1  -7.936172199911699E-1   1.991693120896817E-1   2.665678599178791E-1   2.029851252728990E-1  
 1.001275318829707E10    3.229027927219869E-1   7.014640154066856E-2  -8.379774868968902E-1   2.631889753341675E-1  -7.928651453001353E-1   1.971819171756507E-1   2.709742949604988E-1   2.045860706543734E-1  
 1.001350337584396E10    3.241810192763806E-1   7.076017720495323E-2  -8.393916075430378E-1   2.621931214928627E-1  -7.956414830996771E-1   1.903067987710237E-1   2.696167615354062E-1   2.067587058084573E-1  
 1.001425356339085E10    3.252285311222077E-1   6.883652598918476E-2  -8.394522687049641E-1   2.681150252521038E-1  -7.933155302554696E-1   1.904581946134567E-1   2.724343928992749E-1   2.077744986421532E-1  
 1.001500375093774E10    3.307155507802964E-1   6.381326429915099E-2  -8.341396972616424E-1   2.755020714700223E-1  -7.939385534238808E-1   1.861255109310150E-1   2.715718909800053E-1   2.087490284729890E-1  
 1.001575393848462E10    3.313176411986351E-1   6.686542664506685E-2  -8.277648241001411E-1   2.852370369136335E-1  -7.962172793428183E-1   1.831635100394487E-1   2.754597538709640E-1   2.129673581904813E-1  
 1.001650412603151E10    3.338406021595002E-1   6.303532475241894E-2  -8.259113965929711E-1   2.869292744994163E-1  -7.952575377250976E-1   1.825001474767924E-1   2.791984627544881E-1   2.147620218626425E-1  
 1.001725431357839E10    3.329272988140584E-1   6.586562151408371E-2  -8.222824695751951E-1   2.885769720971586E-1  -7.976912847974863E-1   1.771771639287472E-1   2.786283298432827E-1   2.183847723515733E-1  
 1.001800450112528E10    3.356532584726811E-1   6.230103321899901E-2  -8.201107845261548E-1   2.970444169938565E-1  -7.976085717506882E-1   1.748323456943035E-1   2.820019944310189E-1   2.182808790400586E-1  
 1.001875468867217E10    3.401488622426988E-1   6.085960434149668E-2  -8.164301306146091E-1   2.997583842277527E-1  -7.979834059466724E-1   1.749213447719813E-1   2.800711145699024E-1   2.205922068270052E-1  
 1.001950487621906E10    3.371261318325997E-1   5.763775612765169E-2  -8.114393729975169E-1   3.018868395090104E-1  -7.984870495129269E-1   1.741614082157612E-1   2.809153978824616E-1   2.244611203210337E-1  
 1.002025506376594E10    3.398527141511440E-1   5.888541437125384E-2  -8.070460207953044E-1   3.066378748714925E-1  -8.036171050828651E-1   1.714131966829300E-1   2.841466539502144E-1   2.255102284301598E-1  
 1.002100525131283E10    3.409611702561379E-1   5.564307782478754E-2  -8.042393679991101E-1   3.123332650959492E-1  -8.020451232478576E-1   1.721405739039183E-1   2.809431924521924E-1   2.258935849465138E-1  
 1.002175543885972E10    3.425433560609818E-1   5.651556193543185E-2  -8.001604580532591E-1   3.156994115114213E-1  -8.035573063921114E-1   1.721866450607777E-1   2.851366153657437E-1   2.264475837176150E-1  
 1.002250562640660E10    3.434972690045834E-1   5.172211608577271E-2  -7.938540663524936E-1   3.203390545845032E-1  -8.075856824540899E-1   1.721063372939825E-1   2.874134207069874E-1   2.295076103088407E-1  
 1.002325581395349E10    3.421179578304292E-1   5.236212084228131E-2  -7.894927577966813E-1   3.212563737928867E-1  -8.068263342970673E-1   1.721048116832972E-1   2.833624382317067E-1   2.255997663623455E-1  
 1.002400600150038E10    3.458541951477527E-1   5.042315346398894E-2  -7.875122749894807E-1   3.233431041538716E-1  -8.088629916982517E-1   1.730383723676205E-1   2.828487130403519E-1   2.303269741515014E-1  
 1.002475618904726E10    3.469375036358833E-1   4.751024288185685E-2  -7.810446488216584E-1   3.255110547840596E-1  -8.091215687502080E-1   1.742915365099907E-1   2.847365907430649E-1   2.299811084098163E-1  
 1.002550637659415E10    3.489617739915848E-1   4.597648497317534E-2  -7.781498448257858E-1   3.305464468896389E-1  -8.110653533544109E-1   1.756217466890812E-1   2.839694042205811E-1   2.298719814450494E-1  
 1.002625656414104E10    3.480400705039501E-1   4.522418825762755E-2  -7.727173671469833E-1   3.302885067462921E-1  -8.127077345241279E-1   1.768537476658821E-1   2.816108410060406E-1   2.300045225067925E-1  
 1.002700675168792E10    3.477280426025391E-1   4.034492396193970E-2  -7.705025717370113E-1   3.304611977040768E-1  -8.170793653373526E-1   1.797884295284749E-1   2.839527797996998E-1   2.338198849075086E-1  
 1.002775693923481E10    3.471886035799980E-1   4.075225800303283E-2  -7.678696745024856E-1   3.343575888276101E-1  -8.157060284787835E-1   1.805608461946249E-1   2.831127110421658E-1   2.329389867946303E-1  
 1.002850712678170E10    3.466914408206940E-1   3.933310497291331E-2  -7.667474965966086E-1   3.289963701963424E-1  -8.173519602299735E-1   1.823662847429514E-1   2.800841215252876E-1   2.323217388642582E-1  
 1.002925731432858E10    3.470751257538796E-1   4.149211914078673E-2  -7.603757436556575E-1   3.343139507174492E-1  -8.173610299485011E-1   1.879868316501379E-1   2.807031899988652E-1   2.300530332286395E-1  
 1.003000750187547E10    3.465114624500275E-1   3.723611549476346E-2  -7.570984712749014E-1   3.365589309632779E-1  -8.176329020015249E-1   1.946032885313034E-1   2.766364243030548E-1   2.318427359556505E-1  
 1.003075768942236E10    3.482415591776372E-1   3.555612706961325E-2  -7.555100145448238E-1   3.320874820649624E-1  -8.189569184580262E-1   1.990557147562504E-1   2.760636874437332E-1   2.325662777124460E-1  
 1.003150787696924E10    3.474545917212963E-1   3.488296594213552E-2  -7.547889490326711E-1   3.294403908848763E-1  -8.218645557196312E-1   1.959717439711094E-1   2.721665662527085E-1   2.340218708181158E-1  
 1.003225806451613E10    3.472565036118031E-1   3.714956365294789E-2  -7.507951749635009E-1   3.309371351301670E-1  -8.189414083541659E-1   2.087767598778010E-1   2.728890099823475E-1   2.312360924599810E-1  
 1.003300825206302E10    3.438911532461643E-1   3.584913307884027E-2  -7.468547235745303E-1   3.323375714421273E-1  -8.184845853077900E-1   2.164147730618715E-1   2.736231191754341E-1   2.312502306105120E-1  
 1.003375843960990E10    3.476228729784489E-1   3.323346215039218E-2  -7.459529417245304E-1   3.288622631728649E-1  -8.183035563435450E-1   2.176418928503991E-1   2.667009296417237E-1   2.317516561452368E-1  
 1.003450862715679E10    3.461271875202656E-1   3.380629557099771E-2  -7.457030637488508E-1   3.270299198627472E-1  -8.157148333014597E-1   2.206861199736596E-1   2.651333481669426E-1   2.307245414482789E-1  
 1.003525881470368E10    3.461528393030167E-1   3.817171179331554E-2  -7.425336834138434E-1   3.260677219331265E-1  -8.138788506916950E-1   2.289894213825465E-1   2.640464198589325E-1   2.290541404568334E-1  
 1.003600900225056E10    3.483357303440571E-1   3.304617495963794E-2  -7.430490362030259E-1   3.263983554244042E-1  -8.157547371741932E-1   2.319476746320725E-1   2.628117340207100E-1   2.322945692954002E-1  
 1.003675918979745E10    3.416112863123417E-1   3.484105699482944E-2  -7.405787046300203E-1   3.249366352260113E-1  -8.139402488865060E-1   2.386789414733649E-1   2.615121831297875E-1   2.297683531681842E-1  
 1.003750937734434E10    3.443569963574409E-1   3.545200743736464E-2  -7.416993186748971E-1   3.230604952573777E-1  -8.121376630286384E-1   2.433301934897900E-1   2.569920763373376E-1   2.300016484789516E-1  
 1.003825956489122E10    3.458264887034893E-1   3.584322217136979E-2  -7.418354269241005E-1   3.219223371446133E-1  -8.102224548259089E-1   2.488818276077509E-1   2.563832933008671E-1   2.260353103055908E-1  
 1.003900975243811E10    3.437792160809041E-1   3.785050611925220E-2  -7.409853548039376E-1   3.208619676828384E-1  -8.067937037420168E-1   2.567132195234299E-1   2.548374751806259E-1   2.282297337499387E-1  
 1.003975993998500E10    3.424755473434926E-1   4.001159574096308E-2  -7.433412903062238E-1   3.195262115597725E-1  -8.055792114408359E-1   2.607781150937081E-1   2.528285484313965E-1   2.287504877773405E-1  
 1.004051012753188E10    3.439900055825711E-1   3.899167322429119E-2  -7.437692711311400E-1   3.158970503211022E-1  -8.038937120445460E-1   2.676354069709778E-1   2.486960680484772E-1   2.253817586249927E-1  
 1.004126031507877E10    3.449758208096028E-1   3.740343783126066E-2  -7.461121414219403E-1   3.119037714302541E-1  -8.003972359684171E-1   2.698747695684434E-1   2.465902037173510E-1   2.226834413522936E-1  
 1.004201050262566E10    3.430461013913155E-1   4.026779595559724E-2  -7.439803069789011E-1   3.124647840559483E-1  -7.974678114950372E-1   2.759784068167210E-1   2.464057364910841E-1   2.221407143028280E-1  
 1.004276069017254E10    3.408481359779835E-1   4.129819484422105E-2  -7.462632365626103E-1   3.119775806069375E-1  -7.970981084430893E-1   2.829632847905160E-1   2.456321960240603E-1   2.202683648228040E-1  
 1.004351087771943E10    3.427547411620617E-1   4.340849180585273E-2  -7.479571579138936E-1   3.107536580860614E-1  -7.947397273030954E-1   2.880298555791379E-1   2.452378459125758E-1   2.190614610668689E-1  
 1.004426106526632E10    3.426559548974037E-1   4.298726419118989E-2  -7.494216443524191E-1   3.096197088658810E-1  -7.906893205781841E-1   2.885989542305469E-1   2.438896873742342E-1   2.180166001376748E-1  
 1.004501125281320E10    3.408648356497288E-1   4.581697811324294E-2  -7.508721622474910E-1   3.103988387286663E-1  -7.883401376173014E-1   2.985147593319416E-1   2.443751788437367E-1   2.157429064798795E-1  
 1.004576144036009E10    3.400023043751717E-1   4.512415430021400E-2  -7.564418857184602E-1   3.063255073428154E-1  -7.877032937566714E-1   3.015680970549584E-1   2.418966391533614E-1   2.151453748829689E-1  
 1.004651162790698E10    3.421127618849278E-1   4.861620879186600E-2  -7.580349954949436E-1   3.008886210322380E-1  -7.858441581111246E-1   3.032705606222153E-1   2.430242698639631E-1   2.146024124500092E-1  
 1.004726181545386E10    3.451439021825790E-1   4.478119344014424E-2  -7.619834106221733E-1   2.998689276576042E-1  -7.804518627145983E-1   3.048410034477710E-1   2.404811816066504E-1   2.114604351132394E-1  
 1.004801200300075E10    3.388043157160282E-1   4.506205340651723E-2  -7.650941577000476E-1   3.000811724960804E-1  -7.774280661622095E-1   3.108682330250741E-1   2.383272141665221E-1   2.078851088479705E-1  
 1.004876219054764E10    3.398690782487393E-1   4.238396985011994E-2  -7.657553062920532E-1   3.027859033942222E-1  -7.744711217854507E-1   3.149215794205666E-1   2.412497467994690E-1   2.064911706636396E-1  
 1.004951237809452E10    3.420400643944740E-1   4.402837556223584E-2  -7.700401239487640E-1   2.962816894352437E-1  -7.762955053920089E-1   3.125179060995579E-1   2.407501453161240E-1   2.035053516700262E-1  
 1.005026256564141E10    3.414464316368103E-1   4.611594150023923E-2  -7.716035995327384E-1   2.995229796469212E-1  -7.703503124316243E-1   3.222261105477810E-1   2.421500565558672E-1   2.007408914431024E-1  
 1.005101275318830E10    3.421218726933003E-1   4.906744532874622E-2  -7.753204535356362E-1   2.985140366852284E-1  -7.680036708134919E-1   3.243440984189511E-1   2.404674898087979E-1   2.009124882291329E-1  
 1.005176294073518E10    3.404812846481800E-1   4.457812317980097E-2  -7.778840181898904E-1   2.974990166723729E-1  -7.667763616984866E-1   3.242551643848420E-1   2.437679373025894E-1   1.963188224332230E-1  
 1.005251312828207E10    3.388221916854381E-1   4.707591275082655E-2  -7.767524992094083E-1   3.005835165977479E-1  -7.633061086200135E-1   3.278322885334492E-1   2.430240751802921E-1   1.928343564581048E-1  
 1.005326331582896E10    3.379758214354516E-1   4.706161604417791E-2  -7.833905617214361E-1   2.985630317330359E-1  -7.620972269887432E-1   3.269409267902375E-1   2.449617926031351E-1   1.915734564410021E-1  
 1.005401350337584E10    3.381227893829346E-1   4.716159050479152E-2  -7.846500456272486E-1   3.006088217198849E-1  -7.599123340097060E-1   3.299053432643414E-1   2.484719643890858E-1   1.898298688347968E-1  
 1.005476369092273E10    3.390763919651509E-1   4.639891298788903E-2  -7.863326799421109E-1   3.021912621557713E-1  -7.601378910341861E-1   3.291854575574399E-1   2.465586754828692E-1   1.859694215085249E-1  
 1.005551387846962E10    3.387722466289997E-1   4.509886021898964E-2  -7.925786253186505E-1   3.021210575699807E-1  -7.585488058990921E-1   3.279446262419224E-1   2.477808780223132E-1   1.828626151797045E-1  
 1.005626406601650E10    3.373152362108230E-1   4.954549874381037E-2  -7.937074843017414E-1   3.035555036365986E-1  -7.572121775557317E-1   3.297545371353626E-1   2.472499579787255E-1   1.788799246507961E-1  
 1.005701425356339E10    3.354762812554837E-1   4.625575590894158E-2  -7.935282453667691E-1   3.073942194581032E-1  -7.556645794720271E-1   3.280348781049252E-1   2.520923842787743E-1   1.779861594856373E-1  
 1.005776444111028E10    3.355589926242829E-1   4.413168576483425E-2  -7.972369127553809E-1   3.082297536730767E-1  -7.566407164776344E-1   3.297375682890416E-1   2.536542408466340E-1   1.788423627352165E-1  
 1.005851462865716E10    3.356023608446122E-1   4.299945669754653E-2  -7.978854913054642E-1   3.116681517362595E-1  -7.530397279934427E-1   3.299938997924328E-1   2.545068832337857E-1   1.756227756475698E-1  
 1.005926481620405E10    3.365591285526753E-1   4.290717196268837E-2  -8.011093410183831E-1   3.138911567032338E-1  -7.550643944512985E-1   3.296483005285263E-1   2.536837466359139E-1   1.731011471187972E-1  
 1.006001500375094E10    3.351082354187966E-1   4.559220237731809E-2  -8.025439892113476E-1   3.146750158965588E-1  -7.540265997841769E-1   3.284302317798137E-1   2.556373944282532E-1   1.746839261772818E-1  
 1.006076519129783E10    3.363204630613327E-1   4.360073350903672E-2  -8.016258120358101E-1   3.199712865352631E-1  -7.519624899547661E-1   3.264320246279240E-1   2.567109791636467E-1   1.661783779217213E-1  
 1.006151537884471E10    3.340713585913182E-1   4.409384715297045E-2  -8.049802857898937E-1   3.221536566913128E-1  -7.525234684100393E-1   3.239946727752686E-1   2.606045055985451E-1   1.690182981719291E-1  
 1.006226556639160E10    3.342160227894783E-1   4.196175475001146E-2  -8.037033823013391E-1   3.274407458305360E-1  -7.542978284440991E-1   3.228859502375125E-1   2.626934093236923E-1   1.665951705691671E-1  
 1.006301575393848E10    3.355359125435353E-1   4.325606199866625E-2  -8.043195947674682E-1   3.318009667396545E-1  -7.535489597801680E-1   3.209494965374469E-1   2.654521607458591E-1   1.665735039758899E-1  
 1.006376594148537E10    3.365679921209813E-1   4.336662782850629E-2  -8.040119159634309E-1   3.315651065111160E-1  -7.540403129235689E-1   3.205271612107755E-1   2.684252317845822E-1   1.644213695017959E-1  
 1.006451612903226E10    3.347955605387687E-1   4.079198619008536E-2  -8.025634563267651E-1   3.360479406416416E-1  -7.539524661691008E-1   3.177071360349655E-1   2.703864095211029E-1   1.647487160343124E-1  
 1.006526631657915E10    3.356096814870834E-1   4.239903088216187E-2  -8.025416048460603E-1   3.413616138994695E-1  -7.570262149323664E-1   3.152294489443303E-1   2.734480357766151E-1   1.630831544286904E-1  
 1.006601650412603E10    3.340254757106305E-1   4.051633457330989E-2  -7.999145429800326E-1   3.429699888527394E-1  -7.587005776185695E-1   3.136449205279350E-1   2.757603804469109E-1   1.638526943516983E-1  
 1.006676669167292E10    3.388783150315284E-1   3.751919404246281E-2  -7.995751000205410E-1   3.482505759000779E-1  -7.566292752329178E-1   3.125452780425550E-1   2.775966418385505E-1   1.660295930174678E-1  
 1.006751687921981E10    3.396386309266091E-1   3.652966457767966E-2  -7.979054449257733E-1   3.535600495040417E-1  -7.615918191844399E-1   3.090897218585014E-1   2.799973112940788E-1   1.646013658490145E-1  
 1.006826706676669E10    3.421402022242547E-1   3.474412072646039E-2  -7.949672424507313E-1   3.555708788037301E-1  -7.600267235187401E-1   3.074643014967442E-1   2.878131074607373E-1   1.613532472226357E-1  
 1.006901725431358E10    3.396405447125435E-1   3.393766638041921E-2  -7.936247315189118E-1   3.569162834286690E-1  -7.626061634059307E-1   3.054656867682933E-1   2.867125634253026E-1   1.657318967030188E-1  
 1.006976744186047E10    3.410822658836842E-1   3.486539570065515E-2  -7.899366751178876E-1   3.600864537358284E-1  -7.646803468143386E-1   3.038946877419949E-1   2.883179582357407E-1   1.647258623395982E-1  
