#  HZ   S   RI   R     50.0 
! Rohde & Schwarz ZVL13 2Ports - Version 3.31 - 1303.6509k13 SN: 101088
! Date: 2023-03-06 15:51:46
! Data & Calibration Information:
! Trc4:S11(TOSM) Trc2:S21(TOSM) Trc3:S12(TOSM) Trc5:S22(TOSM)
! 
! 
! 
 1.000000000000000E10    3.135460427403450E-1   7.627381271681376E-2  -8.334190508691453E-1   2.040608492493630E-1  -8.135948593492226E-1   2.451611959934235E-1   2.353860540688038E-1   1.833459729018309E-1  
 1.000075018754689E10    3.156341978907585E-1   7.620480397111236E-2  -8.343559486614992E-1   2.086697949469090E-1  -8.107500141849137E-1   2.462742970883847E-1   2.368300268054009E-1   1.862630241800287E-1  
 1.000150037509377E10    3.158288556337356E-1   7.443389505088578E-2  -8.361266914445354E-1   2.110888363420964E-1  -8.095233596773339E-1   2.424150575697422E-1   2.390671184659005E-1   1.840040994886378E-1  
 1.000225056264066E10    3.152702122926712E-1   7.326978193837611E-2  -8.382917255069381E-1   2.104289259016514E-1  -8.071155501304873E-1   2.398674309253693E-1   2.415322211384774E-1   1.820494384976690E-1  
 1.000300075018755E10    3.143420240283013E-1   7.483413745519352E-2  -8.396338135349969E-1   2.143005378544331E-1  -8.031060951311509E-1   2.387687623500824E-1   2.437677478790284E-1   1.843670944779737E-1  
 1.000375093773443E10    3.177573305368423E-1   7.047613377341902E-2  -8.408087160959623E-1   2.159898392856121E-1  -8.033718318914048E-1   2.366278983652592E-1   2.459907770156861E-1   1.853813623770387E-1  
 1.000450112528132E10    3.136040046811104E-1   7.242829379378167E-2  -8.405975331074340E-1   2.173570711910725E-1  -8.003655756075205E-1   2.348627530038357E-1   2.513231681287289E-1   1.878897967046307E-1  
 1.000525131282821E10    3.141143754124642E-1   7.400731023472516E-2  -8.404193970377849E-1   2.221441702544690E-1  -8.005677000034267E-1   2.321598272025585E-1   2.510793823003769E-1   1.861682703379373E-1  
 1.000600150037509E10    3.152284696698189E-1   6.984552764089147E-2  -8.435935900792042E-1   2.252996829152107E-1  -7.982491150975525E-1   2.279297232627869E-1   2.537752616405486E-1   1.845041464180764E-1  
 1.000675168792198E10    3.142928758263588E-1   7.093890172075687E-2  -8.442146980515937E-1   2.309755913913250E-1  -7.976447130813957E-1   2.255919283628464E-1   2.546823751926422E-1   1.885566243316942E-1  
 1.000750187546887E10    3.145390677452087E-1   7.057329932301835E-2  -8.473934367140812E-1   2.337479522824288E-1  -7.978860220773323E-1   2.220273759961129E-1   2.583167901635170E-1   1.907961323832882E-1  
 1.000825206301576E10    3.140848493576049E-1   7.079668219944142E-2  -8.444903508876309E-1   2.419231584668160E-1  -7.960982648825808E-1   2.208864718675613E-1   2.589372983574867E-1   1.903658953000955E-1  
 1.000900225056264E10    3.207991120219231E-1   6.621566472743204E-2  -8.473220258249563E-1   2.474326914548874E-1  -7.943166021551759E-1   2.217379401624203E-1   2.614637634158135E-1   1.961675602950760E-1  
 1.000975243810953E10    3.177758431434631E-1   6.659332751518841E-2  -8.445088102937530E-1   2.487171030044556E-1  -7.921364218615387E-1   2.147675293684006E-1   2.637222942709923E-1   1.949290882899802E-1  
 1.001050262565641E10    3.228218004107475E-1   6.957633819815873E-2  -8.412049523939013E-1   2.521409222483635E-1  -7.940761905493473E-1   2.114244589209557E-1   2.666442102193833E-1   1.951460929663255E-1  
 1.001125281320330E10    3.221930095553398E-1   6.757075542315341E-2  -8.426873817924985E-1   2.591405269503594E-1  -7.922006690630479E-1   2.067213478684425E-1   2.684546986222267E-1   1.957140240829643E-1  
 1.001200300075019E10    3.235746401548386E-1   6.607532676552802E-2  -8.405647993363647E-1   2.630940312147141E-1  -7.930405102195914E-1   2.067930570244790E-1   2.686126306653023E-1   2.021817587068226E-1  
 1.001275318829707E10    3.242504265904427E-1   6.636921375649191E-2  -8.367321102350479E-1   2.701281023025512E-1  -7.928465014417365E-1   2.035426200926304E-1   2.741013884544373E-1   2.038922171460910E-1  
 1.001350337584396E10    3.270467266440392E-1   6.787026701814752E-2  -8.376953073366134E-1   2.712962639331817E-1  -7.952862126339828E-1   1.972839330136776E-1   2.720430982112885E-1   2.076161986964912E-1  
 1.001425356339085E10    3.263755616545677E-1   6.510232209522938E-2  -8.379231238155754E-1   2.764372703433036E-1  -7.930898935260902E-1   1.978541503846646E-1   2.737705749273300E-1   2.080357234479381E-1  
 1.001500375093774E10    3.310765689611435E-1   6.125358381693925E-2  -8.327801603431625E-1   2.829319435358048E-1  -7.936866020126721E-1   1.932338397204876E-1   2.738712459802628E-1   2.091255171745553E-1  
 1.001575393848462E10    3.310999843478203E-1   6.500824205775002E-2  -8.268187526534309E-1   2.916679266095161E-1  -7.963955975419175E-1   1.904163341224194E-1   2.778509911894798E-1   2.128758614703061E-1  
 1.001650412603151E10    3.348954996466637E-1   6.032393098609665E-2  -8.243037110848424E-1   2.950969743728638E-1  -7.955919123134182E-1   1.885722251236439E-1   2.801535069942475E-1   2.140150321961031E-1  
 1.001725431357839E10    3.344684118032456E-1   6.083455748095002E-2  -8.195883336435976E-1   2.974332922697068E-1  -7.977928700433188E-1   1.852799133956432E-1   2.809515929222107E-1   2.185939215129714E-1  
 1.001800450112528E10    3.359713077545166E-1   5.990781638249071E-2  -8.188089363260778E-1   3.045314699411393E-1  -7.978209908928002E-1   1.823358544707299E-1   2.838956901431084E-1   2.175718589375896E-1  
 1.001875468867217E10    3.397728770971299E-1   5.828286464883085E-2  -8.148583945950987E-1   3.070558872818947E-1  -7.982322554408483E-1   1.819321921467781E-1   2.810787284374238E-1   2.206715091555475E-1  
 1.001950487621906E10    3.365083232522011E-1   5.486919346845825E-2  -8.094721513461234E-1   3.094007539749145E-1  -7.990152677851813E-1   1.816305275261402E-1   2.821187752485275E-1   2.241546975292069E-1  
 1.002025506376594E10    3.407961040735245E-1   5.431382548623145E-2  -8.042520665229271E-1   3.146476373076440E-1  -8.043550006691672E-1   1.784308372437954E-1   2.868680840730668E-1   2.258519299605121E-1  
 1.002100525131283E10    3.408682546019554E-1   5.245192658555180E-2  -8.023970158668257E-1   3.200637081265450E-1  -8.022407064827806E-1   1.796955013275146E-1   2.832650089263917E-1   2.247694372955587E-1  
 1.002175543885972E10    3.417625159025192E-1   5.149403397593696E-2  -7.976152753965159E-1   3.225277447700501E-1  -8.045632767515247E-1   1.793910007178783E-1   2.868804088234901E-1   2.266236510148984E-1  
 1.002250562640660E10    3.430098712444306E-1   4.792271357708716E-2  -7.914241149714166E-1   3.277658039331436E-1  -8.081580082490421E-1   1.797921872138977E-1   2.878421488404274E-1   2.292558143895980E-1  
 1.002325581395349E10    3.432394436001778E-1   4.996593446306587E-2  -7.871390212714421E-1   3.295174399018288E-1  -8.071389551798888E-1   1.797435300052166E-1   2.849291121959687E-1   2.270572486693484E-1  
 1.002400600150038E10    3.444027188420296E-1   4.669711513796322E-2  -7.852958621998678E-1   3.298164001107217E-1  -8.092427789122348E-1   1.811205577850342E-1   2.847148084640503E-1   2.302645562256593E-1  
 1.002475618904726E10    3.468074330687523E-1   4.462099644511557E-2  -7.789355279515609E-1   3.327846252918244E-1  -8.094334148588138E-1   1.817809346318245E-1   2.865338093042374E-1   2.305004912745267E-1  
 1.002550637659415E10    3.473150008916856E-1   4.143215222548501E-2  -7.754645829396019E-1   3.372108316421509E-1  -8.114957702086035E-1   1.831929008662701E-1   2.850173521041871E-1   2.291534518191294E-1  
 1.002625656414104E10    3.475642943382263E-1   4.206089449313454E-2  -7.701302599978548E-1   3.376571321487427E-1  -8.133743064915571E-1   1.850408673286438E-1   2.836253216862679E-1   2.305619939534851E-1  
 1.002700675168792E10    3.475210437178612E-1   3.695907818591662E-2  -7.680255122483364E-1   3.374296247959138E-1  -8.172934836984743E-1   1.869969153404236E-1   2.844680678844452E-1   2.342005442181544E-1  
 1.002775693923481E10    3.459732657670975E-1   3.771573762026654E-2  -7.653072455607887E-1   3.419262424111366E-1  -8.158387072618553E-1   1.885381580889226E-1   2.834485030174255E-1   2.321383472422895E-1  
 1.002850712678170E10    3.447544762492181E-1   3.537622154483068E-2  -7.643803954686692E-1   3.360453304648400E-1  -8.178970941881866E-1   1.912104223668575E-1   2.819701418280601E-1   2.318866141381666E-1  
 1.002925731432858E10    3.450109565258026E-1   3.636205550530793E-2  -7.578051275628648E-1   3.407617413997651E-1  -8.181058704780612E-1   1.957993407547474E-1   2.811799940466881E-1   2.315977480847141E-1  
 1.003000750187547E10    3.449672910571099E-1   3.241640727849732E-2  -7.543563749391973E-1   3.428001365065575E-1  -8.183268056860495E-1   2.026670691370964E-1   2.784791192412376E-1   2.314342934521326E-1  
 1.003075768942236E10    3.471532306075096E-1   3.147254617568370E-2  -7.528462774160665E-1   3.391863629221917E-1  -8.189141615052217E-1   2.070919893682003E-1   2.765731927752495E-1   2.323775424861260E-1  
 1.003150787696924E10    3.469630905985833E-1   2.969114594245122E-2  -7.517581127269886E-1   3.356519874930382E-1  -8.223211997442270E-1   2.042234259843827E-1   2.733626106381416E-1   2.334165255132124E-1  
 1.003225806451613E10    3.464241391420365E-1   3.390404541342942E-2  -7.481746496379338E-1   3.379130876064301E-1  -8.191296320874487E-1   2.167967949807644E-1   2.738389229774476E-1   2.307519805834742E-1  
 1.003300825206302E10    3.429828286170960E-1   3.309306480631023E-2  -7.439704842201091E-1   3.398369020223618E-1  -8.181539227421952E-1   2.256288854777813E-1   2.740705585479737E-1   2.307976947316230E-1  
 1.003375843960990E10    3.459546595811844E-1   3.005529279760050E-2  -7.433105481110545E-1   3.361127847433091E-1  -8.181514362983523E-1   2.261021500825882E-1   2.675129553675651E-1   2.303024740529049E-1  
 1.003450862715679E10    3.451521497964860E-1   2.932977806735521E-2  -7.426947596741457E-1   3.344451189041138E-1  -8.156919199319801E-1   2.291649796068668E-1   2.662048995494843E-1   2.300930344840810E-1  
 1.003525881470368E10    3.457876437902451E-1   3.508572371715434E-2  -7.396104517261041E-1   3.332388976216317E-1  -8.135952464109099E-1   2.366571231186390E-1   2.634713393449783E-1   2.296380483372538E-1  
 1.003600900225056E10    3.463688302040101E-1   3.002999155266163E-2  -7.408512607209392E-1   3.329796752333641E-1  -8.156419360024420E-1   2.390570969879627E-1   2.631923776865006E-1   2.329588874575504E-1  
 1.003675918979745E10    3.392002728581429E-1   3.198631272954463E-2  -7.386170767258016E-1   3.310658377408982E-1  -8.133383045151510E-1   2.469918946921825E-1   2.624411696195603E-1   2.295135331610446E-1  
 1.003750937734434E10    3.435522454977036E-1   3.209503683475296E-2  -7.393510896406990E-1   3.294889491796493E-1  -8.114721777181683E-1   2.506751149892807E-1   2.568965959548951E-1   2.287577897277476E-1  
 1.003825956489122E10    3.436806890368462E-1   3.196814307990434E-2  -7.391901184828834E-1   3.294627308845520E-1  -8.095081614018334E-1   2.575105702877045E-1   2.568059542775154E-1   2.266337802268617E-1  
 1.003900975243811E10    3.425976264476776E-1   3.314613331690322E-2  -7.386048243412153E-1   3.272544908523560E-1  -8.057628649987800E-1   2.646131759881974E-1   2.549836410582065E-1   2.278446230335404E-1  
 1.003975993998500E10    3.398756837844849E-1   3.631612764630857E-2  -7.414641050043255E-1   3.257677319645881E-1  -8.046109229143834E-1   2.686273652315140E-1   2.525295078754425E-1   2.271172253726860E-1  
 1.004051012753188E10    3.427812659740449E-1   3.615319664721455E-2  -7.415270645906225E-1   3.233890923857689E-1  -8.031138266076098E-1   2.748049947619438E-1   2.477724210917950E-1   2.259154974298988E-1  
 1.004126031507877E10    3.439939710497856E-1   3.461910733179467E-2  -7.435555000023600E-1   3.195177921652794E-1  -7.995628808916323E-1   2.780161327123643E-1   2.477620154619217E-1   2.239972780198737E-1  
 1.004201050262566E10    3.421662285923958E-1   3.635731490349616E-2  -7.415977717357520E-1   3.190406978130341E-1  -7.962943104370197E-1   2.839081269502640E-1   2.470876075327396E-1   2.212917645977424E-1  
 1.004276069017254E10    3.402399063110352E-1   3.633850005859789E-2  -7.442207557126707E-1   3.188405129313469E-1  -7.960566087487198E-1   2.895008671283722E-1   2.442276936769486E-1   2.189953728495650E-1  
 1.004351087771943E10    3.419773089885713E-1   3.943496404351177E-2  -7.460203709879872E-1   3.177197802066803E-1  -7.934192415624789E-1   2.959732154011726E-1   2.444041214883328E-1   2.183577618204407E-1  
 1.004426106526632E10    3.409156844019891E-1   3.944799645094241E-2  -7.473199989351098E-1   3.162287971377373E-1  -7.896032243339448E-1   2.968676188588142E-1   2.437161463499070E-1   2.171924425454087E-1  
 1.004501125281320E10    3.392762556672097E-1   4.111537870883725E-2  -7.486516657780109E-1   3.176645153760910E-1  -7.869142248859790E-1   3.061519443988801E-1   2.441966208815574E-1   2.145299160919028E-1  
 1.004576144036009E10    3.386111462116242E-1   4.120879192204582E-2  -7.546674242227978E-1   3.131969574093820E-1  -7.862791124827129E-1   3.094007015228272E-1   2.415907709300518E-1   2.138743098353233E-1  
 1.004651162790698E10    3.406258192658425E-1   4.435727914102572E-2  -7.559407381456835E-1   3.080820813775063E-1  -7.844231958939818E-1   3.103579005599021E-1   2.426616939902306E-1   2.132422780618355E-1  
 1.004726181545386E10    3.436516913771630E-1   4.035176322768661E-2  -7.597015257844941E-1   3.072563290596009E-1  -7.792636354719521E-1   3.117288202047348E-1   2.397996975481510E-1   2.100588919126763E-1  
 1.004801200300075E10    3.379422688484193E-1   4.147104431013216E-2  -7.630947756257303E-1   3.075819367170334E-1  -7.761265146888353E-1   3.183750525116920E-1   2.380822555720806E-1   2.069822583878985E-1  
 1.004876219054764E10    3.395849674940110E-1   3.881019969558193E-2  -7.638223883367860E-1   3.101878106594086E-1  -7.727175434364716E-1   3.217522776126863E-1   2.407868631184102E-1   2.051281714207661E-1  
 1.004951237809452E10    3.411512079834939E-1   4.136432104429665E-2  -7.683679928156988E-1   3.028521761298180E-1  -7.740383436405410E-1   3.203360944986344E-1   2.406253235042095E-1   2.019863102627101E-1  
 1.005026256564141E10    3.401649230718614E-1   4.201475094542862E-2  -7.695492053590113E-1   3.072552162408829E-1  -7.682805327179910E-1   3.294920819997788E-1   2.420016029477120E-1   1.998506256078302E-1  
 1.005101275318830E10    3.406833347678184E-1   4.529320056691384E-2  -7.732574830644513E-1   3.055792862176895E-1  -7.659849744896468E-1   3.317087030410767E-1   2.410594318807126E-1   1.988231853753453E-1  
 1.005176294073518E10    3.380634912848473E-1   4.130459914502475E-2  -7.761428386244603E-1   3.044396457076072E-1  -7.647203963273626E-1   3.319350090622903E-1   2.436610281467438E-1   1.949309593670646E-1  
 1.005251312828207E10    3.373795047402382E-1   4.278474303969110E-2  -7.749035880069857E-1   3.080538159608842E-1  -7.617084616413117E-1   3.336298254132272E-1   2.433134177327156E-1   1.906565045712521E-1  
 1.005326331582896E10    3.373823055624963E-1   4.256572879268918E-2  -7.818145813785770E-1   3.060212305188179E-1  -7.604572488980006E-1   3.334462884068489E-1   2.448368059098721E-1   1.903325605461734E-1  
 1.005401350337584E10    3.365861245989800E-1   4.221092255667482E-2  -7.827574713490091E-1   3.076343548297883E-1  -7.580793423921463E-1   3.366334798932076E-1   2.477608875930309E-1   1.887747880528994E-1  
 1.005476369092273E10    3.372648444771767E-1   4.371846411857078E-2  -7.844932882394408E-1   3.095366016030313E-1  -7.579127052811766E-1   3.368910446763039E-1   2.467583246529103E-1   1.845167871905336E-1  
 1.005551387846962E10    3.369535222649575E-1   4.170180904206115E-2  -7.909017531138027E-1   3.095456671714783E-1  -7.563704847481358E-1   3.356204715371132E-1   2.483837878704072E-1   1.811525207463912E-1  
 1.005626406601650E10    3.365326264500618E-1   4.565811359896475E-2  -7.922225609940530E-1   3.111833852529526E-1  -7.547186085875696E-1   3.378123915195465E-1   2.480886086821556E-1   1.768826300634163E-1  
 1.005701425356339E10    3.330421558022499E-1   4.393527388316976E-2  -7.921791723007409E-1   3.135452750325203E-1  -7.539073563899303E-1   3.350148802995682E-1   2.516932050883770E-1   1.760474515975865E-1  
 1.005776444111028E10    3.345966419577599E-1   4.079459299827651E-2  -7.954619366663995E-1   3.166419726610184E-1  -7.548733052846066E-1   3.368235206604004E-1   2.533984336256980E-1   1.763534528366021E-1  
 1.005851462865716E10    3.337399944663048E-1   3.846909592631927E-2  -7.959107150239912E-1   3.205523160099983E-1  -7.510583290999521E-1   3.371975147724152E-1   2.533990016579628E-1   1.728226527542865E-1  
 1.005926481620405E10    3.342026254534722E-1   3.842300461826299E-2  -7.989468268967725E-1   3.221403303742409E-1  -7.532878971420485E-1   3.362729907035828E-1   2.535512691736221E-1   1.711476686904177E-1  
 1.006001500375094E10    3.342340266704560E-1   4.147596898000516E-2  -8.007660313943202E-1   3.228741487860680E-1  -7.514192041099739E-1   3.364257881045342E-1   2.565464463829994E-1   1.717126130317673E-1  
 1.006076519129783E10    3.340218621492386E-1   3.959814429984330E-2  -7.994994021906349E-1   3.279337584972382E-1  -7.503898235106665E-1   3.336833822727204E-1   2.569027534127236E-1   1.638815032110338E-1  
 1.006151537884471E10    3.332060694694519E-1   4.038871730087046E-2  -8.031003028800415E-1   3.307577925920487E-1  -7.506667840123370E-1   3.315374153852464E-1   2.609650638699532E-1   1.667509036480570E-1  
 1.006226556639160E10    3.326775747537613E-1   3.930847011497072E-2  -8.020992707513293E-1   3.348897030949593E-1  -7.523457896088810E-1   3.304955160617828E-1   2.637454003095626E-1   1.646485825157740E-1  
 1.006301575393848E10    3.337056636810303E-1   4.053272975283296E-2  -8.026774302589308E-1   3.392675888538361E-1  -7.516614353319884E-1   3.283206340670586E-1   2.665290850400925E-1   1.631598836361135E-1  
 1.006376594148537E10    3.369083428382874E-1   3.822313942810489E-2  -8.020191967458876E-1   3.407012978196143E-1  -7.518245384533454E-1   3.280357715487481E-1   2.692409986257553E-1   1.616391517471098E-1  
 1.006451612903226E10    3.333819204568863E-1   3.814606907092875E-2  -8.007213521985654E-1   3.441868048906327E-1  -7.521665322000304E-1   3.249782776832581E-1   2.711535236239433E-1   1.614113735670055E-1  
 1.006526631657915E10    3.339291644096375E-1   3.744278511470345E-2  -8.000898884068415E-1   3.493660408258439E-1  -7.551044296300699E-1   3.226489475369453E-1   2.754454994201661E-1   1.592041926729048E-1  
 1.006601650412603E10    3.328431090712548E-1   3.681490692637596E-2  -7.975528799720947E-1   3.510062810778619E-1  -7.571040126584775E-1   3.214521875977517E-1   2.766826665401459E-1   1.621429904462365E-1  
 1.006676669167292E10    3.375718736648559E-1   3.322621913438532E-2  -7.970200776037256E-1   3.569037199020386E-1  -7.546413701312835E-1   3.204441741108895E-1   2.781393113732338E-1   1.639045331917079E-1  
 1.006751687921981E10    3.386081770062446E-1   3.305542082638755E-2  -7.958255880009039E-1   3.615174555778504E-1  -7.597007515700137E-1   3.168075391650200E-1   2.806152120232582E-1   1.612556555351382E-1  
 1.006826706676669E10    3.399305292963982E-1   3.089270429433403E-2  -7.928431519627009E-1   3.633002832531930E-1  -7.586383237113239E-1   3.148867496848106E-1   2.891017115116119E-1   1.577572819786686E-1  
 1.006901725431358E10    3.386673942208291E-1   3.009605471258092E-2  -7.913239017644237E-1   3.658851298689843E-1  -7.611977083772539E-1   3.134129250049592E-1   2.886920365691185E-1   1.620482986634274E-1  
 1.006976744186047E10    3.384247407317162E-1   3.098236310779779E-2  -7.873177454078194E-1   3.688516417145729E-1  -7.636290845654274E-1   3.117854169011117E-1   2.887802639603614E-1   1.606289969853595E-1  
