#  HZ   S   RI   R     50.0 
! Rohde & Schwarz ZVL13 2Ports - Version 3.31 - 1303.6509k13 SN: 101088
! Date: 2023-03-06 16:03:19
! Data & Calibration Information:
! Trc4:S11(TOSM) Trc2:S21(TOSM) Trc3:S12(TOSM) Trc5:S22(TOSM)
! 
! 
! 
 1.000000000000000E10    3.140411733287573E-1   8.692570466091200E-2  -8.338756662596707E-1   1.802359762047232E-1  -8.167523858855932E-1   2.206739840638638E-1   2.284742232687772E-1   1.903377151668194E-1  
 1.000075018754689E10    3.133845226788521E-1   8.551869047795012E-2  -8.344077095364273E-1   1.847191821908951E-1  -8.140164563412571E-1   2.208498573917151E-1   2.292114119356871E-1   1.923409923836901E-1  
 1.000150037509377E10    3.140806698873639E-1   8.547080656095846E-2  -8.364093716350177E-1   1.864126087664068E-1  -8.118721335215937E-1   2.179381291091442E-1   2.329761587214471E-1   1.911462796246846E-1  
 1.000225056264066E10    3.150573670303822E-1   8.367779864643873E-2  -8.381660175531538E-1   1.864403525297344E-1  -8.099041201888654E-1   2.152242604720593E-1   2.334071723413468E-1   1.902959753180068E-1  
 1.000300075018755E10    3.130869468572736E-1   8.298366479543662E-2  -8.393404273234009E-1   1.900107425761223E-1  -8.055529254128662E-1   2.146010539178551E-1   2.367222545889020E-1   1.925718951440560E-1  
 1.000375093773443E10    3.155692628526687E-1   8.121919684326943E-2  -8.411660539149541E-1   1.907517061387003E-1  -8.058068749346000E-1   2.114731974537671E-1   2.378063876999915E-1   1.928299144777136E-1  
 1.000450112528132E10    3.102360509765149E-1   8.081579197210347E-2  -8.402230993364177E-1   1.922499453304708E-1  -8.024898822243791E-1   2.104126582001150E-1   2.432062620373070E-1   1.960926867968651E-1  
 1.000525131282821E10    3.113293191364407E-1   8.407232650546197E-2  -8.410468810180580E-1   1.969681249321997E-1  -8.027186197530827E-1   2.077067069004476E-1   2.424316161771119E-1   1.933691908263706E-1  
 1.000600150037509E10    3.136716647487879E-1   7.935307945151535E-2  -8.433709725168149E-1   2.003289314247668E-1  -8.000635459326099E-1   2.038789067590237E-1   2.447016984875501E-1   1.937032997366419E-1  
 1.000675168792198E10    3.139335853496194E-1   7.985807519176245E-2  -8.444567021695235E-1   2.059698812906445E-1  -7.992071079363331E-1   2.008323532032967E-1   2.462242252615095E-1   1.965097156023578E-1  
 1.000750187546887E10    3.127407877647876E-1   8.076366285957840E-2  -8.477089745553851E-1   2.079052824920417E-1  -7.994595893931833E-1   1.971777259872854E-1   2.495116716511548E-1   1.990158887633006E-1  
 1.000825206301576E10    3.121617903107405E-1   7.779846552366986E-2  -8.446287288728146E-1   2.161637022770942E-1  -7.972941249121608E-1   1.967642388574779E-1   2.504411138552428E-1   2.005279284934168E-1  
 1.000900225056264E10    3.197824380668998E-1   7.571946710579981E-2  -8.484024535689749E-1   2.209456813684106E-1  -7.954849471633179E-1   1.969147312210500E-1   2.520973053321243E-1   2.059117605796102E-1  
 1.000975243810953E10    3.167049694865942E-1   7.638206026663572E-2  -8.457463012913720E-1   2.221720585805178E-1  -7.929689511648972E-1   1.904404389593006E-1   2.536927543252707E-1   2.052650770867826E-1  
 1.001050262565641E10    3.219543224495650E-1   7.731283825652928E-2  -8.422497849715930E-1   2.272879824638367E-1  -7.950110622487197E-1   1.868427416990697E-1   2.561280727630854E-1   2.043983255369595E-1  
 1.001125281320330E10    3.206972444871068E-1   7.756742009214518E-2  -8.445313846439884E-1   2.328213863788546E-1  -7.927271438810248E-1   1.829481238864362E-1   2.574690264230967E-1   2.055345273895131E-1  
 1.001200300075019E10    3.218510396510363E-1   7.605615307445665E-2  -8.426648360038285E-1   2.371440131016076E-1  -7.938397363145358E-1   1.810766280341148E-1   2.584185568478704E-1   2.115753966424635E-1  
 1.001275318829707E10    3.229740358307959E-1   7.507898175536308E-2  -8.387860560668454E-1   2.442005270949006E-1  -7.930470620730774E-1   1.787946521309018E-1   2.619720351716877E-1   2.142117503058166E-1  
 1.001350337584396E10    3.239292098864914E-1   7.635410795173342E-2  -8.395952351610500E-1   2.436877359904349E-1  -7.954362431799910E-1   1.726793698637188E-1   2.592226728361846E-1   2.168139274619159E-1  
 1.001425356339085E10    3.247313665449619E-1   7.313964661299015E-2  -8.399667594050310E-1   2.496007148171962E-1  -7.931934789347287E-1   1.730701131452620E-1   2.613362363228202E-1   2.172504684320684E-1  
 1.001500375093774E10    3.296760670390725E-1   7.048986675841497E-2  -8.356656854579366E-1   2.568416331678629E-1  -7.932898571644742E-1   1.694281142117084E-1   2.601838052791358E-1   2.186294630521580E-1  
 1.001575393848462E10    3.295043989962340E-1   7.191380469812392E-2  -8.299006079831333E-1   2.654626739719510E-1  -7.956152324669920E-1   1.654713071312010E-1   2.630235588285327E-1   2.224802224468793E-1  
 1.001650412603151E10    3.320670142644643E-1   6.900155904677724E-2  -8.280291526241168E-1   2.679841801831127E-1  -7.948000099277517E-1   1.641512167443335E-1   2.664868131616711E-1   2.251442771397114E-1  
 1.001725431357839E10    3.327047937890889E-1   6.991711051951846E-2  -8.238058893167952E-1   2.709226747468114E-1  -7.968953306339340E-1   1.602855807034672E-1   2.666581681942939E-1   2.273999305481847E-1  
 1.001800450112528E10    3.349343392732740E-1   6.763793206118018E-2  -8.227815500550237E-1   2.781416201621294E-1  -7.966041741554649E-1   1.573666263711453E-1   2.690886720582843E-1   2.280800542471858E-1  
 1.001875468867217E10    3.392390550732614E-1   6.648618939842400E-2  -8.189729340424087E-1   2.812396956881882E-1  -7.971828277235710E-1   1.574421859031916E-1   2.667192940080166E-1   2.290012854800585E-1  
 1.001950487621906E10    3.382579371094704E-1   6.423881954930691E-2  -8.142778855355691E-1   2.845201566955448E-1  -7.973450594871985E-1   1.560026226620376E-1   2.677294295629859E-1   2.342577071002585E-1  
 1.002025506376594E10    3.407480005133152E-1   6.340825028158012E-2  -8.098657228774933E-1   2.894156020838023E-1  -8.025038982173732E-1   1.536209947101772E-1   2.709826603031159E-1   2.345531214862516E-1  
 1.002100525131283E10    3.413910359895229E-1   6.023670542593257E-2  -8.075660198734410E-1   2.943079133126140E-1  -8.011273302134091E-1   1.532407972000540E-1   2.677227789896727E-1   2.353221847156216E-1  
 1.002175543885972E10    3.413924692410231E-1   6.069929281051265E-2  -8.036196563670405E-1   2.970866632369161E-1  -8.027396356169546E-1   1.539603403110803E-1   2.698929554438591E-1   2.355826055071146E-1  
 1.002250562640660E10    3.443025097361208E-1   5.644666422183044E-2  -7.977931060892782E-1   3.029532367929817E-1  -8.066222392907489E-1   1.537317408227921E-1   2.721743091973663E-1   2.385882165517087E-1  
 1.002325581395349E10    3.419817277070880E-1   5.746199174931663E-2  -7.941037670458009E-1   3.039076363730431E-1  -8.056015406955507E-1   1.540453104577959E-1   2.672610226455331E-1   2.348814151873135E-1  
 1.002400600150038E10    3.455247038874030E-1   5.478786947344015E-2  -7.918732640197959E-1   3.049130425906182E-1  -8.082170158314475E-1   1.547443647265434E-1   2.684261292800307E-1   2.378653450200521E-1  
 1.002475618904726E10    3.468678358986974E-1   5.227545468952442E-2  -7.859737059961628E-1   3.079237001040578E-1  -8.082505602478163E-1   1.560712311796844E-1   2.696903442123533E-1   2.369975387616093E-1  
 1.002550637659415E10    3.483271175220609E-1   5.016753064862760E-2  -7.831708326292312E-1   3.128992092868686E-1  -8.100419490961218E-1   1.572400143383443E-1   2.681989117664099E-1   2.364319240442754E-1  
 1.002625656414104E10    3.478419341719150E-1   5.037496722541301E-2  -7.779966519987230E-1   3.131854914984107E-1  -8.119605202620662E-1   1.583397889453173E-1   2.656285623857378E-1   2.375196689759632E-1  
 1.002700675168792E10    3.485058096581697E-1   4.573516222853637E-2  -7.761839578713135E-1   3.129596025151015E-1  -8.160737933620972E-1   1.604823203808070E-1   2.667814635965228E-1   2.405862546599488E-1  
 1.002775693923481E10    3.481853761091828E-1   4.596189654633315E-2  -7.734637794127132E-1   3.175563116601111E-1  -8.144308267913609E-1   1.617041296683252E-1   2.647046374619007E-1   2.385885935462838E-1  
 1.002850712678170E10    3.472183046928049E-1   4.526202749608815E-2  -7.725658792054113E-1   3.123234444254637E-1  -8.162134817188494E-1   1.637228258404136E-1   2.643072406092286E-1   2.381019710717238E-1  
 1.002925731432858E10    3.474870335325598E-1   4.578514065030137E-2  -7.661274851863222E-1   3.178816268777847E-1  -8.167252501129731E-1   1.685741555751860E-1   2.628628558599949E-1   2.372535302203988E-1  
 1.003000750187547E10    3.478968531420827E-1   4.249540599954355E-2  -7.631255392745987E-1   3.200865079569817E-1  -8.170800502866307E-1   1.747619925126434E-1   2.593897834473849E-1   2.369869451687560E-1  
 1.003075768942236E10    3.486989570555091E-1   4.181999898458921E-2  -7.615621740800795E-1   3.166947809875013E-1  -8.181453072347173E-1   1.807432736828923E-1   2.602339036446810E-1   2.353473484069397E-1  
 1.003150787696924E10    3.493848483833671E-1   3.928547219246841E-2  -7.607978620231894E-1   3.124585294255614E-1  -8.211001385661525E-1   1.765073529177904E-1   2.553009985002875E-1   2.370260374122530E-1  
 1.003225806451613E10    3.471035168081523E-1   4.167296621329132E-2  -7.575021470955334E-1   3.142456226179004E-1  -8.191275461992899E-1   1.893040523853899E-1   2.558557902434469E-1   2.348640790755744E-1  
 1.003300825206302E10    3.455344814211130E-1   4.178023072563648E-2  -7.530860171167346E-1   3.174751038941742E-1  -8.186285580507586E-1   1.964792402137816E-1   2.560622208869458E-1   2.352154505435714E-1  
 1.003375843960990E10    3.476778840473294E-1   3.936443812248981E-2  -7.523285234521200E-1   3.135813486319780E-1  -8.182964119135390E-1   1.986122867834568E-1   2.495411199234426E-1   2.332200707215265E-1  
 1.003450862715679E10    3.469876408123971E-1   3.937079496798196E-2  -7.516654823715980E-1   3.116258153757454E-1  -8.158899437216054E-1   2.022600585310162E-1   2.490540002591908E-1   2.326506121516959E-1  
 1.003525881470368E10    3.468536950397492E-1   4.388928497525166E-2  -7.487918218909890E-1   3.103004845482112E-1  -8.144958760460679E-1   2.095486956103146E-1   2.478786583247782E-1   2.310272487947568E-1  
 1.003600900225056E10    3.487399752280116E-1   3.894043741424150E-2  -7.496897528693971E-1   3.102154046064616E-1  -8.165909854171825E-1   2.112704077050090E-1   2.456073726256192E-1   2.337984659070644E-1  
 1.003675918979745E10    3.409663494464755E-1   4.062517970618865E-2  -7.477284625909175E-1   3.090078062766791E-1  -8.147111943490559E-1   2.195690653094649E-1   2.451628292258084E-1   2.285783748344319E-1  
 1.003750937734434E10    3.459792664676905E-1   4.140173718635326E-2  -7.485312566828909E-1   3.067422556701303E-1  -8.127753697777365E-1   2.245511575897038E-1   2.396276094543934E-1   2.281941990771254E-1  
 1.003825956489122E10    3.456585925197601E-1   4.100920904011308E-2  -7.484019708460004E-1   3.063624913918973E-1  -8.117096997799560E-1   2.296069776171447E-1   2.396504702393711E-1   2.261088316990423E-1  
 1.003900975243811E10    3.456292803713679E-1   4.339662152985236E-2  -7.473656194533050E-1   3.048708825477958E-1  -8.085002925366093E-1   2.369924297979474E-1   2.382618534611166E-1   2.268024677951044E-1  
 1.003975993998500E10    3.423464355111124E-1   4.573726199759066E-2  -7.500167949360130E-1   3.037342863896490E-1  -8.075440570465906E-1   2.411360744656623E-1   2.361701342865825E-1   2.265372245719149E-1  
 1.004051012753188E10    3.440851505267620E-1   4.627898749297363E-2  -7.501871300463403E-1   3.011084810507298E-1  -8.056236349682088E-1   2.484946665038169E-1   2.318716667246819E-1   2.222114649227980E-1  
 1.004126031507877E10    3.446204602193833E-1   4.418642431559151E-2  -7.522814403787281E-1   2.966728308182955E-1  -8.026917291506859E-1   2.506110754974187E-1   2.310816675795615E-1   2.204763972342626E-1  
 1.004201050262566E10    3.424142170271278E-1   4.691198837994091E-2  -7.498861709717103E-1   2.972165220549703E-1  -8.000806856928119E-1   2.574437579396369E-1   2.320650406078995E-1   2.188438931206367E-1  
 1.004276069017254E10    3.408548672807216E-1   4.688551710642197E-2  -7.522356644210942E-1   2.965623085424305E-1  -7.998512239094811E-1   2.628002365463972E-1   2.298464459817112E-1   2.166481909837025E-1  
 1.004351087771943E10    3.432014998969436E-1   4.977326680660655E-2  -7.541743686396238E-1   2.949671571865679E-1  -7.972128021174479E-1   2.694658362612128E-1   2.310265315774084E-1   2.132668900715495E-1  
 1.004426106526632E10    3.417671234905720E-1   4.916343377285112E-2  -7.553838844515998E-1   2.940229846248031E-1  -7.933131154499830E-1   2.698746784868837E-1   2.304418360823393E-1   2.124188663014490E-1  
 1.004501125281320E10    3.410780797305704E-1   5.113999516207002E-2  -7.564926237937197E-1   2.952006955459714E-1  -7.913014247772843E-1   2.798220621350408E-1   2.308889401833713E-1   2.098163667855040E-1  
 1.004576144036009E10    3.411111241576076E-1   5.105387151261095E-2  -7.621480279548323E-1   2.907565136489272E-1  -7.909242218838368E-1   2.828464194712043E-1   2.286241747857631E-1   2.090359148998989E-1  
 1.004651162790698E10    3.420986251574755E-1   5.367771262903825E-2  -7.634665682164312E-1   2.849230375251175E-1  -7.888020292204909E-1   2.844260358992219E-1   2.300125896464289E-1   2.060233267591297E-1  
 1.004726181545386E10    3.453466021901370E-1   5.169552391956050E-2  -7.671949170338634E-1   2.836978685688972E-1  -7.838003496893695E-1   2.870644693234563E-1   2.280943166407943E-1   2.056508099257630E-1  
 1.004801200300075E10    3.371589207845928E-1   5.098401356289936E-2  -7.700091892106403E-1   2.841824367770554E-1  -7.810247130993727E-1   2.921456610408426E-1   2.260378978139163E-1   2.009744087445567E-1  
 1.004876219054764E10    3.399291801646352E-1   4.807720237316827E-2  -7.705289441955253E-1   2.869811888700724E-1  -7.781125567732362E-1   2.964702416363359E-1   2.297279471178353E-1   1.996262638827678E-1  
 1.004951237809452E10    3.415515309056639E-1   5.104454421054602E-2  -7.747501355383584E-1   2.805800222393871E-1  -7.796445500267053E-1   2.943724961221218E-1   2.288339943380654E-1   1.950039803727909E-1  
 1.005026256564141E10    3.395545356541873E-1   5.226511370928948E-2  -7.759305327607060E-1   2.843205437964201E-1  -7.737756559999597E-1   3.051839492028952E-1   2.333504142336548E-1   1.939803780345095E-1  
 1.005101275318830E10    3.401423460316659E-1   5.585599813293894E-2  -7.797005978270889E-1   2.825617317393422E-1  -7.721788066567573E-1   3.060433663812279E-1   2.312350028951467E-1   1.916318693898763E-1  
 1.005176294073518E10    3.374680338826777E-1   5.154199234495313E-2  -7.821268868251611E-1   2.820149226656556E-1  -7.706784528410270E-1   3.068436006477475E-1   2.348999960157275E-1   1.881118542438343E-1  
 1.005251312828207E10    3.371277142569423E-1   5.325458577090556E-2  -7.815176445630572E-1   2.830268607890606E-1  -7.678984344807897E-1   3.089308968397975E-1   2.352794630151988E-1   1.851710117253501E-1  
 1.005326331582896E10    3.359189130991697E-1   5.302859290868300E-2  -7.878622317813783E-1   2.817925493690371E-1  -7.666549962064065E-1   3.076572780770064E-1   2.365294616736472E-1   1.828687174530175E-1  
 1.005401350337584E10    3.356266140702366E-1   5.319126660163992E-2  -7.889644196952429E-1   2.832634299981594E-1  -7.640513635426074E-1   3.116996626359225E-1   2.421414857143164E-1   1.829142418552621E-1  
 1.005476369092273E10    3.375802544730903E-1   5.354870956684450E-2  -7.904978957968655E-1   2.849151326641441E-1  -7.639226483126599E-1   3.123595710480214E-1   2.401361374545098E-1   1.786074958977031E-1  
 1.005551387846962E10    3.364647817245127E-1   5.212972992735419E-2  -7.966357732856358E-1   2.848291307300329E-1  -7.627545963412269E-1   3.104422722417116E-1   2.417245557092130E-1   1.754888961983530E-1  
 1.005626406601650E10    3.354790187263488E-1   5.502979293366410E-2  -7.973431989988338E-1   2.874757380571962E-1  -7.613605655777186E-1   3.122161892408134E-1   2.417520060080290E-1   1.714216813782111E-1  
 1.005701425356339E10    3.332974915438891E-1   5.296968116587708E-2  -7.970867989965439E-1   2.904960842695833E-1  -7.594268368825008E-1   3.112765065395832E-1   2.468865642960370E-1   1.717350272742393E-1  
 1.005776444111028E10    3.340976236334444E-1   4.911828474022308E-2  -8.004613404049423E-1   2.923856183269621E-1  -7.603863721286900E-1   3.128113873285054E-1   2.491875441478193E-1   1.723860329002690E-1  
 1.005851462865716E10    3.339407503938676E-1   4.856434595643515E-2  -8.012074665370604E-1   2.956094825255871E-1  -7.566599528587213E-1   3.135892290240526E-1   2.511561974978447E-1   1.688668578236652E-1  
 1.005926481620405E10    3.331700708147883E-1   4.907071622137509E-2  -8.049257759539134E-1   2.961528439790011E-1  -7.589695978910629E-1   3.121459133043886E-1   2.509738995756210E-1   1.665765318354897E-1  
 1.006001500375094E10    3.323211072722078E-1   5.139962265875789E-2  -8.059788733052737E-1   2.973544523686170E-1  -7.573652551843114E-1   3.120528005361558E-1   2.544509693905711E-1   1.687223547152579E-1  
 1.006076519129783E10    3.335711640954018E-1   4.882529160887313E-2  -8.050389964689997E-1   3.025058298692108E-1  -7.558649183709757E-1   3.089872373941541E-1   2.556495181393624E-1   1.597346170677179E-1  
 1.006151537884471E10    3.326735550287367E-1   4.934409440750935E-2  -8.085517563828535E-1   3.049283686012030E-1  -7.560855089078613E-1   3.070469270256162E-1   2.597329752546549E-1   1.636982767420822E-1  
 1.006226556639160E10    3.321097139531373E-1   4.945607819283814E-2  -8.077960425588771E-1   3.093759422776104E-1  -7.577729994567026E-1   3.059393149834871E-1   2.625046967270970E-1   1.626648969727330E-1  
 1.006301575393848E10    3.344769109421968E-1   4.866527060052499E-2  -8.077880707275870E-1   3.141204209333660E-1  -7.565029852900251E-1   3.040870505359769E-1   2.658742969226838E-1   1.615083502850528E-1  
 1.006376594148537E10    3.357655454739929E-1   4.858028039214182E-2  -8.075903030011343E-1   3.143827188628912E-1  -7.570999051497569E-1   3.035023861753941E-1   2.687910439664125E-1   1.611822441715983E-1  
 1.006451612903226E10    3.334383391645551E-1   4.779200734486716E-2  -8.065675445277898E-1   3.183992199957371E-1  -7.567982452346648E-1   3.005505853027106E-1   2.710899067059160E-1   1.613101707607200E-1  
 1.006526631657915E10    3.337158616390826E-1   4.759850946814881E-2  -8.061089880382766E-1   3.231090946820379E-1  -7.598294745684614E-1   2.981724668687582E-1   2.753034590226412E-1   1.591080326000861E-1  
 1.006601650412603E10    3.324295863744617E-1   4.574242452126835E-2  -8.034932556570897E-1   3.250100764799118E-1  -7.615102865551666E-1   2.964846602046490E-1   2.777748780789972E-1   1.619123172961924E-1  
 1.006676669167292E10    3.382094963550569E-1   4.414860459664184E-2  -8.034931390468291E-1   3.307062033998967E-1  -7.592745707065440E-1   2.954095592933895E-1   2.800654562184216E-1   1.631296524749377E-1  
 1.006751687921981E10    3.373739339223505E-1   4.313370971455217E-2  -8.021242443219281E-1   3.350465701663494E-1  -7.641321300402654E-1   2.917831793317199E-1   2.814642361411452E-1   1.624859099180670E-1  
 1.006826706676669E10    3.402519047901034E-1   4.033343668961970E-2  -7.990759920854611E-1   3.371320875892044E-1  -7.626396384590704E-1   2.901260131871701E-1   2.897021347838641E-1   1.606670241997830E-1  
 1.006901725431358E10    3.391417953971030E-1   4.023974258637376E-2  -7.978201635828935E-1   3.392437658903003E-1  -7.648818569071484E-1   2.884221964037420E-1   2.894160564231872E-1   1.651843090875825E-1  
 1.006976744186047E10    3.392793952569366E-1   4.145360216999205E-2  -7.939011927897587E-1   3.428941382271052E-1  -7.669104552764654E-1   2.868001720875502E-1   2.897562372443081E-1   1.641635291325392E-1  
