#  HZ   S   RI   R     50.0 
! Rohde & Schwarz ZVL13 2Ports - Version 3.31 - 1303.6509k13 SN: 101088
! Date: 2023-03-06 15:56:49
! Data & Calibration Information:
! Trc4:S11(TOSM) Trc2:S21(TOSM) Trc3:S12(TOSM) Trc5:S22(TOSM)
! 
! 
! 
 1.000000000000000E10    3.171364148550720E-1   7.804011238547456E-2  -8.309313609916327E-1   1.956111623309241E-1  -8.117653394756292E-1   2.371087818344846E-1   2.373052303635300E-1   1.866445631596707E-1  
 1.000075018754689E10    3.182980808296741E-1   7.767328617132800E-2  -8.316889250070498E-1   2.001709868071571E-1  -8.089837085753568E-1   2.375351560699165E-1   2.380442515716777E-1   1.887149437506926E-1  
 1.000150037509377E10    3.190338299421460E-1   7.672124393773629E-2  -8.333790510630779E-1   2.024911645942390E-1  -8.075058148336760E-1   2.345092303756938E-1   2.404436498650686E-1   1.872592687421183E-1  
 1.000225056264066E10    3.189552147515090E-1   7.568188192461545E-2  -8.356656936287219E-1   2.022539276602403E-1  -8.053417207600597E-1   2.314793989720628E-1   2.422263270687134E-1   1.859877671599117E-1  
 1.000300075018755E10    3.187179456600875E-1   7.659721371549905E-2  -8.373075999749307E-1   2.059907536767588E-1  -8.009054988936888E-1   2.308278310841442E-1   2.462404198700488E-1   1.889461812859523E-1  
 1.000375093773443E10    3.207526537167162E-1   7.410548974344190E-2  -8.389800049469731E-1   2.069636662567914E-1  -8.014891538132476E-1   2.277723786076621E-1   2.467990950944125E-1   1.893279421230639E-1  
 1.000450112528132E10    3.164070072496475E-1   7.382130615191918E-2  -8.381336051234862E-1   2.086344247201816E-1  -7.981324947025963E-1   2.262952347964317E-1   2.529689414939076E-1   1.915062424096856E-1  
 1.000525131282821E10    3.172983840741783E-1   7.497301870014202E-2  -8.379842820831918E-1   2.140572059216619E-1  -7.984556339024409E-1   2.232962171166256E-1   2.515579289972544E-1   1.898993444984780E-1  
 1.000600150037509E10    3.197523548802526E-1   7.231723996133584E-2  -8.411729445890500E-1   2.169262232070238E-1  -7.961351588512187E-1   2.194344255538196E-1   2.533278304884732E-1   1.900130777977307E-1  
 1.000675168792198E10    3.199722108568073E-1   7.279810151238726E-2  -8.419584402695175E-1   2.230590295060411E-1  -7.956517908981358E-1   2.167063844323725E-1   2.547334049846710E-1   1.928675788622697E-1  
 1.000750187546887E10    3.180151179726810E-1   7.352447459525555E-2  -8.452077373217146E-1   2.249161759143040E-1  -7.955882360750419E-1   2.131977133111195E-1   2.584722666412682E-1   1.953369515967119E-1  
 1.000825206301576E10    3.178314902950764E-1   7.209305617844207E-2  -8.418682774974809E-1   2.331498631592855E-1  -7.938328844895746E-1   2.122671175993294E-1   2.586818936696559E-1   1.964492196547366E-1  
 1.000900225056264E10    3.243140414871754E-1   6.874643628335175E-2  -8.453217096535124E-1   2.383962176212117E-1  -7.921751259618941E-1   2.133500755183370E-1   2.608738225989163E-1   2.011073069498555E-1  
 1.000975243810953E10    3.209851895335437E-1   7.022555144575574E-2  -8.427952467474534E-1   2.392397672366143E-1  -7.900477212970116E-1   2.053418114510492E-1   2.635398420131684E-1   1.998966342269919E-1  
 1.001050262565641E10    3.267811500287772E-1   7.237466828772057E-2  -8.395139550148234E-1   2.442549281179920E-1  -7.920178599918023E-1   2.023587652257383E-1   2.648577796894909E-1   1.990911976833200E-1  
 1.001125281320330E10    3.247895665331572E-1   7.101216855707558E-2  -8.411240669813944E-1   2.497905201697484E-1  -7.900220222640386E-1   1.983675588560016E-1   2.663157391119659E-1   2.014991924050306E-1  
 1.001200300075019E10    3.270494195598990E-1   6.822170887993995E-2  -8.384647823411373E-1   2.551914806029708E-1  -7.912220286277932E-1   1.969963956510157E-1   2.678312015909165E-1   2.076658944715011E-1  
 1.001275318829707E10    3.275741566851854E-1   6.967158197491397E-2  -8.349964206098506E-1   2.615042529189259E-1  -7.902025151119458E-1   1.952768623679072E-1   2.719012823732198E-1   2.103638245594820E-1  
 1.001350337584396E10    3.286185605836482E-1   7.118077603210876E-2  -8.362491905861096E-1   2.617401760557681E-1  -7.930123851108315E-1   1.884263521187276E-1   2.696236553155243E-1   2.118236539310254E-1  
 1.001425356339085E10    3.303839906194419E-1   6.678544363819547E-2  -8.358435912095145E-1   2.676788798522621E-1  -7.910044847336208E-1   1.881283495401845E-1   2.713888076016844E-1   2.137505919691393E-1  
 1.001500375093774E10    3.357427268596680E-1   6.287143320448134E-2  -8.308143171353510E-1   2.751228157268614E-1  -7.914257013168580E-1   1.840410883791745E-1   2.715513601762772E-1   2.136146667998404E-1  
 1.001575393848462E10    3.343063330042095E-1   6.819554332186349E-2  -8.254976800240140E-1   2.839286065383494E-1  -7.937163920337303E-1   1.812702194889784E-1   2.740644130542696E-1   2.181346243508887E-1  
 1.001650412603151E10    3.369060964513213E-1   6.378444591280910E-2  -8.234778168626624E-1   2.855291490260363E-1  -7.932162524728450E-1   1.792916161640391E-1   2.772099379026175E-1   2.205023535676052E-1  
 1.001725431357839E10    3.371521622335018E-1   6.491320799306000E-2  -8.190831448347788E-1   2.881177727231234E-1  -7.952326779335277E-1   1.749761097471431E-1   2.776830013866544E-1   2.238385192744795E-1  
 1.001800450112528E10    3.375410325958193E-1   6.297702052218743E-2  -8.179534708068217E-1   2.950962607295186E-1  -7.951577511872656E-1   1.730824135910333E-1   2.788456804066748E-1   2.226312060437239E-1  
 1.001875468867217E10    3.427152355170668E-1   6.108597163760771E-2  -8.138011423528374E-1   2.982062029628932E-1  -7.955816809501852E-1   1.728224252413526E-1   2.772239453077733E-1   2.249244100499948E-1  
 1.001950487621906E10    3.399485365056664E-1   5.853025353297704E-2  -8.089534102728012E-1   3.009064766094565E-1  -7.960824266648443E-1   1.718509188257202E-1   2.782416554837049E-1   2.306233519499702E-1  
 1.002025506376594E10    3.437203991567225E-1   5.786880755639353E-2  -8.037100809315637E-1   3.064003975299269E-1  -8.011597895351701E-1   1.695172212280035E-1   2.814948839181036E-1   2.295904835301578E-1  
 1.002100525131283E10    3.428399706231713E-1   5.579439015190702E-2  -8.019468489029649E-1   3.112612700895788E-1  -7.995509841359940E-1   1.696565704337373E-1   2.773922500180067E-1   2.307350970319232E-1  
 1.002175543885972E10    3.444607624365449E-1   5.684444365660793E-2  -7.979671014754641E-1   3.143199362464995E-1  -8.009300739825787E-1   1.705618999554396E-1   2.806390969907969E-1   2.304367552944858E-1  
 1.002250562640660E10    3.448891126665742E-1   5.185076811919023E-2  -7.916851587922011E-1   3.193069144974292E-1  -8.051508371771574E-1   1.705117351952494E-1   2.825322077359738E-1   2.336421072742154E-1  
 1.002325581395349E10    3.444544201917321E-1   5.212549312131791E-2  -7.871070597617113E-1   3.205030704092294E-1  -8.045485966609098E-1   1.701425735001966E-1   2.792317502162903E-1   2.309759326131899E-1  
 1.002400600150038E10    3.478110964717300E-1   4.935476585603980E-2  -7.847801637436473E-1   3.211924540320159E-1  -8.068877836096310E-1   1.710718239951939E-1   2.793369847502559E-1   2.336233667439086E-1  
 1.002475618904726E10    3.482644605013282E-1   4.730673597457903E-2  -7.790969248795140E-1   3.242067937118083E-1  -8.066225395643256E-1   1.729369768596932E-1   2.807032826136381E-1   2.322692315046903E-1  
 1.002550637659415E10    3.497590295142681E-1   4.556780599136745E-2  -7.757950075806597E-1   3.291628117455423E-1  -8.087879145264402E-1   1.737595142486215E-1   2.800863697078109E-1   2.331570123841456E-1  
 1.002625656414104E10    3.493172416949540E-1   4.439478855161803E-2  -7.705336809804999E-1   3.283705577565312E-1  -8.106879242836751E-1   1.753207611348540E-1   2.774965409502298E-1   2.336309621609680E-1  
 1.002700675168792E10    3.503543774615646E-1   3.972269272093428E-2  -7.682979502094417E-1   3.291628421217085E-1  -8.148617368122466E-1   1.772560956085965E-1   2.785311533901929E-1   2.376734967750208E-1  
 1.002775693923481E10    3.486944243053825E-1   4.079357008032979E-2  -7.659332250150370E-1   3.334115046211630E-1  -8.130989010148726E-1   1.786124448494569E-1   2.771917304632991E-1   2.356530554897093E-1  
 1.002850712678170E10    3.477875953463048E-1   3.971254899102731E-2  -7.648196310436770E-1   3.283422123260857E-1  -8.149950232061665E-1   1.810356709340662E-1   2.759210177249760E-1   2.354238035461107E-1  
 1.002925731432858E10    3.475840859078020E-1   3.920030245913123E-2  -7.583665131831038E-1   3.328371517288238E-1  -8.153571809392425E-1   1.857874088116721E-1   2.744440891396404E-1   2.339667647122877E-1  
 1.003000750187547E10    3.471809437434794E-1   3.632964675245647E-2  -7.550542803138141E-1   3.347306948568016E-1  -8.152746923519225E-1   1.929396847307102E-1   2.711764162386537E-1   2.352201182257563E-1  
 1.003075768942236E10    3.498249147110940E-1   3.629344462534721E-2  -7.532582412860367E-1   3.318557333777190E-1  -8.163558341118805E-1   1.972914260254249E-1   2.712858511613071E-1   2.348148462143535E-1  
 1.003150787696924E10    3.492958144234599E-1   3.332536504021431E-2  -7.528899485412930E-1   3.275472587686450E-1  -8.195679081796418E-1   1.938994306049168E-1   2.657188261709005E-1   2.356829372291018E-1  
 1.003225806451613E10    3.476740730650753E-1   3.675290707094819E-2  -7.489171307717653E-1   3.298371162285090E-1  -8.167268410440360E-1   2.070451087225930E-1   2.671169198111594E-1   2.333860641654547E-1  
 1.003300825206302E10    3.451521712167412E-1   3.576399513904870E-2  -7.448746687804846E-1   3.318841194125564E-1  -8.163826336528830E-1   2.147782308580101E-1   2.678346453061193E-1   2.343230416946214E-1  
 1.003375843960990E10    3.483710870897532E-1   3.202264637502655E-2  -7.440633990380982E-1   3.271302379769355E-1  -8.163473296721009E-1   2.153853903458566E-1   2.607048657856971E-1   2.326925112894855E-1  
 1.003450862715679E10    3.473830298855275E-1   3.250096543767568E-2  -7.434844660890669E-1   3.258355079133720E-1  -8.135869625101363E-1   2.188870234902054E-1   2.601471642011614E-1   2.322634902098757E-1  
 1.003525881470368E10    3.479404853761673E-1   3.685815471249695E-2  -7.400731697256775E-1   3.253625847050579E-1  -8.115380325914997E-1   2.268797529908523E-1   2.582179594547123E-1   2.306820345011793E-1  
 1.003600900225056E10    3.494582040957750E-1   3.249689529647615E-2  -7.411982270506321E-1   3.248472424215228E-1  -8.132922292404167E-1   2.296497162317560E-1   2.566900273646205E-1   2.336163095986853E-1  
 1.003675918979745E10    3.419942370884419E-1   3.376410760284719E-2  -7.393231590238230E-1   3.231671031391472E-1  -8.116022222407526E-1   2.364967539417312E-1   2.549795576091111E-1   2.304179022010937E-1  
 1.003750937734434E10    3.451933193518640E-1   3.463971841731591E-2  -7.395819121543217E-1   3.216948585335613E-1  -8.092974360142485E-1   2.412350535857901E-1   2.513053367658630E-1   2.286681531006300E-1  
 1.003825956489122E10    3.466226059052050E-1   3.448374350586695E-2  -7.391672827537466E-1   3.215835028013796E-1  -8.075113067465216E-1   2.477887434145049E-1   2.516924922594637E-1   2.269077889987018E-1  
 1.003900975243811E10    3.456145126330972E-1   3.497940130659399E-2  -7.389457449466874E-1   3.188024276953728E-1  -8.044111428066374E-1   2.546124370230318E-1   2.487331720052183E-1   2.288444732000032E-1  
 1.003975993998500E10    3.440226969560415E-1   3.796412779483525E-2  -7.410028598670008E-1   3.182964352103264E-1  -8.033992651290027E-1   2.578069536464542E-1   2.472033478964180E-1   2.268545574966465E-1  
 1.004051012753188E10    3.456050003379256E-1   3.848875444007575E-2  -7.414678275070935E-1   3.156835040658534E-1  -8.013351587176192E-1   2.654890588721514E-1   2.422044500676483E-1   2.257334005438764E-1  
 1.004126031507877E10    3.462772553675503E-1   3.575130756010600E-2  -7.438404847629231E-1   3.110671248708398E-1  -7.981229065040951E-1   2.674912305118829E-1   2.402966338555098E-1   2.232584431337613E-1  
 1.004201050262566E10    3.450224667380542E-1   3.772209453512185E-2  -7.414846694362707E-1   3.110170880673736E-1  -7.947049552209590E-1   2.748436325170339E-1   2.420367713362635E-1   2.216204316361055E-1  
 1.004276069017254E10    3.431164058480143E-1   3.925690511140909E-2  -7.441099627230147E-1   3.106853952269049E-1  -7.948032088450702E-1   2.798065281735183E-1   2.391034629044459E-1   2.202907825350183E-1  
 1.004351087771943E10    3.454349214918197E-1   4.041485177425907E-2  -7.456213994089274E-1   3.094066562685848E-1  -7.916342363118507E-1   2.872217520109027E-1   2.406279630837128E-1   2.175117442513064E-1  
 1.004426106526632E10    3.445104925561369E-1   4.076964395161707E-2  -7.471156384345810E-1   3.085433137157591E-1  -7.881087698581810E-1   2.870011432787389E-1   2.397566984359950E-1   2.174746705624278E-1  
 1.004501125281320E10    3.427846906639666E-1   4.293640595707486E-2  -7.480243017679705E-1   3.093495770990611E-1  -7.858207039177050E-1   2.962678780354769E-1   2.398764227769107E-1   2.142690574012540E-1  
 1.004576144036009E10    3.417756270932167E-1   4.278658892853806E-2  -7.538294667723411E-1   3.053603466858000E-1  -7.848084875922240E-1   2.993173441444963E-1   2.373654246280611E-1   2.131750275468393E-1  
 1.004651162790698E10    3.451445343164266E-1   4.420659583639301E-2  -7.552461043443318E-1   2.999632147452027E-1  -7.829080460228026E-1   3.005570064441502E-1   2.373016468296827E-1   2.115301734190916E-1  
 1.004726181545386E10    3.483930943787605E-1   4.293060332795289E-2  -7.591087434028458E-1   2.987065771875143E-1  -7.774048528719004E-1   3.025611891835303E-1   2.363679207463443E-1   2.093579108552603E-1  
 1.004801200300075E10    3.403540611621499E-1   4.122317331737718E-2  -7.617070978126255E-1   2.993192743255557E-1  -7.746005234858256E-1   3.089252835334271E-1   2.334020835109309E-1   2.073300342615884E-1  
 1.004876219054764E10    3.434046015998125E-1   4.061223082256814E-2  -7.629830307616875E-1   3.013768036846579E-1  -7.715394918523313E-1   3.120819510935218E-1   2.362360956611544E-1   2.044986646916824E-1  
 1.004951237809452E10    3.452936071644366E-1   4.213576106293707E-2  -7.671305046190564E-1   2.948864438740433E-1  -7.730264947913453E-1   3.100871329821557E-1   2.361776907573223E-1   2.001834414393835E-1  
 1.005026256564141E10    3.433247725213975E-1   4.220532967151835E-2  -7.679997020655864E-1   2.991001740180642E-1  -7.672177580370959E-1   3.200275580008002E-1   2.384209826687053E-1   1.988667776722405E-1  
 1.005101275318830E10    3.447323450656980E-1   4.686414204025254E-2  -7.717708107054445E-1   2.970511468999953E-1  -7.647252293191628E-1   3.222874592609793E-1   2.371614658569858E-1   1.981283756723368E-1  
 1.005176294073518E10    3.426621523112625E-1   4.183717535730080E-2  -7.744166284479775E-1   2.966328729240775E-1  -7.634994561127517E-1   3.223125943868250E-1   2.403054101782248E-1   1.934844426337530E-1  
 1.005251312828207E10    3.417248405639232E-1   4.376889400259182E-2  -7.732715594373084E-1   2.996945036374033E-1  -7.601377752549787E-1   3.254109624662073E-1   2.402573003265009E-1   1.900825059213482E-1  
 1.005326331582896E10    3.414915756983012E-1   4.334955728402165E-2  -7.802842760450909E-1   2.970917903076411E-1  -7.591244943913228E-1   3.236999738557637E-1   2.418078399696887E-1   1.896743766765440E-1  
 1.005401350337584E10    3.410534412330658E-1   4.347254295819593E-2  -7.805813368496316E-1   3.005025256483734E-1  -7.560627010292458E-1   3.288197167189479E-1   2.465183926470101E-1   1.886237656632671E-1  
 1.005476369092273E10    3.416147292724759E-1   4.416823058891641E-2  -7.828675876490855E-1   3.009088473212034E-1  -7.565814651406877E-1   3.269697552450896E-1   2.434931691274942E-1   1.833489819777029E-1  
 1.005551387846962E10    3.415743857860685E-1   4.207315394487719E-2  -7.891518567437572E-1   3.007465176469655E-1  -7.550112624261031E-1   3.253885178471119E-1   2.456631196737513E-1   1.799544961427763E-1  
 1.005626406601650E10    3.413259295074135E-1   4.605700043262465E-2  -7.903096462781644E-1   3.020155782078236E-1  -7.539987484261140E-1   3.265371721306236E-1   2.444432197338924E-1   1.772670423068434E-1  
 1.005701425356339E10    3.383490875904680E-1   4.317471604890442E-2  -7.892827815171322E-1   3.065685361940057E-1  -7.520746511502969E-1   3.261762000145585E-1   2.491249516087979E-1   1.770991908069189E-1  
 1.005776444111028E10    3.397728589694590E-1   4.068457226330591E-2  -7.932529211969626E-1   3.076949286140501E-1  -7.534254133858653E-1   3.269150756277353E-1   2.504238281774178E-1   1.774265423341267E-1  
 1.005851462865716E10    3.389823630589635E-1   3.915121305493886E-2  -7.941083656931852E-1   3.105713987269044E-1  -7.497375578984271E-1   3.269394059786738E-1   2.522773223611862E-1   1.733872223576596E-1  
 1.005926481620405E10    3.404818307128699E-1   3.925116739213776E-2  -7.973501542692695E-1   3.125574764500767E-1  -7.518129548787721E-1   3.267714186859012E-1   2.510168122246772E-1   1.706355743171940E-1  
 1.006001500375094E10    3.395324898746253E-1   4.247920386560788E-2  -7.988030252727089E-1   3.133816385008395E-1  -7.502081145937163E-1   3.264929849264264E-1   2.544913217875094E-1   1.720895262307868E-1  
 1.006076519129783E10    3.392190677857757E-1   3.910205539051306E-2  -7.974957788022028E-1   3.186161204640032E-1  -7.485958631657025E-1   3.235508016572446E-1   2.548826732416153E-1   1.644281082626853E-1  
 1.006151537884471E10    3.388424989912302E-1   4.141777670307765E-2  -8.013239346234120E-1   3.206830408087999E-1  -7.492673068366873E-1   3.216261330590129E-1   2.591104052572728E-1   1.675027808474352E-1  
 1.006226556639160E10    3.385466632566333E-1   3.963888896998046E-2  -8.001166516259132E-1   3.259470909503878E-1  -7.508952758439884E-1   3.200132306183964E-1   2.610404690603823E-1   1.651922936763558E-1  
 1.006301575393848E10    3.402468862007588E-1   4.071399614502899E-2  -8.004166239385416E-1   3.303450175582290E-1  -7.502186629425720E-1   3.180373605079502E-1   2.642113807418525E-1   1.642482218664264E-1  
 1.006376594148537E10    3.424089240546049E-1   4.006808307495725E-2  -8.002098885726272E-1   3.305380649468094E-1  -7.506049655631943E-1   3.175825273803771E-1   2.669556411952585E-1   1.625152746377501E-1  
 1.006451612903226E10    3.390175526695282E-1   3.813449177082726E-2  -7.986389532014091E-1   3.341809796927662E-1  -7.504878592942731E-1   3.145939439184308E-1   2.686431551594884E-1   1.638852686021962E-1  
 1.006526631657915E10    3.396719752272427E-1   3.954825373855313E-2  -7.986910380533105E-1   3.390680239341289E-1  -7.537518961246962E-1   3.120288537961961E-1   2.730591323665053E-1   1.602511256441529E-1  
 1.006601650412603E10    3.390130943016529E-1   3.754603025103241E-2  -7.959843138777759E-1   3.411735988184035E-1  -7.555162402072798E-1   3.108265134637386E-1   2.741893809704930E-1   1.628037572644568E-1  
 1.006676669167292E10    3.441763763792456E-1   3.586307039631619E-2  -7.957457979567748E-1   3.467769040819556E-1  -7.531648455147022E-1   3.095707430961460E-1   2.759854771598637E-1   1.642859107269239E-1  
 1.006751687921981E10    3.436958300513178E-1   3.469322673010495E-2  -7.943278077349112E-1   3.514661003663570E-1  -7.584322576304994E-1   3.060103281438947E-1   2.777253713243336E-1   1.618293224502825E-1  
 1.006826706676669E10    3.466389466388048E-1   3.252139772710666E-2  -7.912755701412226E-1   3.534441341383576E-1  -7.572747975718476E-1   3.045157063333601E-1   2.861017283058703E-1   1.596688434708606E-1  
 1.006901725431358E10    3.439127572197050E-1   3.180304717991441E-2  -7.902003964111303E-1   3.552395567011477E-1  -7.595461409853573E-1   3.026275332387925E-1   2.857362161857754E-1   1.638247486704862E-1  
 1.006976744186047E10    3.445585169193417E-1   3.187907834457858E-2  -7.859574171012911E-1   3.586137121561796E-1  -7.620169862330877E-1   3.009299894497960E-1   2.853440206362218E-1   1.635355797502519E-1  
