#  HZ   S   RI   R     50.0 
! Rohde & Schwarz ZVL13 2Ports - Version 3.31 - 1303.6509k13 SN: 101088
! Date: 2023-03-06 15:50:31
! Data & Calibration Information:
! Trc4:S11(TOSM) Trc2:S21(TOSM) Trc3:S12(TOSM) Trc5:S22(TOSM)
! 
! 
! 
 1.000000000000000E10    3.065129989385605E-1   6.771925002258358E-2  -8.301482502211826E-1   2.149394992440940E-1  -8.106056833649654E-1   2.554582792520523E-1   2.307385003268719E-1   1.785473218780262E-1  
 1.000075018754689E10    3.079921558797359E-1   6.751570147900449E-2  -8.304625060357331E-1   2.194675087332726E-1  -8.071314599302314E-1   2.567077426612378E-1   2.329228353649378E-1   1.814834824222548E-1  
 1.000150037509377E10    3.092601229250432E-1   6.763046558596467E-2  -8.326823457247319E-1   2.216320088952780E-1  -8.058274903547339E-1   2.536439004242420E-1   2.354404420703650E-1   1.798677404518068E-1  
 1.000225056264066E10    3.098552928566934E-1   6.532027814542576E-2  -8.345642544289592E-1   2.218578063994647E-1  -8.037701513759050E-1   2.505015712231398E-1   2.370000221729279E-1   1.780298719303516E-1  
 1.000300075018755E10    3.085903673171997E-1   6.680721718125041E-2  -8.359693159927821E-1   2.252673640549183E-1  -7.992295876958102E-1   2.497795409858226E-1   2.409677595049143E-1   1.814251020065597E-1  
 1.000375093773443E10    3.114583726525306E-1   6.534568269246435E-2  -8.380189076009023E-1   2.265441612303257E-1  -7.997962294507977E-1   2.467578078210354E-1   2.420197764486075E-1   1.796581679051341E-1  
 1.000450112528132E10    3.072546450793743E-1   6.391800587471347E-2  -8.367667670275839E-1   2.285418843775988E-1  -7.965297668459607E-1   2.453175979554653E-1   2.482804472446442E-1   1.824644690525380E-1  
 1.000525131282821E10    3.091322683691979E-1   6.667058130703608E-2  -8.372798137922355E-1   2.337628142535687E-1  -7.967987797921116E-1   2.420372705608606E-1   2.482909656167031E-1   1.798320145380765E-1  
 1.000600150037509E10    3.120657938718796E-1   6.175880287769783E-2  -8.396966203493607E-1   2.372428377419710E-1  -7.949627482260333E-1   2.381766890585423E-1   2.501388937681914E-1   1.804699675846585E-1  
 1.000675168792198E10    3.105446029901505E-1   6.350243597072115E-2  -8.406881281482415E-1   2.430007203817368E-1  -7.945911984717758E-1   2.357401688843966E-1   2.523601312637329E-1   1.825729690569206E-1  
 1.000750187546887E10    3.105193349123002E-1   6.257784041464583E-2  -8.431575106634669E-1   2.464071989357472E-1  -7.952220100057476E-1   2.318203091174364E-1   2.546468916535378E-1   1.854971765912675E-1  
 1.000825206301576E10    3.100876943171024E-1   6.226993176139670E-2  -8.399597504128851E-1   2.540155332684517E-1  -7.935166891371828E-1   2.313605976700783E-1   2.574362621307373E-1   1.855667390240614E-1  
 1.000900225056264E10    3.168064851760865E-1   5.824379977079076E-2  -8.424627032449393E-1   2.596683535277843E-1  -7.920387894152948E-1   2.324233041107655E-1   2.577749817669392E-1   1.903895717808857E-1  
 1.000975243810953E10    3.138276372849941E-1   5.926019098764213E-2  -8.394110213137020E-1   2.612282967269421E-1  -7.902462893929503E-1   2.251217692643404E-1   2.608762463927269E-1   1.904630113029171E-1  
 1.001050262565641E10    3.190964944958687E-1   6.086741308613889E-2  -8.362237444927483E-1   2.649163848757745E-1  -7.924733981860089E-1   2.226370393037796E-1   2.634044646322727E-1   1.886754131426435E-1  
 1.001125281320330E10    3.162375197112560E-1   5.953311256484292E-2  -8.370107907779459E-1   2.704930703043938E-1  -7.908950599123480E-1   2.180042520612479E-1   2.658285420835019E-1   1.900282259716335E-1  
 1.001200300075019E10    3.178311048746110E-1   5.935903122897277E-2  -8.349687735994699E-1   2.747717110812665E-1  -7.918185061785378E-1   2.177135365307332E-1   2.661888725161553E-1   1.968475980676750E-1  
 1.001275318829707E10    3.195597776174545E-1   6.030437566909753E-2  -8.313949584782279E-1   2.813116073012353E-1  -7.911741786312109E-1   2.154524052292109E-1   2.701903576850891E-1   1.987649450326479E-1  
 1.001350337584396E10    3.222937678694725E-1   6.028518192391961E-2  -8.318884499461338E-1   2.832938866913319E-1  -7.943342495142463E-1   2.093722978383303E-1   2.690839481353760E-1   2.007057353164488E-1  
 1.001425356339085E10    3.211046136021615E-1   5.843594875384628E-2  -8.322700181339826E-1   2.879155251681805E-1  -7.914995257601658E-1   2.105591752827168E-1   2.708454029262066E-1   2.028857346927196E-1  
 1.001500375093774E10    3.266465794742108E-1   5.469040725362012E-2  -8.274479463102249E-1   2.948104927837849E-1  -7.922162974862845E-1   2.063077919185162E-1   2.712000945210457E-1   2.036052209568585E-1  
 1.001575393848462E10    3.260082821249962E-1   6.005180080901398E-2  -8.222062036630170E-1   3.021725517213345E-1  -7.951142700432941E-1   2.026127038151026E-1   2.738872239887714E-1   2.070673656092662E-1  
 1.001650412603151E10    3.293179270327091E-1   5.652355170254511E-2  -8.199422422173925E-1   3.059403828680516E-1  -7.938956755623965E-1   2.019378895461559E-1   2.779194774925709E-1   2.092947839612767E-1  
 1.001725431357839E10    3.293127881288528E-1   5.617724762977781E-2  -8.153720869656744E-1   3.073329314589501E-1  -7.959285123922055E-1   1.996344774365425E-1   2.773119512200356E-1   2.119176807289507E-1  
 1.001800450112528E10    3.297296689748765E-1   5.382873564670249E-2  -8.134806304808083E-1   3.151930306553841E-1  -7.956979165010938E-1   1.965069951713085E-1   2.790497356653214E-1   2.128194601113925E-1  
 1.001875468867217E10    3.358430260419846E-1   5.344945807162481E-2  -8.097849020708074E-1   3.191630995571614E-1  -7.959879921980810E-1   1.964882236719132E-1   2.777970685660840E-1   2.150303142545822E-1  
 1.001950487621906E10    3.318848810791970E-1   5.181390913905577E-2  -8.051292167841995E-1   3.212351195216180E-1  -7.959663818635667E-1   1.951850989162922E-1   2.776888136267662E-1   2.205052295766675E-1  
 1.002025506376594E10    3.350573936700821E-1   5.133894879382536E-2  -7.993943476053229E-1   3.267994160950184E-1  -8.008089618458391E-1   1.930091388374567E-1   2.823090876638890E-1   2.203297870054832E-1  
 1.002100525131283E10    3.351209745407105E-1   4.902018129596333E-2  -7.971946347247834E-1   3.317085314989091E-1  -7.993639993368165E-1   1.928226467669011E-1   2.798891728818417E-1   2.210654073052971E-1  
 1.002175543885972E10    3.364308292269707E-1   4.882310348808058E-2  -7.926149879182720E-1   3.344156862497330E-1  -8.009420806858195E-1   1.933336126506329E-1   2.826832519769669E-1   2.224898295902676E-1  
 1.002250562640660E10    3.375441870093345E-1   4.544291047792681E-2  -7.860038856523887E-1   3.399992453753948E-1  -8.048444425334747E-1   1.937633475959301E-1   2.857239375710488E-1   2.249113019077266E-1  
 1.002325581395349E10    3.362294279634954E-1   4.577402574388036E-2  -7.815731138309001E-1   3.407942498624325E-1  -8.039684266574373E-1   1.931706884503365E-1   2.819772303402424E-1   2.227263362971131E-1  
 1.002400600150038E10    3.396234845519066E-1   4.288000547349551E-2  -7.793657541313412E-1   3.416936147511007E-1  -8.064770698522896E-1   1.944405351728201E-1   2.822164137661457E-1   2.252991716639518E-1  
 1.002475618904726E10    3.405929805338383E-1   4.103794094849963E-2  -7.729860784484566E-1   3.445521557629109E-1  -8.062856274610522E-1   1.964339144676924E-1   2.835640303492547E-1   2.246913901203753E-1  
 1.002550637659415E10    3.403373616635800E-1   3.919147403541490E-2  -7.695937167375014E-1   3.490128271579743E-1  -8.084806907643458E-1   1.976365007609129E-1   2.813747076690197E-1   2.234207949034335E-1  
 1.002625656414104E10    3.396901990175247E-1   3.865312587115532E-2  -7.643029727970038E-1   3.487808931767941E-1  -8.107154902332476E-1   1.996057216227055E-1   2.789758459329606E-1   2.247449617067918E-1  
 1.002700675168792E10    3.397215063273907E-1   3.339837963753060E-2  -7.617576289916808E-1   3.491348494887352E-1  -8.153179708949455E-1   2.018329345583916E-1   2.810704285800458E-1   2.289493342268378E-1  
 1.002775693923481E10    3.390677135288716E-1   3.492697036122567E-2  -7.585940487470348E-1   3.536028925478459E-1  -8.135548128993961E-1   2.030349525511266E-1   2.799033125042916E-1   2.276847506955607E-1  
 1.002850712678170E10    3.377076832056046E-1   3.232361024642763E-2  -7.575550801686963E-1   3.475309399068356E-1  -8.152706607587481E-1   2.062190444916487E-1   2.774769215285778E-1   2.274124879271058E-1  
 1.002925731432858E10    3.373019350767135E-1   3.369070290634048E-2  -7.511134802082520E-1   3.521951503157615E-1  -8.155032088474890E-1   2.110124339312315E-1   2.761579481661320E-1   2.273158409028825E-1  
 1.003000750187547E10    3.360167217850686E-1   2.941559564267671E-2  -7.478272717164173E-1   3.539155446588993E-1  -8.154014290183149E-1   2.186352286934853E-1   2.724018006920815E-1   2.270655640039259E-1  
 1.003075768942236E10    3.376727548241616E-1   2.850469685845709E-2  -7.456002250569437E-1   3.506397166848183E-1  -8.164874626899569E-1   2.234981901496649E-1   2.728832339048385E-1   2.283551167057553E-1  
 1.003150787696924E10    3.362515320777894E-1   2.708262725382619E-2  -7.460120390227806E-1   3.458237509727479E-1  -8.189277241604309E-1   2.213847002834082E-1   2.670147432684899E-1   2.283234265044098E-1  
 1.003225806451613E10    3.345057888031006E-1   3.077834734830856E-2  -7.420622809634186E-1   3.482793384790421E-1  -8.158749876476799E-1   2.336063002645970E-1   2.675872608423234E-1   2.274421294005448E-1  
 1.003300825206302E10    3.315098825395107E-1   3.015805290984178E-2  -7.383271603341126E-1   3.499788209795952E-1  -8.142784090746236E-1   2.421881489157677E-1   2.678870463669301E-1   2.288047365913360E-1  
 1.003375843960990E10    3.334071627855302E-1   2.816652145117114E-2  -7.376109751973989E-1   3.466855241358280E-1  -8.134615830986851E-1   2.434431101381779E-1   2.603716837167740E-1   2.279655307949300E-1  
 1.003450862715679E10    3.333913099467755E-1   2.827965813191656E-2  -7.371956366992213E-1   3.451806296706200E-1  -8.105465557372148E-1   2.466547596007586E-1   2.597333551049234E-1   2.282577837687933E-1  
 1.003525881470368E10    3.332390473484993E-1   3.198854373433676E-2  -7.342036681495512E-1   3.437853619158269E-1  -8.084712630995015E-1   2.534268879294395E-1   2.574873591661453E-1   2.275511448280736E-1  
 1.003600900225056E10    3.352513086795807E-1   2.801410184058088E-2  -7.350763301109623E-1   3.438505539596081E-1  -8.095935411358142E-1   2.560759686231613E-1   2.563582645952702E-1   2.308605704408403E-1  
 1.003675918979745E10    3.287662834823132E-1   2.888373587875705E-2  -7.332132884253267E-1   3.425971973240377E-1  -8.069387148292597E-1   2.629245173335076E-1   2.542583175003529E-1   2.267505689126277E-1  
 1.003750937734434E10    3.321340007781982E-1   3.038904418094340E-2  -7.336460236612495E-1   3.418299047946930E-1  -8.040806294756402E-1   2.684084062874317E-1   2.509609781950711E-1   2.267890829969315E-1  
 1.003825956489122E10    3.322833593487740E-1   3.000402347402785E-2  -7.335036502575442E-1   3.409563921988012E-1  -8.024465308665032E-1   2.734120554029942E-1   2.498794427067042E-1   2.248540206529298E-1  
 1.003900975243811E10    3.305778315365316E-1   2.958405025207049E-2  -7.330052792889807E-1   3.394086737334729E-1  -7.990710305704882E-1   2.796963540911675E-1   2.482509202659131E-1   2.261732670624438E-1  
 1.003975993998500E10    3.279425927996636E-1   3.322400494228149E-2  -7.351459597579904E-1   3.386701972186566E-1  -7.983455023271072E-1   2.827496961653233E-1   2.465257069766522E-1   2.253751863799518E-1  
 1.004051012753188E10    3.304522248804570E-1   3.333096713751740E-2  -7.347835590034694E-1   3.369744201600552E-1  -7.958236863154613E-1   2.899919474422932E-1   2.416018935590982E-1   2.228382352092029E-1  
 1.004126031507877E10    3.307805682718754E-1   3.017202301524983E-2  -7.376315105807880E-1   3.321431943774224E-1  -7.929197111123580E-1   2.913934494554997E-1   2.388766406029463E-1   2.200455968495105E-1  
 1.004201050262566E10    3.293042874634267E-1   3.168361350260821E-2  -7.349482384281812E-1   3.329718351066113E-1  -7.898113501062031E-1   2.976575585007668E-1   2.387802867144347E-1   2.191886775458524E-1  
 1.004276069017254E10    3.278192934095860E-1   3.224726842875373E-2  -7.371240246718568E-1   3.320540421903134E-1  -7.897643600128192E-1   3.031681182384491E-1   2.380714823305607E-1   2.162783870582278E-1  
 1.004351087771943E10    3.283930895030499E-1   3.442481320213592E-2  -7.386552808787403E-1   3.307172138988971E-1  -7.866928057636347E-1   3.097317833602430E-1   2.374953759163619E-1   2.138912218661370E-1  
 1.004426106526632E10    3.278343527615070E-1   3.191193956467107E-2  -7.396232818106280E-1   3.297565978467464E-1  -7.834640929966303E-1   3.096237851083279E-1   2.362456909269095E-1   2.124319442284468E-1  
 1.004501125281320E10    3.257765897810460E-1   3.472421795804596E-2  -7.404080847958555E-1   3.311230592727661E-1  -7.810689820519381E-1   3.197389309704304E-1   2.368511724025011E-1   2.099867943143577E-1  
 1.004576144036009E10    3.237247880399228E-1   3.400448652528496E-2  -7.459069608287534E-1   3.267658646106720E-1  -7.800526886926971E-1   3.230989449918271E-1   2.331298185288906E-1   2.076133331860349E-1  
 1.004651162790698E10    3.258820178806781E-1   3.732714390034424E-2  -7.474705438722977E-1   3.213233166038991E-1  -7.783291040718718E-1   3.241027141809463E-1   2.333420475274324E-1   2.067636852738325E-1  
 1.004726181545386E10    3.284218383133412E-1   3.480117682270863E-2  -7.512909402096583E-1   3.200903896093369E-1  -7.732219680711332E-1   3.261737813055516E-1   2.305505346059800E-1   2.049890244293495E-1  
 1.004801200300075E10    3.206394969522953E-1   3.345833875235198E-2  -7.543843541772339E-1   3.204449365437031E-1  -7.701538155759719E-1   3.330642760396004E-1   2.273470893502236E-1   2.019851703751894E-1  
 1.004876219054764E10    3.237156902849674E-1   3.032882843279764E-2  -7.558336409096068E-1   3.227548846304417E-1  -7.670958751401734E-1   3.358642199635506E-1   2.300689133554697E-1   2.007707262587256E-1  
 1.004951237809452E10    3.248451929986477E-1   3.354690034039840E-2  -7.606697731748564E-1   3.161659961938859E-1  -7.683895480666263E-1   3.342580096125603E-1   2.288449726700783E-1   1.956004310950572E-1  
 1.005026256564141E10    3.240183011293412E-1   3.325387087252740E-2  -7.612687412374848E-1   3.206554706990719E-1  -7.616759482869895E-1   3.450940041542054E-1   2.313311294317245E-1   1.948044306278048E-1  
 1.005101275318830E10    3.251941887438297E-1   3.808319449576643E-2  -7.651850064207802E-1   3.195326838195324E-1  -7.592295796876951E-1   3.465248258113861E-1   2.290979365110398E-1   1.939388443126655E-1  
 1.005176294073518E10    3.220447126328945E-1   3.273839539515556E-2  -7.677023634473962E-1   3.193553354144098E-1  -7.572758078706739E-1   3.471797114908695E-1   2.316699644327164E-1   1.891849524826957E-1  
 1.005251312828207E10    3.220906716585160E-1   3.561494309506585E-2  -7.669107888902487E-1   3.225835066437721E-1  -7.527888224503752E-1   3.501704363822938E-1   2.315930653065443E-1   1.859708002026858E-1  
 1.005326331582896E10    3.206675955951214E-1   3.400037037307734E-2  -7.731945478087919E-1   3.210889935791493E-1  -7.512361809535996E-1   3.486447938382626E-1   2.326750257760286E-1   1.845947903728515E-1  
 1.005401350337584E10    3.199882419705390E-1   3.522034069927343E-2  -7.737304916537804E-1   3.241862559020520E-1  -7.475987073169362E-1   3.525769009590149E-1   2.378463940024377E-1   1.835244142545460E-1  
 1.005476369092273E10    3.217097864449025E-1   3.547333599216444E-2  -7.761471553707855E-1   3.244879089295864E-1  -7.474022876914885E-1   3.509698226749898E-1   2.357209487259389E-1   1.784766707009459E-1  
 1.005551387846962E10    3.220883083939553E-1   3.194030534699318E-2  -7.816862096162155E-1   3.259116244018078E-1  -7.455116060559730E-1   3.496782398521900E-1   2.370852806866169E-1   1.758116113328284E-1  
 1.005626406601650E10    3.205132771134377E-1   3.671427637059713E-2  -7.831070220604247E-1   3.269404416978359E-1  -7.444297772848474E-1   3.505549746751785E-1   2.371194585859776E-1   1.714869565310818E-1  
 1.005701425356339E10    3.187776667177678E-1   3.407014103445909E-2  -7.825639220305473E-1   3.311391801238061E-1  -7.433672189757362E-1   3.480777175724507E-1   2.410567461252213E-1   1.706077860988589E-1  
 1.005776444111028E10    3.196766861379147E-1   3.170693072814597E-2  -7.863695467859052E-1   3.327215311229229E-1  -7.443088198059785E-1   3.497284462153913E-1   2.439421918541193E-1   1.696723290918808E-1  
 1.005851462865716E10    3.196283697187902E-1   2.892738972650244E-2  -7.861121897118304E-1   3.380425243675709E-1  -7.416513502052657E-1   3.493789701759816E-1   2.442317669838667E-1   1.666460967806291E-1  
 1.005926481620405E10    3.210780671834946E-1   2.794277220472436E-2  -7.893975265592609E-1   3.399814313650132E-1  -7.441528496100059E-1   3.489223305284978E-1   2.439638389796019E-1   1.617402174157009E-1  
 1.006001500375094E10    3.215059437155723E-1   2.937774870099888E-2  -7.900278032252455E-1   3.415441072583199E-1  -7.439336094357247E-1   3.477718685567380E-1   2.458267924785614E-1   1.634053414086335E-1  
 1.006076519129783E10    3.207746589183808E-1   2.679366878588436E-2  -7.882394449408601E-1   3.470531823039056E-1  -7.425430467738150E-1   3.456324945092201E-1   2.475400146245957E-1   1.540764133862467E-1  
 1.006151537884471E10    3.192781938910485E-1   2.787303656519785E-2  -7.906807503186932E-1   3.493284709751607E-1  -7.433179352967775E-1   3.446587006747723E-1   2.503359369784594E-1   1.569371888248800E-1  
 1.006226556639160E10    3.188208951652051E-1   2.512945068361084E-2  -7.890101543454660E-1   3.534553091824055E-1  -7.450460418589678E-1   3.441768009960651E-1   2.525140419304373E-1   1.528071705610827E-1  
 1.006301575393848E10    3.182195509970188E-1   2.493785969506185E-2  -7.885784262346418E-1   3.573309375643731E-1  -7.445085899317177E-1   3.426710912883281E-1   2.563139990270138E-1   1.519417448081258E-1  
 1.006376594148537E10    3.220937573909760E-1   2.439514572981351E-2  -7.884381790636207E-1   3.577240953147411E-1  -7.448065702594150E-1   3.434297380149365E-1   2.579560373127461E-1   1.492432231552693E-1  
 1.006451612903226E10    3.181721397042275E-1   2.384029306972177E-2  -7.867224017024580E-1   3.613785507380963E-1  -7.454990197905483E-1   3.408589076399803E-1   2.597438028454780E-1   1.493349199907125E-1  
 1.006526631657915E10    3.179231652617455E-1   2.410928864186137E-2  -7.858300115185257E-1   3.655339242517948E-1  -7.487921750724973E-1   3.393050032258034E-1   2.627601752579213E-1   1.461774504404679E-1  
 1.006601650412603E10    3.170491985082627E-1   2.349834848960749E-2  -7.838853536706166E-1   3.665224515199661E-1  -7.504568588942564E-1   3.392111156284809E-1   2.647159225642681E-1   1.490380259542149E-1  
 1.006676669167292E10    3.229358903765678E-1   2.058881555949198E-2  -7.836810558943125E-1   3.724915143847466E-1  -7.481640579935616E-1   3.388720328211785E-1   2.657364646196365E-1   1.489348741367579E-1  
 1.006751687921981E10    3.222725299298763E-1   2.037956461571446E-2  -7.828816109862103E-1   3.766020409166814E-1  -7.526379892725669E-1   3.368298116624356E-1   2.678272203803062E-1   1.478716848215323E-1  
 1.006826706676669E10    3.255521670579910E-1   1.768738197217387E-2  -7.806380251282864E-1   3.792924407720567E-1  -7.509575294363764E-1   3.357526116073131E-1   2.762010093331337E-1   1.452152195442440E-1  
 1.006901725431358E10    3.233102580606938E-1   1.717261567995921E-2  -7.794552831208439E-1   3.816639998257160E-1  -7.524163426372780E-1   3.345981572866440E-1   2.738609403371811E-1   1.491243954386926E-1  
 1.006976744186047E10    3.238679138422013E-1   1.860568326556679E-2  -7.753496419612999E-1   3.853426650762558E-1  -7.536626720137201E-1   3.338504188358785E-1   2.752886714935303E-1   1.487383726016931E-1  
