#  HZ   S   RI   R     50.0 
! Rohde & Schwarz ZVL13 2Ports - Version 3.31 - 1303.6509k13 SN: 101088
! Date: 2023-03-06 15:48:35
! Data & Calibration Information:
! Trc4:S11(TOSM) Trc2:S21(TOSM) Trc3:S12(TOSM) Trc5:S22(TOSM)
! 
! 
! 
 1.000000000000000E10    3.079727097153664E-1   9.708746846067509E-2  -8.387346297487779E-1   1.660125281050802E-1  -8.224462737900771E-1   2.077519769206643E-1   2.323980308458209E-1   1.924850975678396E-1  
 1.000075018754689E10    3.092909124821425E-1   9.606054421241278E-2  -8.397702687282301E-1   1.705896687284113E-1  -8.197198616383846E-1   2.084672223150730E-1   2.328084150508047E-1   1.950434488422239E-1  
 1.000150037509377E10    3.108874703556300E-1   9.531861787034542E-2  -8.418575294534277E-1   1.728634548977017E-1  -8.175396979706865E-1   2.055613067254425E-1   2.354031249940396E-1   1.935209582563487E-1  
 1.000225056264066E10    3.084533426135778E-1   9.488667716477753E-2  -8.437170296250663E-1   1.718973843634129E-1  -8.152159555204824E-1   2.028288855418564E-1   2.375149298235774E-1   1.922846292307265E-1  
 1.000300075018755E10    3.093116261035204E-1   9.511274431570442E-2  -8.450080434257280E-1   1.759527911692858E-1  -8.110260723444730E-1   2.025354632496834E-1   2.398374936997891E-1   1.957341248286258E-1  
 1.000375093773443E10    3.101142687946558E-1   9.105871839376131E-2  -8.463818295070751E-1   1.764677166730166E-1  -8.110523265592953E-1   1.996010014340282E-1   2.420350440487266E-1   1.956753778533980E-1  
 1.000450112528132E10    3.074278091847897E-1   9.355019995604905E-2  -8.462940412290295E-1   1.785112601950765E-1  -8.074596056165764E-1   1.981925596624613E-1   2.472506789386273E-1   1.981219758744948E-1  
 1.000525131282821E10    3.069657453298569E-1   9.301806728204491E-2  -8.465011000041463E-1   1.833346620008350E-1  -8.074678280931934E-1   1.954460392892361E-1   2.458380643486977E-1   1.964067676165860E-1  
 1.000600150037509E10    3.090892739951611E-1   9.037080701284816E-2  -8.495652342128054E-1   1.860277985185385E-1  -8.047127096616111E-1   1.919491266250611E-1   2.480963349759579E-1   1.972866471894258E-1  
 1.000675168792198E10    3.097178728044033E-1   9.023056949249239E-2  -8.503523378080881E-1   1.921135230049492E-1  -8.038336431610114E-1   1.894489240467548E-1   2.493258754640818E-1   1.998927914573924E-1  
 1.000750187546887E10    3.077146977126598E-1   9.102962756916949E-2  -8.539079339050437E-1   1.940549517974258E-1  -8.037971832504923E-1   1.855862698271871E-1   2.527849858760833E-1   2.012720141433141E-1  
 1.000825206301576E10    3.073783334702254E-1   8.871244017452813E-2  -8.511128766754708E-1   2.020537235304713E-1  -8.013724378582615E-1   1.847604431420565E-1   2.545415183067322E-1   2.037610980704854E-1  
 1.000900225056264E10    3.148860152661801E-1   8.520605317461094E-2  -8.539691068296785E-1   2.074581262230874E-1  -7.996712094686896E-1   1.861565922617913E-1   2.553459162950515E-1   2.091230854601960E-1  
 1.000975243810953E10    3.092437368065120E-1   8.670156913292962E-2  -8.519086929277981E-1   2.075924354597926E-1  -7.966853164626588E-1   1.789723625600339E-1   2.578913978904486E-1   2.079855073123805E-1  
 1.001050262565641E10    3.170991695553064E-1   8.847124661463335E-2  -8.488421199598045E-1   2.132041092649103E-1  -7.987071061214439E-1   1.756884519010782E-1   2.595367208778859E-1   2.078104671061666E-1  
 1.001125281320330E10    3.158536982625724E-1   8.882204036564033E-2  -8.513919204572292E-1   2.187856450185180E-1  -7.961408383855678E-1   1.722881775155664E-1   2.611932879865170E-1   2.095325427788271E-1  
 1.001200300075019E10    3.168315596520901E-1   8.507998953874525E-2  -8.486315191437616E-1   2.233344518572092E-1  -7.970018965269841E-1   1.704709478095174E-1   2.617832682400942E-1   2.164038086521691E-1  
 1.001275318829707E10    3.169037307441235E-1   8.577638375948228E-2  -8.453751331966031E-1   2.307088199451567E-1  -7.964614152418020E-1   1.681913678303361E-1   2.661594772100449E-1   2.166809825408712E-1  
 1.001350337584396E10    3.188052292048932E-1   8.546935294661195E-2  -8.454775686390454E-1   2.323977698504925E-1  -7.982801345984987E-1   1.621453651502728E-1   2.637583484649659E-1   2.204967628119423E-1  
 1.001425356339085E10    3.195694801151753E-1   8.416674396457058E-2  -8.468221806525484E-1   2.369341240406037E-1  -7.956644567398399E-1   1.633810954689980E-1   2.663620115637779E-1   2.209354522998477E-1  
 1.001500375093774E10    3.239994718819856E-1   7.934583912788147E-2  -8.421549316837276E-1   2.426699358448387E-1  -7.961299861584459E-1   1.575826280847192E-1   2.640206227332355E-1   2.227437442916289E-1  
 1.001575393848462E10    3.233352975487709E-1   8.246308610127631E-2  -8.368764145778687E-1   2.520006884247065E-1  -7.983974530373275E-1   1.546179504066706E-1   2.670067975521087E-1   2.270997845645478E-1  
 1.001650412603151E10    3.270487631201745E-1   7.866566410445761E-2  -8.345795278981059E-1   2.560184675157070E-1  -7.971104493205550E-1   1.536971683219075E-1   2.711521387040615E-1   2.291998709290106E-1  
 1.001725431357839E10    3.276365145921708E-1   8.053017204440247E-2  -8.306193594864196E-1   2.592151337474585E-1  -7.989257269856626E-1   1.499807701423764E-1   2.708359591662884E-1   2.325011156683744E-1  
 1.001800450112528E10    3.276421406179667E-1   7.808177362451053E-2  -8.303859936877724E-1   2.631965959370136E-1  -7.988610693830923E-1   1.463546910852194E-1   2.730210067659616E-1   2.323785386237160E-1  
 1.001875468867217E10    3.335034925043583E-1   7.631089752760144E-2  -8.261640200265427E-1   2.677402404993772E-1  -7.990587598186181E-1   1.459993289068342E-1   2.709654794156551E-1   2.357397930508751E-1  
 1.001950487621906E10    3.307888412356377E-1   7.395195645594352E-2  -8.215310686187201E-1   2.709621220648288E-1  -7.992029402482610E-1   1.463359899029136E-1   2.704096118181945E-1   2.395891150674051E-1  
 1.002025506376594E10    3.341530570685863E-1   7.446114940980086E-2  -8.173840321335989E-1   2.758947478055954E-1  -8.042001050936127E-1   1.429377200007439E-1   2.757540876448155E-1   2.405771094837692E-1  
 1.002100525131283E10    3.348044474363328E-1   7.056479835391850E-2  -8.149359504739777E-1   2.813489975571633E-1  -8.028730362101432E-1   1.426939157485962E-1   2.714636924028397E-1   2.407395750382035E-1  
 1.002175543885972E10    3.381031972259283E-1   7.095223100070361E-2  -8.109227541644173E-1   2.858615812599660E-1  -8.039725559832587E-1   1.432256398141384E-1   2.743681974828244E-1   2.423311130280416E-1  
 1.002250562640660E10    3.383469446599485E-1   6.618749007800327E-2  -8.052574760669696E-1   2.904461423695088E-1  -8.080996462182060E-1   1.435170608580113E-1   2.751415827989578E-1   2.441663385507670E-1  
 1.002325581395349E10    3.367386392503977E-1   6.634892116218953E-2  -8.008996692347853E-1   2.919173963427544E-1  -8.070884235044737E-1   1.429918997660279E-1   2.713560377120972E-1   2.420880009452171E-1  
 1.002400600150038E10    3.410599825561047E-1   6.495548255302346E-2  -7.991559964618800E-1   2.931061503291130E-1  -8.094679099889761E-1   1.439119208961725E-1   2.728007054001094E-1   2.455717742468282E-1  
 1.002475618904726E10    3.427492338001728E-1   6.131896085809344E-2  -7.930223925482673E-1   2.963190319925547E-1  -8.095496992354099E-1   1.450115601897240E-1   2.739693670064211E-1   2.440370626406166E-1  
 1.002550637659415E10    3.455459090203047E-1   6.031763394822619E-2  -7.902719731582562E-1   3.016159658163787E-1  -8.110711453336346E-1   1.454619134932757E-1   2.721762363255024E-1   2.452669610837329E-1  
 1.002625656414104E10    3.442067066758872E-1   5.875351384204552E-2  -7.847960808898365E-1   3.014780466675759E-1  -8.133520418921632E-1   1.473625609397888E-1   2.691690500199795E-1   2.455339023274182E-1  
 1.002700675168792E10    3.447173109203577E-1   5.374907833069644E-2  -7.827679709135730E-1   3.016334224790335E-1  -8.175619798276855E-1   1.493022430479527E-1   2.714744358986617E-1   2.488669529897610E-1  
 1.002775693923481E10    3.459617196619512E-1   5.473379379156064E-2  -7.805627673229509E-1   3.066782842189074E-1  -8.159760977686950E-1   1.499529951661826E-1   2.689689822345972E-1   2.473355066778472E-1  
 1.002850712678170E10    3.437791103005410E-1   5.314537284272383E-2  -7.792572267348958E-1   3.008057194560767E-1  -8.180918113164140E-1   1.521168991327286E-1   2.689708917468787E-1   2.466644941527713E-1  
 1.002925731432858E10    3.458793696045875E-1   5.427805702765447E-2  -7.725054174589299E-1   3.069665724813939E-1  -8.183895451957912E-1   1.565415256902576E-1   2.686629656910897E-1   2.462630199518072E-1  
 1.003000750187547E10    3.461762194693089E-1   4.990706518419282E-2  -7.693404049185665E-1   3.091031093120575E-1  -8.194134496549989E-1   1.632212513580919E-1   2.646342474907637E-1   2.463302565499649E-1  
 1.003075768942236E10    3.479468113303185E-1   4.840578578687518E-2  -7.676745372079041E-1   3.052514163017274E-1  -8.204822501181242E-1   1.673088448151946E-1   2.633092811793089E-1   2.458494932996411E-1  
 1.003150787696924E10    3.475631649196148E-1   4.632701738521535E-2  -7.668845071045984E-1   3.014121871978045E-1  -8.235884543380185E-1   1.641420459926129E-1   2.586897266805173E-1   2.478067316679770E-1  
 1.003225806451613E10    3.466926845759153E-1   5.029064694031063E-2  -7.630735180057572E-1   3.049003829032184E-1  -8.212082235181399E-1   1.777514417648316E-1   2.601778982311488E-1   2.448814130695032E-1  
 1.003300825206302E10    3.440124680310488E-1   4.859292166542703E-2  -7.588559671321277E-1   3.070500536143780E-1  -8.211000427630978E-1   1.853733767479659E-1   2.610370628982783E-1   2.451804708923265E-1  
 1.003375843960990E10    3.474725217968225E-1   4.597307984364515E-2  -7.579890838653769E-1   3.019668928444386E-1  -8.212555241981662E-1   1.853272195324302E-1   2.533113476097584E-1   2.444930677743868E-1  
 1.003450862715679E10    3.465495381921530E-1   4.707319291241787E-2  -7.572959605400823E-1   3.017750192582608E-1  -8.190514510991167E-1   1.883832673072815E-1   2.524977200955152E-1   2.438912158712567E-1  
 1.003525881470368E10    3.471399097472430E-1   5.027639455559073E-2  -7.543789615421578E-1   2.993347003728152E-1  -8.178908972240186E-1   1.955548497021198E-1   2.496622691139579E-1   2.420850516650980E-1  
 1.003600900225056E10    3.493528618514539E-1   4.641583065600859E-2  -7.548750313962780E-1   3.001117128491402E-1  -8.196885188191458E-1   1.986525654628873E-1   2.488598750218750E-1   2.455019402515806E-1  
 1.003675918979745E10    3.417334992408753E-1   4.662598224945180E-2  -7.529966426524368E-1   2.983646330356598E-1  -8.182532625596437E-1   2.064853134915233E-1   2.479984096214176E-1   2.405344298957163E-1  
 1.003750937734434E10    3.468826037645341E-1   4.837386350737257E-2  -7.529042363161929E-1   2.974235926091671E-1  -8.164149711048403E-1   2.116409923762083E-1   2.438845736816526E-1   2.396548390611448E-1  
 1.003825956489122E10    3.469126876354218E-1   4.787123692805617E-2  -7.529946360883716E-1   2.958909162580967E-1  -8.146099224863524E-1   2.186023787140846E-1   2.433173705905677E-1   2.365728980343800E-1  
 1.003900975243811E10    3.463565161824227E-1   5.030970878119084E-2  -7.521722032317288E-1   2.945020618230105E-1  -8.124930909652637E-1   2.243633156776428E-1   2.415437453716993E-1   2.388819611398901E-1  
 1.003975993998500E10    3.446828617811203E-1   5.247796682552609E-2  -7.545242343509240E-1   2.937453372836114E-1  -8.113839246354847E-1   2.281478680506349E-1   2.377734076440334E-1   2.373314861326738E-1  
 1.004051012753188E10    3.462630641341211E-1   5.222821312818374E-2  -7.539956307108886E-1   2.908295154899360E-1  -8.100949298564986E-1   2.360502038091422E-1   2.357868749171496E-1   2.346118219952750E-1  
 1.004126031507877E10    3.463446608692408E-1   5.025830565025981E-2  -7.567207780738187E-1   2.862743641704321E-1  -8.073215767601074E-1   2.382571275547147E-1   2.326163369163871E-1   2.327610126728114E-1  
 1.004201050262566E10    3.454065961211920E-1   5.306745505376878E-2  -7.540927052609245E-1   2.867615312933922E-1  -8.047095577962082E-1   2.445413881286979E-1   2.332564795970917E-1   2.315844939328768E-1  
 1.004276069017254E10    3.436172286480665E-1   5.435131492817952E-2  -7.567356694748831E-1   2.856477377116681E-1  -8.044781082491320E-1   2.513251795753836E-1   2.313663277238608E-1   2.292886289913777E-1  
 1.004351087771943E10    3.448127441585064E-1   5.495003665820476E-2  -7.580929044677154E-1   2.841625130742789E-1  -8.023102120499950E-1   2.574168105036020E-1   2.323002704054118E-1   2.268468927770717E-1  
 1.004426106526632E10    3.450675040066242E-1   5.496674626458964E-2  -7.592936186428845E-1   2.829105104893446E-1  -7.982390390173376E-1   2.577491222143174E-1   2.312367107629776E-1   2.253972986308006E-1  
 1.004501125281320E10    3.436067456513643E-1   5.831424081952424E-2  -7.605191802384530E-1   2.839852590590715E-1  -7.967068527853078E-1   2.673031371980906E-1   2.310079389065504E-1   2.233709073498563E-1  
 1.004576144036009E10    3.429367654055357E-1   5.812581801896993E-2  -7.660801571760930E-1   2.796168157815934E-1  -7.959108918200788E-1   2.703451729297638E-1   2.283873151004315E-1   2.213278446514700E-1  
 1.004651162790698E10    3.448005388379097E-1   6.105148410611684E-2  -7.669684445445149E-1   2.732270663648844E-1  -7.940871288008058E-1   2.723773035049439E-1   2.309644683986903E-1   2.197633741613786E-1  
 1.004726181545386E10    3.476761924535036E-1   5.854703013205689E-2  -7.707911865024176E-1   2.720657677918672E-1  -7.890008194506908E-1   2.750324632108211E-1   2.266686214685440E-1   2.181171305421952E-1  
 1.004801200300075E10    3.411470259279013E-1   5.794773747795989E-2  -7.739108454855266E-1   2.722013117849827E-1  -7.864888407652800E-1   2.806744438916445E-1   2.261273612126709E-1   2.152734732256450E-1  
 1.004876219054764E10    3.431307659983636E-1   5.439377980215679E-2  -7.744320174136912E-1   2.747108067572118E-1  -7.837360995555162E-1   2.841809221118689E-1   2.286867416143418E-1   2.128492507077501E-1  
 1.004951237809452E10    3.437323678046465E-1   5.795428707760902E-2  -7.780824694334217E-1   2.684160038083792E-1  -7.854505089746581E-1   2.817550358027220E-1   2.280323331952096E-1   2.087174977518339E-1  
 1.005026256564141E10    3.432615303128958E-1   5.899611039544542E-2  -7.795976175177040E-1   2.714476923882963E-1  -7.798651881132737E-1   2.926636679649354E-1   2.307911380410195E-1   2.075515098479145E-1  
 1.005101275318830E10    3.428692575305701E-1   6.327384507411897E-2  -7.833067781961070E-1   2.696007133275271E-1  -7.780257002989196E-1   2.946677123188972E-1   2.297464567214251E-1   2.059427571264201E-1  
 1.005176294073518E10    3.415443270832300E-1   5.890495667563963E-2  -7.857041704727328E-1   2.690820404708386E-1  -7.767737670141682E-1   2.945353404432536E-1   2.325691392153502E-1   2.019621221884936E-1  
 1.005251312828207E10    3.408813271433115E-1   5.992521525968369E-2  -7.846522143149817E-1   2.716334481298923E-1  -7.736178369121336E-1   2.971434718430042E-1   2.329328224256635E-1   1.977223207828472E-1  
 1.005326331582896E10    3.391380697458983E-1   6.115370313029579E-2  -7.914805556671047E-1   2.685418934136629E-1  -7.721988118729717E-1   2.970320126712323E-1   2.340400541827083E-1   1.972345266824056E-1  
 1.005401350337584E10    3.384592424213887E-1   6.112125624666920E-2  -7.926695835401291E-1   2.701841328024865E-1  -7.708539248892511E-1   2.988032317072153E-1   2.383416237279773E-1   1.960434444676044E-1  
 1.005476369092273E10    3.399779953420162E-1   6.075018711597821E-2  -7.939521185765137E-1   2.728083017319442E-1  -7.703422672018265E-1   2.997254682540893E-1   2.366759932965040E-1   1.919113251895065E-1  
 1.005551387846962E10    3.393845616877080E-1   5.954018501418654E-2  -8.001034744427331E-1   2.722368974328041E-1  -7.680428769415080E-1   2.998906336456538E-1   2.379313059449197E-1   1.891221848230578E-1  
 1.005626406601650E10    3.390110924810171E-1   6.248015656904175E-2  -8.014854103003184E-1   2.731987326443195E-1  -7.672741813537058E-1   3.002518172919751E-1   2.385472651809454E-1   1.844598711835283E-1  
 1.005701425356339E10    3.353841082513333E-1   6.037658932459994E-2  -8.013955583569102E-1   2.764783441573381E-1  -7.658370828118104E-1   2.985209545671940E-1   2.423719809010625E-1   1.840310394750457E-1  
 1.005776444111028E10    3.359355722844601E-1   5.813000268824325E-2  -8.046949988189384E-1   2.779069599956274E-1  -7.670402111830781E-1   2.999951172530651E-1   2.443141189292074E-1   1.851447629026527E-1  
 1.005851462865716E10    3.360012000799180E-1   5.602861001328161E-2  -8.052919892163473E-1   2.820364264547826E-1  -7.631704064775911E-1   3.012409155219794E-1   2.456332033738495E-1   1.816532894794908E-1  
 1.005926481620405E10    3.350239979326726E-1   5.795108983666099E-2  -8.092783062544466E-1   2.816042914450169E-1  -7.652041798006859E-1   2.992759450018406E-1   2.467690697267652E-1   1.783398953947309E-1  
 1.006001500375094E10    3.340804406821728E-1   6.004293710569392E-2  -8.110259862763549E-1   2.822711831986905E-1  -7.643094490011657E-1   2.982875101327897E-1   2.477178260311485E-1   1.797536779796374E-1  
 1.006076519129783E10    3.354951917350292E-1   5.756616225226136E-2  -8.099205576248754E-1   2.879395065188409E-1  -7.622620597497486E-1   2.964758727967739E-1   2.495671933859587E-1   1.723901133958748E-1  
 1.006151537884471E10    3.333171052008868E-1   5.908427566398081E-2  -8.135843582005295E-1   2.899590731501580E-1  -7.626404277447438E-1   2.943493264406920E-1   2.527125846654178E-1   1.758193801047312E-1  
 1.006226556639160E10    3.329427438050509E-1   5.783233185893055E-2  -8.130574071962147E-1   2.940174909502268E-1  -7.639561913424174E-1   2.926669644564391E-1   2.563472508311272E-1   1.736046282626517E-1  
 1.006301575393848E10    3.340457281500102E-1   5.707122611627712E-2  -8.133324855566403E-1   2.992171534717084E-1  -7.628150406955321E-1   2.908471398055554E-1   2.588435198694468E-1   1.722198567096276E-1  
 1.006376594148537E10    3.355640993773938E-1   5.684740211219235E-2  -8.130214829367076E-1   2.991900106221438E-1  -7.632008459302835E-1   2.904355054855347E-1   2.626182587116956E-1   1.714915633327604E-1  
 1.006451612903226E10    3.334524929881097E-1   5.532415850251096E-2  -8.120781453976076E-1   3.031808766990901E-1  -7.632953773755973E-1   2.872210511118174E-1   2.631093118250370E-1   1.715238504017504E-1  
 1.006526631657915E10    3.328035114169121E-1   5.645081802905375E-2  -8.124585371528579E-1   3.077582841455936E-1  -7.661653495886869E-1   2.847990821301938E-1   2.679403592824936E-1   1.695234190135004E-1  
 1.006601650412603E10    3.325252135068179E-1   5.463283011933157E-2  -8.099189816111314E-1   3.098589120566846E-1  -7.676379440404526E-1   2.831048344641923E-1   2.699929371744395E-1   1.717766769358419E-1  
 1.006676669167292E10    3.379559738874435E-1   5.255605001654753E-2  -8.097938155881073E-1   3.162190905183555E-1  -7.653934861976930E-1   2.820443866014481E-1   2.729677406847477E-1   1.726241854849441E-1  
 1.006751687921981E10    3.367922733366490E-1   5.166097570202230E-2  -8.088203556218592E-1   3.200687837749719E-1  -7.702027930082168E-1   2.784992613583803E-1   2.743523726075888E-1   1.719241614895659E-1  
 1.006826706676669E10    3.388525891035796E-1   5.000383842044822E-2  -8.061005922706548E-1   3.224989086776973E-1  -7.685717853488547E-1   2.764431370288134E-1   2.818823614060879E-1   1.694118884556963E-1  
 1.006901725431358E10    3.377072208195925E-1   4.869684765485616E-2  -8.049754798589076E-1   3.248953509479761E-1  -7.707102682714262E-1   2.750359806656837E-1   2.814648837596178E-1   1.733318449932458E-1  
 1.006976744186047E10    3.364447097837925E-1   4.819824685920995E-2  -8.009612282907901E-1   3.273388736277819E-1  -7.730752788368159E-1   2.728850958824158E-1   2.827841604709626E-1   1.730870533573880E-1  
