#  HZ   S   RI   R     50.0 
! Rohde & Schwarz ZVL13 2Ports - Version 3.31 - 1303.6509k13 SN: 101088
! Date: 2023-03-06 16:01:21
! Data & Calibration Information:
! Trc4:S11(TOSM) Trc2:S21(TOSM) Trc3:S12(TOSM) Trc5:S22(TOSM)
! 
! 
! 
 1.000000000000000E10    3.153617754578590E-1   8.313091786631405E-2  -8.325026774617563E-1   1.876653403043747E-1  -8.147594892989645E-1   2.279680426418781E-1   2.310959170758725E-1   1.892229539110324E-1  
 1.000075018754689E10    3.161200267076493E-1   8.220999495571219E-2  -8.330070389903619E-1   1.921485577523708E-1  -8.117597033235935E-1   2.287580345571041E-1   2.317449301481247E-1   1.916207308500588E-1  
 1.000150037509377E10    3.161367690563203E-1   8.185622337511583E-2  -8.349849919942443E-1   1.941399981081486E-1  -8.100944469429632E-1   2.250777386128903E-1   2.339879536628724E-1   1.889952516875730E-1  
 1.000225056264066E10    3.158578005433083E-1   7.941910844373573E-2  -8.370266669978397E-1   1.944636729359627E-1  -8.079313648314840E-1   2.226521591842175E-1   2.365911573171616E-1   1.882415331221733E-1  
 1.000300075018755E10    3.161238211393356E-1   7.954027788482919E-2  -8.382094365116846E-1   1.981841537356377E-1  -8.035393152712300E-1   2.225557295978070E-1   2.386083090305329E-1   1.907306859035929E-1  
 1.000375093773443E10    3.176124319434167E-1   7.833613379515206E-2  -8.403506027100197E-1   1.985161583125591E-1  -8.040019629964805E-1   2.187813095748425E-1   2.406863391399384E-1   1.909502052965535E-1  
 1.000450112528132E10    3.142435035109520E-1   7.880579661215735E-2  -8.394175374148643E-1   2.003515009582043E-1  -8.008149897718540E-1   2.172478577494622E-1   2.460513220727444E-1   1.938814737030599E-1  
 1.000525131282821E10    3.143571090698243E-1   7.846144279314324E-2  -8.392517876490794E-1   2.055357275903225E-1  -8.008104377136354E-1   2.146618035435677E-1   2.451678545773030E-1   1.917042973300841E-1  
 1.000600150037509E10    3.165062546730042E-1   7.651357981918744E-2  -8.423145019488775E-1   2.090166063606739E-1  -7.983382308710363E-1   2.112423866987229E-1   2.470910398662091E-1   1.909033328571757E-1  
 1.000675168792198E10    3.158144262433053E-1   7.798156584460213E-2  -8.436332508381172E-1   2.128987179696560E-1  -7.975978726616668E-1   2.083570821583271E-1   2.480681598186493E-1   1.950414401793169E-1  
 1.000750187546887E10    3.150615301728249E-1   7.703731677665256E-2  -8.466038124442130E-1   2.159667424857617E-1  -7.981977800301122E-1   2.039429636299611E-1   2.517372843623161E-1   1.972482904767007E-1  
 1.000825206301576E10    3.152917140722275E-1   7.589030761772224E-2  -8.437166670700975E-1   2.244684803485871E-1  -7.957937989832283E-1   2.038989815115929E-1   2.536106672883033E-1   1.976131309571915E-1  
 1.000900225056264E10    3.205495429039001E-1   7.093252729962096E-2  -8.461483273625193E-1   2.295565938949586E-1  -7.939173260426600E-1   2.044018135964871E-1   2.546909371018411E-1   2.036799970087944E-1  
 1.000975243810953E10    3.196375250816346E-1   7.291414701398735E-2  -8.439696328225220E-1   2.308017680048943E-1  -7.917783544918795E-1   1.971265758574009E-1   2.564608848094940E-1   2.024053517954882E-1  
 1.001050262565641E10    3.234592837095261E-1   7.524209181986633E-2  -8.410757124863501E-1   2.349931040406227E-1  -7.937477227043981E-1   1.940176266431809E-1   2.591838580369950E-1   2.010062156730064E-1  
 1.001125281320330E10    3.229458266496659E-1   7.311592573735769E-2  -8.426149761782359E-1   2.409969626367092E-1  -7.915998932344068E-1   1.892884723842144E-1   2.608557242155075E-1   2.037427344864625E-1  
 1.001200300075019E10    3.232378768920898E-1   7.194924177887306E-2  -8.405996876154418E-1   2.452659220993519E-1  -7.922960301650091E-1   1.891009493172169E-1   2.625441318750381E-1   2.102867166434929E-1  
 1.001275318829707E10    3.248077473044396E-1   7.204098119152881E-2  -8.368706635988203E-1   2.513029702007771E-1  -7.920475431310944E-1   1.860344141721726E-1   2.655809530615807E-1   2.111732690024514E-1  
 1.001350337584396E10    3.255920666456222E-1   7.356449485029404E-2  -8.381124048205830E-1   2.520574858784676E-1  -7.945313749219296E-1   1.793085262179375E-1   2.628002491593361E-1   2.136796894602112E-1  
 1.001425356339085E10    3.274401161074639E-1   6.976531878698823E-2  -8.380584032521687E-1   2.579932534694672E-1  -7.923399444013838E-1   1.804143032431603E-1   2.647691097855568E-1   2.142151914331260E-1  
 1.001500375093774E10    3.320115119218827E-1   6.721907773851048E-2  -8.336518564277988E-1   2.648875662684441E-1  -7.925454437524961E-1   1.757467877864838E-1   2.648517319560051E-1   2.165111640107117E-1  
 1.001575393848462E10    3.315705102682114E-1   7.079378651279052E-2  -8.284000598043941E-1   2.737119013071060E-1  -7.947449240169064E-1   1.728492741286755E-1   2.683757933974266E-1   2.193654559072688E-1  
 1.001650412603151E10    3.347579747438432E-1   6.648004528742932E-2  -8.259504916950519E-1   2.762503224611282E-1  -7.938874623815752E-1   1.713876323401928E-1   2.704010465741157E-1   2.222489489775950E-1  
 1.001725431357839E10    3.338234478235245E-1   6.745085241176413E-2  -8.217083308665487E-1   2.785266441106796E-1  -7.963293760948542E-1   1.670457315444947E-1   2.708979198336601E-1   2.249738189851779E-1  
 1.001800450112528E10    3.359110870957375E-1   6.408677116914693E-2  -8.202437438562071E-1   2.855948472023010E-1  -7.965084658161324E-1   1.642719516158104E-1   2.730227255821229E-1   2.243462875714179E-1  
 1.001875468867217E10    3.417272847890854E-1   6.236162445250931E-2  -8.161305616691783E-1   2.904518660902978E-1  -7.965484827483970E-1   1.643088933825493E-1   2.711423978209497E-1   2.272815314881126E-1  
 1.001950487621906E10    3.380859330296517E-1   6.150084846095836E-2  -8.121023793422402E-1   2.920241153240205E-1  -7.970894586404543E-1   1.641878423094750E-1   2.707964050769807E-1   2.314405572812940E-1  
 1.002025506376594E10    3.425119164586067E-1   5.922592140809322E-2  -8.069237472262558E-1   2.964144432544709E-1  -8.026765750126738E-1   1.597794628143311E-1   2.751059147715568E-1   2.323219290997373E-1  
 1.002100525131283E10    3.418876340985299E-1   5.750217361813458E-2  -8.049656031625735E-1   3.019772624969482E-1  -8.009184202092177E-1   1.606742173433304E-1   2.721998837590218E-1   2.325987107504889E-1  
 1.002175543885972E10    3.435028523206711E-1   5.686936625534985E-2  -8.009315972790694E-1   3.051968735456467E-1  -8.025164585248548E-1   1.612516683340073E-1   2.746174493432045E-1   2.324382461955436E-1  
 1.002250562640660E10    3.451978445053101E-1   5.349390251496115E-2  -7.947465074809131E-1   3.105609667301179E-1  -8.063025021573226E-1   1.619584651291371E-1   2.767264893651009E-1   2.351851253855476E-1  
 1.002325581395349E10    3.426964798569679E-1   5.416913740107439E-2  -7.913997072055651E-1   3.102406200766564E-1  -8.056356768203778E-1   1.607564945518971E-1   2.717709723114968E-1   2.322029501941040E-1  
 1.002400600150038E10    3.468480047583580E-1   5.109078736912590E-2  -7.890455075360586E-1   3.115818911790848E-1  -8.082315971081269E-1   1.611623536050320E-1   2.724947080016136E-1   2.337903388604336E-1  
 1.002475618904726E10    3.487410131096840E-1   4.970766636269062E-2  -7.830141855478440E-1   3.155708050727844E-1  -8.076462511274691E-1   1.633167204260826E-1   2.737327763438225E-1   2.343151452369305E-1  
 1.002550637659415E10    3.494582414627076E-1   4.679621812260199E-2  -7.796540605628941E-1   3.202689436078072E-1  -8.099509944223617E-1   1.642454965412617E-1   2.722397956252099E-1   2.344355802771029E-1  
 1.002625656414104E10    3.493925452232361E-1   4.715159797122349E-2  -7.748455095852472E-1   3.203327634930611E-1  -8.116001560210784E-1   1.653209544718266E-1   2.698955860733986E-1   2.355787837089435E-1  
 1.002700675168792E10    3.498348024487495E-1   4.162440101414949E-2  -7.726171218701073E-1   3.206474488973619E-1  -8.160498963441873E-1   1.680297437310219E-1   2.718876555562020E-1   2.384948158567168E-1  
 1.002775693923481E10    3.490441688895226E-1   4.314040889662565E-2  -7.702833847739872E-1   3.251794451475144E-1  -8.141652250687939E-1   1.691734643280506E-1   2.696422442793847E-1   2.362098495413842E-1  
 1.002850712678170E10    3.472048288583756E-1   4.119545823401120E-2  -7.692790817766708E-1   3.194312736392021E-1  -8.162799876487521E-1   1.715608420968056E-1   2.682889226078988E-1   2.363161731629575E-1  
 1.002925731432858E10    3.486989533901215E-1   4.208818297951234E-2  -7.625852049375970E-1   3.255981832742691E-1  -8.164633610315901E-1   1.761378109455109E-1   2.681307214498520E-1   2.358020158384432E-1  
 1.003000750187547E10    3.486004909873009E-1   3.845374216869766E-2  -7.595891795061376E-1   3.268039199709892E-1  -8.164269439096408E-1   1.844882324337960E-1   2.651768919825555E-1   2.350232943825169E-1  
 1.003075768942236E10    3.508291947841645E-1   3.781007892413126E-2  -7.581845494550594E-1   3.228796622157096E-1  -8.176271751506150E-1   1.872765752673149E-1   2.638349694013596E-1   2.343304192182311E-1  
 1.003150787696924E10    3.499030852317810E-1   3.574149377510531E-2  -7.575454510198917E-1   3.189624059200287E-1  -8.210363560737725E-1   1.833529153466225E-1   2.594144269824028E-1   2.355724211802504E-1  
 1.003225806451613E10    3.481620830297471E-1   3.900287155133340E-2  -7.538730605557025E-1   3.215715721249581E-1  -8.185409013675944E-1   1.967617610096932E-1   2.596886968612671E-1   2.342417757743821E-1  
 1.003300825206302E10    3.455390295386315E-1   3.813182389443497E-2  -7.495899519562304E-1   3.241530069708825E-1  -8.178504502338114E-1   2.055648748576642E-1   2.605671989917755E-1   2.339553208436516E-1  
 1.003375843960990E10    3.489621084928513E-1   3.687895330870555E-2  -7.489705280461824E-1   3.204712671041490E-1  -8.173399913645975E-1   2.064864386618137E-1   2.534920474886895E-1   2.313154743826018E-1  
 1.003450862715679E10    3.479225239157676E-1   3.523093991499759E-2  -7.483656008432267E-1   3.178845679759980E-1  -8.156319084223014E-1   2.087877058982849E-1   2.535595515370369E-1   2.310205504054729E-1  
 1.003525881470368E10    3.483806279301644E-1   3.966464611384154E-2  -7.453928990342227E-1   3.171072015166283E-1  -8.137965387911090E-1   2.163541758060456E-1   2.502422183752060E-1   2.303484235999573E-1  
 1.003600900225056E10    3.501164093613625E-1   3.613240580005422E-2  -7.458596488139478E-1   3.174998193979263E-1  -8.152330988187497E-1   2.196415853500366E-1   2.507683217525483E-1   2.316555370736910E-1  
 1.003675918979745E10    3.429915797710419E-1   3.683218652182896E-2  -7.441311066577632E-1   3.154032772779465E-1  -8.138025688148922E-1   2.269306185841561E-1   2.499442592263222E-1   2.286528775833233E-1  
 1.003750937734434E10    3.454511010646820E-1   3.806769360799376E-2  -7.449386963444766E-1   3.137653118371963E-1  -8.118326406981252E-1   2.316773176193238E-1   2.450951430201531E-1   2.283019863287990E-1  
 1.003825956489122E10    3.470374986529350E-1   3.827464700905389E-2  -7.444438412461227E-1   3.134186458587646E-1  -8.100311619183936E-1   2.376392032206059E-1   2.448881426453590E-1   2.259675413033726E-1  
 1.003900975243811E10    3.452285546064377E-1   3.974258921628150E-2  -7.440437917837197E-1   3.115664365887642E-1  -8.068098458217250E-1   2.456488038599491E-1   2.428013245761395E-1   2.271555609462592E-1  
 1.003975993998500E10    3.430701518058778E-1   4.220278800244232E-2  -7.466395189450923E-1   3.100828972458840E-1  -8.058409486934661E-1   2.487460631132126E-1   2.403589966893196E-1   2.253466754910875E-1  
 1.004051012753188E10    3.451427322626114E-1   4.254894398139462E-2  -7.465017132059193E-1   3.080300322175025E-1  -8.038445999999017E-1   2.561700975894928E-1   2.358242261409760E-1   2.225914793426917E-1  
 1.004126031507877E10    3.457877674698830E-1   3.970606206374961E-2  -7.488064287161921E-1   3.034747523069382E-1  -8.014675123789097E-1   2.580247339606286E-1   2.345389656722546E-1   2.217689386326879E-1  
 1.004201050262566E10    3.439014041423797E-1   4.300283479289984E-2  -7.469096929138065E-1   3.037661626935007E-1  -7.980452651075056E-1   2.638856771588326E-1   2.350300551950931E-1   2.183445853299386E-1  
 1.004276069017254E10    3.424023395776749E-1   4.344840958933496E-2  -7.492995980649170E-1   3.028366994857789E-1  -7.980503054494064E-1   2.707930600643158E-1   2.339062312245369E-1   2.165768981152160E-1  
 1.004351087771943E10    3.440751898288728E-1   4.543893779432139E-2  -7.507963833636351E-1   3.016113281250000E-1  -7.952206895562829E-1   2.775039044022561E-1   2.350742921233178E-1   2.140587395524089E-1  
 1.004426106526632E10    3.427438426017762E-1   4.463437785465253E-2  -7.520496652192591E-1   3.009403020143509E-1  -7.915875759208618E-1   2.774990078806877E-1   2.336730709671974E-1   2.131029786849731E-1  
 1.004501125281320E10    3.421390292048454E-1   4.799596279381526E-2  -7.537002492513525E-1   3.009928578138352E-1  -7.889297229270254E-1   2.875351870059967E-1   2.346022477746010E-1   2.106709602795284E-1  
 1.004576144036009E10    3.395415440201760E-1   4.737730103418751E-2  -7.590367773665334E-1   2.975090587139130E-1  -7.887902707569557E-1   2.900904813408853E-1   2.311210183799267E-1   2.097072188035735E-1  
 1.004651162790698E10    3.416476279497147E-1   4.929701146245918E-2  -7.602313490110970E-1   2.923284709453582E-1  -7.869050087570311E-1   2.918146154284478E-1   2.330003584921360E-1   2.077218392432275E-1  
 1.004726181545386E10    3.452872347831726E-1   4.852604074443024E-2  -7.638975375466064E-1   2.917666453123093E-1  -7.815419362992637E-1   2.939248070120811E-1   2.314799819886684E-1   2.056728497001942E-1  
 1.004801200300075E10    3.387271636724473E-1   4.853715301873061E-2  -7.668495780880855E-1   2.917758363485336E-1  -7.784541013999899E-1   3.002400758862496E-1   2.305369397997857E-1   2.022667828205036E-1  
 1.004876219054764E10    3.412659367918968E-1   4.543429273006228E-2  -7.683153578869978E-1   2.932407715916634E-1  -7.754484039721115E-1   3.034587338566780E-1   2.338071748614311E-1   1.991157710690670E-1  
 1.004951237809452E10    3.417070579528809E-1   4.748632986733499E-2  -7.720644581161755E-1   2.874084231257439E-1  -7.774531802434023E-1   3.014612007141113E-1   2.327802877128124E-1   1.964303981727619E-1  
 1.005026256564141E10    3.404887610673905E-1   4.838296105959438E-2  -7.732151588402600E-1   2.906842726469040E-1  -7.714659468958979E-1   3.115896788239479E-1   2.362509216368199E-1   1.937534987419267E-1  
 1.005101275318830E10    3.410079371929169E-1   5.197758116047189E-2  -7.767807628936324E-1   2.892706492543220E-1  -7.688410608891607E-1   3.144794240593910E-1   2.346660152077675E-1   1.927633151202945E-1  
 1.005176294073518E10    3.406097340583801E-1   4.754371812194564E-2  -7.802401313263259E-1   2.876889657974244E-1  -7.683257684457074E-1   3.130024760961533E-1   2.371828690171242E-1   1.883943856717036E-1  
 1.005251312828207E10    3.379557576775552E-1   4.995258379512901E-2  -7.788966322712767E-1   2.905816435813904E-1  -7.649479190676292E-1   3.165568146109582E-1   2.388009040057659E-1   1.853868995352167E-1  
 1.005326331582896E10    3.374184852838517E-1   4.897178631993579E-2  -7.849348782621287E-1   2.895770210027695E-1  -7.636519212425804E-1   3.153385382890701E-1   2.407664068043232E-1   1.847432351320130E-1  
 1.005401350337584E10    3.371072027087211E-1   4.910768658356146E-2  -7.862619159808111E-1   2.909505471587180E-1  -7.611858238743832E-1   3.186103200912476E-1   2.452076005935669E-1   1.829854858546618E-1  
 1.005476369092273E10    3.372524979710580E-1   4.927057747099120E-2  -7.875868814678110E-1   2.917741641402245E-1  -7.613474253445803E-1   3.187541344761849E-1   2.436361983418465E-1   1.794632937203881E-1  
 1.005551387846962E10    3.369140854477882E-1   4.703789278306342E-2  -7.940416053072278E-1   2.921407997608184E-1  -7.595384927649611E-1   3.178004032373429E-1   2.448275774717331E-1   1.767354645844266E-1  
 1.005626406601650E10    3.374599674344063E-1   5.179131956524224E-2  -7.949998649657614E-1   2.949693644046784E-1  -7.583208854410471E-1   3.197954946756363E-1   2.442522877454758E-1   1.724708232763848E-1  
 1.005701425356339E10    3.342200818657876E-1   4.984195445711843E-2  -7.948888872847616E-1   2.972936654090882E-1  -7.565275707062470E-1   3.187793239951134E-1   2.505584576725959E-1   1.725404147953907E-1  
 1.005776444111028E10    3.361775085330009E-1   4.617445065154940E-2  -7.982334199188010E-1   2.995058208703995E-1  -7.577005761747491E-1   3.202054703235626E-1   2.513574014604092E-1   1.723407004504007E-1  
 1.005851462865716E10    3.343443521857262E-1   4.489740177656115E-2  -7.988344701654779E-1   3.029567179083824E-1  -7.539157121177318E-1   3.202466565370560E-1   2.528114378452302E-1   1.691655216875362E-1  
 1.005926481620405E10    3.349532064795494E-1   4.650415512100458E-2  -8.023566259363526E-1   3.042808702588081E-1  -7.564486032552437E-1   3.190111061930656E-1   2.521243596076966E-1   1.666232229512274E-1  
 1.006001500375094E10    3.338215410709381E-1   4.783442009747107E-2  -8.036131641435647E-1   3.050357779860497E-1  -7.545427242849647E-1   3.188595500588418E-1   2.569258192181588E-1   1.686908524004771E-1  
 1.006076519129783E10    3.346721950173379E-1   4.563606196296868E-2  -8.026185433666931E-1   3.096582564711571E-1  -7.528308213917887E-1   3.166802957654000E-1   2.580203664302826E-1   1.607171429754625E-1  
 1.006151537884471E10    3.337572869658471E-1   4.618293903078472E-2  -8.061920960804064E-1   3.125937917828560E-1  -7.531456946778692E-1   3.146804293990136E-1   2.616917428374291E-1   1.646013574318078E-1  
 1.006226556639160E10    3.333776909112930E-1   4.418109731435318E-2  -8.053101459453116E-1   3.167124184966087E-1  -7.549784374836350E-1   3.127385330200196E-1   2.641402065753937E-1   1.612726954290850E-1  
 1.006301575393848E10    3.350533193349839E-1   4.558422973821465E-2  -8.055777856348256E-1   3.211463242769241E-1  -7.543000064050198E-1   3.102906167507171E-1   2.690891575813293E-1   1.605669832991459E-1  
 1.006376594148537E10    3.359414017200471E-1   4.446779906340025E-2  -8.053619718271903E-1   3.215637588500976E-1  -7.545623770013601E-1   3.105238947272301E-1   2.710841107368469E-1   1.605300020381695E-1  
 1.006451612903226E10    3.345855787396432E-1   4.298666070763492E-2  -8.038460584875244E-1   3.261349129676819E-1  -7.542725311927415E-1   3.076955339312554E-1   2.728622007369996E-1   1.597628897405153E-1  
 1.006526631657915E10    3.335678723454476E-1   4.345994072594685E-2  -8.039732075446588E-1   3.301135551929474E-1  -7.573996890765316E-1   3.051423621177673E-1   2.783625486493111E-1   1.580842060184563E-1  
 1.006601650412603E10    3.335421708226204E-1   4.201972537809251E-2  -8.009537865314631E-1   3.324784180521966E-1  -7.591341639459528E-1   3.034078276157379E-1   2.800944280624391E-1   1.611828323953261E-1  
 1.006676669167292E10    3.392697393894196E-1   3.939909778833171E-2  -8.007728712177816E-1   3.385649791359902E-1  -7.568660265817611E-1   3.027419391274452E-1   2.814634463191033E-1   1.626814646186169E-1  
 1.006751687921981E10    3.393958267569542E-1   3.879092887118962E-2  -7.994309249110257E-1   3.428717911243439E-1  -7.618039030778250E-1   2.991606074571609E-1   2.827730342745780E-1   1.615324717594139E-1  
 1.006826706676669E10    3.411325815320015E-1   3.625028288949361E-2  -7.958820925418465E-1   3.452909740805626E-1  -7.605342519052865E-1   2.972921788692475E-1   2.912703862786293E-1   1.586822286340575E-1  
 1.006901725431358E10    3.403716763854027E-1   3.692123569561275E-2  -7.954742117287506E-1   3.473768320679665E-1  -7.627988434053902E-1   2.954074317216874E-1   2.913350206613541E-1   1.635652959538599E-1  
 1.006976744186047E10    3.405982136726380E-1   3.651049434374282E-2  -7.907110403313373E-1   3.505713555216790E-1  -7.651667373163803E-1   2.937552344799043E-1   2.914967131614685E-1   1.634425392422332E-1  
