#  HZ   S   RI   R     50.0 
! Rohde & Schwarz ZVL13 2Ports - Version 3.31 - 1303.6509k13 SN: 101088
! Date: 2023-03-06 15:55:25
! Data & Calibration Information:
! Trc4:S11(TOSM) Trc2:S21(TOSM) Trc3:S12(TOSM) Trc5:S22(TOSM)
! 
! 
! 
 1.000000000000000E10    3.158737415075303E-1   7.953829577444700E-2  -8.316671326857600E-1   1.952733951807023E-1  -8.133154821905287E-1   2.351071913540364E-1   2.308920040726662E-1   1.863905187269344E-1  
 1.000075018754689E10    3.179824778437615E-1   7.998009281155943E-2  -8.324953994014654E-1   1.996086165308953E-1  -8.104560393601266E-1   2.358293616771698E-1   2.323011405766010E-1   1.876755107650937E-1  
 1.000150037509377E10    3.169154542684555E-1   7.796678975227682E-2  -8.342854518162094E-1   2.017889869213104E-1  -8.085455176420016E-1   2.326123991608620E-1   2.354270344972610E-1   1.858917013198363E-1  
 1.000225056264066E10    3.171953180432319E-1   7.673048702702724E-2  -8.364232514434415E-1   2.014556291699410E-1  -8.062650954627122E-1   2.299035397171975E-1   2.366850402951241E-1   1.850626153144208E-1  
 1.000300075018755E10    3.155312606692315E-1   7.729521451861277E-2  -8.376867151742272E-1   2.051579904556275E-1  -8.023915618712467E-1   2.290926362574101E-1   2.394074422121048E-1   1.870546992094375E-1  
 1.000375093773443E10    3.181207385659218E-1   7.521215752900093E-2  -8.396210411700705E-1   2.059592238068581E-1  -8.025747493309019E-1   2.262609538435936E-1   2.425773417949677E-1   1.875898732182112E-1  
 1.000450112528132E10    3.149984005093575E-1   7.595068101103819E-2  -8.390476376622983E-1   2.080861748754979E-1  -7.995422575533913E-1   2.249999856948853E-1   2.464485557377339E-1   1.893111653524460E-1  
 1.000525131282821E10    3.150275838375091E-1   7.782511440687123E-2  -8.389889926437577E-1   2.130467288196087E-1  -7.996129176439217E-1   2.218301519751549E-1   2.463240489363671E-1   1.875853648449073E-1  
 1.000600150037509E10    3.161845183372498E-1   7.304682523605918E-2  -8.417133041854346E-1   2.159102393686772E-1  -7.972782399061438E-1   2.177163322269917E-1   2.479714243113995E-1   1.873081325221942E-1  
 1.000675168792198E10    3.160294553637504E-1   7.518574466400727E-2  -8.427670838010759E-1   2.213632647693157E-1  -7.963977922186739E-1   2.154602469503880E-1   2.500517180562019E-1   1.897466716181345E-1  
 1.000750187546887E10    3.149290043115616E-1   7.528651003953689E-2  -8.458071282767272E-1   2.238002589344979E-1  -7.967830888922896E-1   2.118620280921460E-1   2.543776309490203E-1   1.924489206979352E-1  
 1.000825206301576E10    3.154275754094124E-1   7.371618571517212E-2  -8.427459703871008E-1   2.320313386619091E-1  -7.949231647211705E-1   2.111097440123558E-1   2.548431879281998E-1   1.932488119688809E-1  
 1.000900225056264E10    3.228657314181328E-1   6.970791636767545E-2  -8.456896506260272E-1   2.380903981626034E-1  -7.929687480824783E-1   2.118782234191895E-1   2.565373989939690E-1   1.985349782646559E-1  
 1.000975243810953E10    3.183383154869081E-1   7.094939956590726E-2  -8.431570183365320E-1   2.386583080887795E-1  -7.909933375784827E-1   2.047677664458752E-1   2.575475302338600E-1   1.976585983597858E-1  
 1.001050262565641E10    3.251719844341279E-1   7.334250887352009E-2  -8.400372890649966E-1   2.429797601699829E-1  -7.928530356038905E-1   2.007281072437764E-1   2.610381600260734E-1   1.960699684870418E-1  
 1.001125281320330E10    3.219704613089562E-1   7.360094957203685E-2  -8.421531150783761E-1   2.485256087779999E-1  -7.908153336470443E-1   1.969683751463890E-1   2.631882452964783E-1   1.969666600395264E-1  
 1.001200300075019E10    3.233366319537163E-1   7.140515657955283E-2  -8.398992762357838E-1   2.527929329872131E-1  -7.914985997961724E-1   1.965514180064201E-1   2.640616506338120E-1   2.039172292792001E-1  
 1.001275318829707E10    3.244849929213524E-1   6.966682677792478E-2  -8.351535700152832E-1   2.600645142793656E-1  -7.910664137367286E-1   1.941998273134232E-1   2.682579332590103E-1   2.055625852588253E-1  
 1.001350337584396E10    3.267457586526872E-1   7.127048643331654E-2  -8.364472073290472E-1   2.610599127411843E-1  -7.937499350202757E-1   1.872354187071323E-1   2.664032208919526E-1   2.079457292328386E-1  
 1.001425356339085E10    3.279605188965798E-1   6.898035688902783E-2  -8.367727495810230E-1   2.666429385542870E-1  -7.914802186952058E-1   1.876397725939751E-1   2.688272696733475E-1   2.091683476003233E-1  
 1.001500375093774E10    3.329679709672928E-1   6.508794542254992E-2  -8.323457590266277E-1   2.726174256205559E-1  -7.917775955453525E-1   1.829313361644746E-1   2.686238288879395E-1   2.090139500782418E-1  
 1.001575393848462E10    3.329479652643204E-1   6.866082175490815E-2  -8.262862143336517E-1   2.817229846119880E-1  -7.940449120869875E-1   1.796797670423985E-1   2.721045961976051E-1   2.134314041913742E-1  
 1.001650412603151E10    3.344692906737328E-1   6.526910745396476E-2  -8.246094582283189E-1   2.841314324736595E-1  -7.935139625716848E-1   1.789118041098118E-1   2.760570317506790E-1   2.146475941467700E-1  
 1.001725431357839E10    3.345601817965507E-1   6.622727466304372E-2  -8.197474947455216E-1   2.870733642578125E-1  -7.951642844233842E-1   1.757165621221066E-1   2.758280035853387E-1   2.192654597566810E-1  
 1.001800450112528E10    3.362658885121346E-1   6.345612736564880E-2  -8.185803610587000E-1   2.932808324694634E-1  -7.951418861970105E-1   1.726786591112614E-1   2.773581451177598E-1   2.180500805995758E-1  
 1.001875468867217E10    3.401133108139038E-1   6.349336948818014E-2  -8.149273642368250E-1   2.966321924328804E-1  -7.958599470265126E-1   1.718467020988465E-1   2.763750374317169E-1   2.218087054276074E-1  
 1.001950487621906E10    3.378575360774994E-1   6.065553122885629E-2  -8.101536804497018E-1   2.995274534821510E-1  -7.962343806745234E-1   1.708506296575070E-1   2.765094119310379E-1   2.249988119876168E-1  
 1.002025506376594E10    3.412810987234116E-1   6.001117172012759E-2  -8.050063239619052E-1   3.043233051896095E-1  -8.015959782822788E-1   1.683315923810005E-1   2.818216839432717E-1   2.256846365896167E-1  
 1.002100525131283E10    3.414903798699379E-1   5.807040849065605E-2  -8.028127769418214E-1   3.100899606943131E-1  -7.997251970781762E-1   1.687234389781952E-1   2.780132490396499E-1   2.260182339543159E-1  
 1.002175543885972E10    3.430639484524727E-1   5.759276470261657E-2  -7.983749818183908E-1   3.132680413126945E-1  -8.010146233230178E-1   1.688954423367977E-1   2.812615293264389E-1   2.258566609796132E-1  
 1.002250562640660E10    3.443085327744485E-1   5.437615373193477E-2  -7.927222878811149E-1   3.179691174626351E-1  -8.050418288000416E-1   1.691437043249607E-1   2.833465617895127E-1   2.286579808255354E-1  
 1.002325581395349E10    3.435620868206024E-1   5.359506790894428E-2  -7.878086471937099E-1   3.190910872817040E-1  -8.045286873512888E-1   1.690211310982704E-1   2.787735450267793E-1   2.261402724761340E-1  
 1.002400600150038E10    3.467442134022713E-1   5.123033768288852E-2  -7.858965687678284E-1   3.198162192106247E-1  -8.069241711739393E-1   1.700263513624668E-1   2.803586578369141E-1   2.293656890275143E-1  
 1.002475618904726E10    3.470428130030633E-1   4.958585258765152E-2  -7.801049449853327E-1   3.222537043690681E-1  -8.066056027176375E-1   1.716563443839551E-1   2.818291774392128E-1   2.294290295059064E-1  
 1.002550637659415E10    3.488763782382012E-1   4.657365594512693E-2  -7.764849534572795E-1   3.271901717782021E-1  -8.089463410395457E-1   1.726806272566318E-1   2.820828175544740E-1   2.293941824049679E-1  
 1.002625656414104E10    3.483285424113274E-1   4.679138642225372E-2  -7.712441515953489E-1   3.274379268288613E-1  -8.102291800242449E-1   1.741632497310639E-1   2.768912816047668E-1   2.293369477988664E-1  
 1.002700675168792E10    3.483341336250305E-1   4.120667642063865E-2  -7.693724579027670E-1   3.272940903902054E-1  -8.145594887364775E-1   1.768091109395027E-1   2.807705265283584E-1   2.329331234305476E-1  
 1.002775693923481E10    3.487254187464714E-1   4.230790036508710E-2  -7.661463693566990E-1   3.322109112143517E-1  -8.130714961688607E-1   1.780115398764610E-1   2.795616972446442E-1   2.314301569963761E-1  
 1.002850712678170E10    3.463927894830703E-1   4.029935266683935E-2  -7.654042900118276E-1   3.261576834321023E-1  -8.149527318523041E-1   1.799540339410305E-1   2.776675394177437E-1   2.312482831804473E-1  
 1.002925731432858E10    3.473885518312455E-1   4.195941933220335E-2  -7.591241118865251E-1   3.311560934782029E-1  -8.150362312113630E-1   1.846249958872795E-1   2.768030086159706E-1   2.296479479439576E-1  
 1.003000750187547E10    3.473004862666129E-1   3.874618170955016E-2  -7.560494324479453E-1   3.330791798233987E-1  -8.156834425654804E-1   1.911755669116974E-1   2.742529594898224E-1   2.316319472001786E-1  
 1.003075768942236E10    3.494690704345704E-1   3.773374815660428E-2  -7.542532724816784E-1   3.301240009069443E-1  -8.160965187442755E-1   1.953270201385021E-1   2.733390283584595E-1   2.307839113915328E-1  
 1.003150787696924E10    3.486326232552529E-1   3.493899143495298E-2  -7.534126996806804E-1   3.263361164927484E-1  -8.197067111619363E-1   1.923201522231102E-1   2.684114679694176E-1   2.330396838391972E-1  
 1.003225806451613E10    3.487020352482796E-1   3.921941047732269E-2  -7.492798275785937E-1   3.288238394260407E-1  -8.165071199395817E-1   2.056950785219670E-1   2.703592383861542E-1   2.301885953350433E-1  
 1.003300825206302E10    3.455984252691269E-1   3.694138321227903E-2  -7.454015020138987E-1   3.301255089044571E-1  -8.159478747358806E-1   2.135527160763741E-1   2.699680802226067E-1   2.314092483250200E-1  
 1.003375843960990E10    3.476913461089134E-1   3.445140743783891E-2  -7.448179000067725E-1   3.259667807817459E-1  -8.160183890611488E-1   2.148102231323719E-1   2.632909101247788E-1   2.299674936097780E-1  
 1.003450862715679E10    3.469293296337128E-1   3.453441405882904E-2  -7.439316103194518E-1   3.250017014145851E-1  -8.135969374890403E-1   2.181436125934124E-1   2.632820430397988E-1   2.308689367812209E-1  
 1.003525881470368E10    3.475391748547555E-1   3.845577338325514E-2  -7.405699956371260E-1   3.234976845979691E-1  -8.120440298317959E-1   2.248281262814999E-1   2.608363008499146E-1   2.286432738045915E-1  
 1.003600900225056E10    3.490437743067741E-1   3.444195771509787E-2  -7.417357903372299E-1   3.239001762866974E-1  -8.136455261709699E-1   2.273304785788060E-1   2.593774446845055E-1   2.321813684184022E-1  
 1.003675918979745E10    3.413918277621270E-1   3.516661718703915E-2  -7.397798496778247E-1   3.217265436053276E-1  -8.119771196540762E-1   2.351381693780423E-1   2.590997198224068E-1   2.295753516200774E-1  
 1.003750937734434E10    3.463303226232530E-1   3.655942621886235E-2  -7.398716512266674E-1   3.203962224721909E-1  -8.096238752470852E-1   2.400365802645683E-1   2.544408062100411E-1   2.280989095897398E-1  
 1.003825956489122E10    3.465239685773850E-1   3.602228181489044E-2  -7.400880231824621E-1   3.195741537213326E-1  -8.077319217802831E-1   2.469386807084083E-1   2.538287168741226E-1   2.256098002346420E-1  
 1.003900975243811E10    3.456149590015412E-1   3.823573291539448E-2  -7.394011585033573E-1   3.176834258437156E-1  -8.046223600904252E-1   2.538962590694427E-1   2.537155488133431E-1   2.273528114432680E-1  
 1.003975993998500E10    3.437302234768868E-1   3.944937325670189E-2  -7.420450986639647E-1   3.159438377618790E-1  -8.034672376721123E-1   2.572589609026910E-1   2.500816319882870E-1   2.260115915533898E-1  
 1.004051012753188E10    3.453746205568314E-1   4.030735761730492E-2  -7.419635700475429E-1   3.135602083802224E-1  -8.015072605477772E-1   2.643802839517593E-1   2.467966523766518E-1   2.244262534573630E-1  
 1.004126031507877E10    3.454204866290094E-1   3.769130354770037E-2  -7.443420271218015E-1   3.094207537174225E-1  -7.986319230773504E-1   2.670809516310692E-1   2.444724583625794E-1   2.238845658728876E-1  
 1.004201050262566E10    3.443301171064377E-1   4.024145188078273E-2  -7.419398161515250E-1   3.098853921890259E-1  -7.953787859095156E-1   2.725646027922631E-1   2.441202457249165E-1   2.208641366795543E-1  
 1.004276069017254E10    3.424419197440148E-1   3.998189724482940E-2  -7.446611280840474E-1   3.086938080191612E-1  -7.953835200366612E-1   2.789147788286209E-1   2.436660267412663E-1   2.193936400623973E-1  
 1.004351087771943E10    3.436910244822503E-1   4.223110509299548E-2  -7.460848343198809E-1   3.079159438610077E-1  -7.929608470832992E-1   2.847610381245614E-1   2.434579432010650E-1   2.186669520070684E-1  
 1.004426106526632E10    3.437604999542236E-1   4.157696024411502E-2  -7.475693351880468E-1   3.067154577374459E-1  -7.893752844574591E-1   2.850405853986741E-1   2.414929407835007E-1   2.180161181380035E-1  
 1.004501125281320E10    3.431102415919304E-1   4.413445976531193E-2  -7.489462233989044E-1   3.079133430123329E-1  -7.862553272342806E-1   2.950366100668908E-1   2.428434090316296E-1   2.151981815998973E-1  
 1.004576144036009E10    3.405963239073753E-1   4.382379828517720E-2  -7.543414720133066E-1   3.033198004961014E-1  -7.853482103693821E-1   2.987915518879891E-1   2.410277555882931E-1   2.135835899564410E-1  
 1.004651162790698E10    3.432483083009720E-1   4.638159768595641E-2  -7.558227525647255E-1   2.982915967702866E-1  -7.836076955259802E-1   2.996170365810394E-1   2.402930088341237E-1   2.133513725468771E-1  
 1.004726181545386E10    3.476338037848473E-1   4.413436222009300E-2  -7.594396048243740E-1   2.972739842534065E-1  -7.788437851533318E-1   3.007139262557030E-1   2.392346052825451E-1   2.103886634922994E-1  
 1.004801200300075E10    3.402590301632881E-1   4.413138508750018E-2  -7.626524637783487E-1   2.978849667310715E-1  -7.754664404533145E-1   3.068220248818398E-1   2.366989700496197E-1   2.076120259295204E-1  
 1.004876219054764E10    3.436676949262620E-1   4.014768682960225E-2  -7.635481529403689E-1   2.997356438636780E-1  -7.724596524563829E-1   3.106967693567277E-1   2.406874445080757E-1   2.065193248793313E-1  
 1.004951237809452E10    3.431309846043587E-1   4.380694558258119E-2  -7.678874878627281E-1   2.930891245603562E-1  -7.740292557828616E-1   3.089561468362809E-1   2.399924388527870E-1   2.025197821827736E-1  
 1.005026256564141E10    3.430369108915329E-1   4.401133301877021E-2  -7.685496464219640E-1   2.973638537526131E-1  -7.681022100736564E-1   3.190863123536110E-1   2.414258423447609E-1   2.010481136339269E-1  
 1.005101275318830E10    3.437451040744782E-1   4.723764536039381E-2  -7.730040486945207E-1   2.943705627322197E-1  -7.658808681523242E-1   3.207367420196533E-1   2.404329612851143E-1   1.998937386712430E-1  
 1.005176294073518E10    3.408611482381820E-1   4.233605593847335E-2  -7.750284609000475E-1   2.949032047390938E-1  -7.647332947832234E-1   3.202338400483131E-1   2.432242159545422E-1   1.957211200103509E-1  
 1.005251312828207E10    3.406117060780525E-1   4.497998498253453E-2  -7.743749299678175E-1   2.968446671962738E-1  -7.614432833545038E-1   3.232956144213677E-1   2.434792828559876E-1   1.921687855949724E-1  
 1.005326331582896E10    3.410725328326226E-1   4.523442148081559E-2  -7.811733708024424E-1   2.955029571056366E-1  -7.601217573490945E-1   3.226581349968911E-1   2.438559980690480E-1   1.915445157325937E-1  
 1.005401350337584E10    3.403101077675820E-1   4.548520807418550E-2  -7.824638044729946E-1   2.963028517365455E-1  -7.580505406157898E-1   3.257571461796761E-1   2.477952423691750E-1   1.902146314474317E-1  
 1.005476369092273E10    3.406667998433114E-1   4.416799479291851E-2  -7.832901088641905E-1   2.994007983803750E-1  -7.578597408161130E-1   3.257589152455330E-1   2.458401319384575E-1   1.863579227849799E-1  
 1.005551387846962E10    3.397129091620446E-1   4.321105505691190E-2  -7.896437239705442E-1   2.989561861753464E-1  -7.558240945063821E-1   3.256211745738984E-1   2.480335038900376E-1   1.831498943759826E-1  
 1.005626406601650E10    3.399221661686897E-1   4.706222986653693E-2  -7.909561023416164E-1   3.002557322382927E-1  -7.551168386500239E-1   3.266488015651702E-1   2.463679742813110E-1   1.798200943508842E-1  
 1.005701425356339E10    3.369289791584015E-1   4.440942407158929E-2  -7.908368241695302E-1   3.032322230935097E-1  -7.536805475658061E-1   3.242885005474091E-1   2.506028197705746E-1   1.795207855481638E-1  
 1.005776444111028E10    3.380897596478463E-1   4.176407456041834E-2  -7.941323091907885E-1   3.058091646432877E-1  -7.544560675841144E-1   3.263035374879837E-1   2.526951110363007E-1   1.797993337817107E-1  
 1.005851462865716E10    3.388391193747520E-1   4.032672805029233E-2  -7.950906123776584E-1   3.089477586746217E-1  -7.507088032164307E-1   3.271995708346367E-1   2.523304967582226E-1   1.766258051529561E-1  
 1.005926481620405E10    3.375891077518463E-1   4.045701094493776E-2  -7.982916693265190E-1   3.102260488271714E-1  -7.529346835773679E-1   3.254478764533997E-1   2.525318279862404E-1   1.735317085616919E-1  
 1.006001500375094E10    3.378642323613167E-1   4.204169432721294E-2  -7.997956476473352E-1   3.114783996343613E-1  -7.516102816510235E-1   3.251850467920304E-1   2.554999253153801E-1   1.758828186232240E-1  
 1.006076519129783E10    3.381287613511086E-1   4.152697601533088E-2  -7.990979279514068E-1   3.163056123256683E-1  -7.502809621588947E-1   3.216805285215378E-1   2.569410321116448E-1   1.669875965997543E-1  
 1.006151537884471E10    3.356323978304864E-1   4.146326383493516E-2  -8.020040111330327E-1   3.189783862233162E-1  -7.506921644772917E-1   3.202396023273469E-1   2.602161377668381E-1   1.709292715407325E-1  
 1.006226556639160E10    3.368902999162674E-1   3.907820748825738E-2  -8.006622102811440E-1   3.240737801790237E-1  -7.523285444464050E-1   3.186790132522583E-1   2.620296937227249E-1   1.690404059342300E-1  
 1.006301575393848E10    3.375326946377754E-1   4.025902816610918E-2  -8.014159838002817E-1   3.276532539725305E-1  -7.515441841380838E-1   3.166887572407723E-1   2.657735756039620E-1   1.665025852820040E-1  
 1.006376594148537E10    3.398782509565354E-1   3.932927207742095E-2  -8.007889193657709E-1   3.290320762991905E-1  -7.519553595231410E-1   3.165601608157159E-1   2.676689010858536E-1   1.666646852433839E-1  
 1.006451612903226E10    3.377436333894730E-1   3.921778698680226E-2  -7.998252555753227E-1   3.325405529141426E-1  -7.518827002890638E-1   3.134518298506736E-1   2.703090873360634E-1   1.665315051979277E-1  
 1.006526631657915E10    3.375781360268593E-1   4.030402968259859E-2  -7.998912279802907E-1   3.371488660573960E-1  -7.552479277650739E-1   3.111031320691108E-1   2.730052465200425E-1   1.640404131558746E-1  
 1.006601650412603E10    3.364152243733407E-1   3.812081279478630E-2  -7.970081350014180E-1   3.391509479284287E-1  -7.570881278780020E-1   3.098351821303368E-1   2.746507033705711E-1   1.660682269385576E-1  
 1.006676669167292E10    3.424000763893128E-1   3.539950859663082E-2  -7.966182817904066E-1   3.451963406801223E-1  -7.548271054943027E-1   3.084542053937912E-1   2.767441815137863E-1   1.672196872841963E-1  
 1.006751687921981E10    3.416980904340744E-1   3.418654701589186E-2  -7.954491097172085E-1   3.493553894758225E-1  -7.598744509091083E-1   3.052872908115387E-1   2.778020375967026E-1   1.659007447914495E-1  
 1.006826706676669E10    3.444682437181474E-1   3.309258151771424E-2  -7.926736907264957E-1   3.514390173554421E-1  -7.585419081971745E-1   3.031458705663681E-1   2.860773837566376E-1   1.639172287395847E-1  
 1.006901725431358E10    3.431999540328981E-1   3.141564057254310E-2  -7.911604153367424E-1   3.541311138868333E-1  -7.612033969039599E-1   3.012231570482255E-1   2.860278984904289E-1   1.680641548999149E-1  
 1.006976744186047E10    3.420201620459558E-1   3.258802020088415E-2  -7.874465262847239E-1   3.564488971233368E-1  -7.635726022881251E-1   2.996842509508134E-1   2.869977468252182E-1   1.674133064292171E-1  
