#  HZ   S   RI   R     50.0 
! Rohde & Schwarz ZVL13 2Ports - Version 3.31 - 1303.6509k13 SN: 101088
! Date: 2023-03-06 16:00:13
! Data & Calibration Information:
! Trc4:S11(TOSM) Trc2:S21(TOSM) Trc3:S12(TOSM) Trc5:S22(TOSM)
! 
! 
! 
 1.000000000000000E10    3.145387073357900E-1   8.323166953617822E-2  -8.312244513267099E-1   1.892116367816925E-1  -8.125322626897715E-1   2.298990587393443E-1   2.322650899489721E-1   1.892872250734828E-1  
 1.000075018754689E10    3.147590359052023E-1   8.275645116236670E-2  -8.315583754815077E-1   1.934531728426616E-1  -8.097209419784520E-1   2.313525527715683E-1   2.328845709562302E-1   1.932451742875261E-1  
 1.000150037509377E10    3.161098559697469E-1   8.080818562939618E-2  -8.335282465088518E-1   1.960047533114751E-1  -8.085252275457452E-1   2.268704573313395E-1   2.351198593775432E-1   1.889166714514433E-1  
 1.000225056264066E10    3.155341049035391E-1   7.737593439499367E-2  -8.353439636060851E-1   1.952635645866394E-1  -8.057109640472376E-1   2.244462420543035E-1   2.375518381595612E-1   1.876702093910755E-1  
 1.000300075018755E10    3.157916267712911E-1   7.788122095664292E-2  -8.369889171451386E-1   1.994133293628693E-1  -8.014852711035241E-1   2.235915859540304E-1   2.395935555299123E-1   1.903571232727538E-1  
 1.000375093773443E10    3.157938222090403E-1   7.890405417540065E-2  -8.389194896077876E-1   1.990869591633479E-1  -8.022309661543792E-1   2.205107609430949E-1   2.404308368762335E-1   1.910021040226927E-1  
 1.000450112528132E10    3.125696281592051E-1   7.669846953829793E-2  -8.376489190739083E-1   2.017772793769836E-1  -7.989296349746996E-1   2.194279730319977E-1   2.456187158823013E-1   1.932594663206402E-1  
 1.000525131282821E10    3.147112429141998E-1   7.951385992414958E-2  -8.385108215222501E-1   2.059896985689799E-1  -7.991492886341978E-1   2.181443323691686E-1   2.443546901146571E-1   1.917935826888187E-1  
 1.000600150037509E10    3.156119088331859E-1   7.474456211144433E-2  -8.408415318277991E-1   2.093789627154668E-1  -7.968875534999255E-1   2.118965437014898E-1   2.477779189745585E-1   1.914963934185646E-1  
 1.000675168792198E10    3.149525324503581E-1   7.282282662784975E-2  -8.413264242742220E-1   2.157201121250789E-1  -7.961386231506231E-1   2.093522697687149E-1   2.480719039837520E-1   1.940307383332578E-1  
 1.000750187546887E10    3.136461476484935E-1   7.390760500844901E-2  -8.441211694643430E-1   2.171573291222255E-1  -7.960373612543578E-1   2.066407352685928E-1   2.521617710590363E-1   1.982215790452449E-1  
 1.000825206301576E10    3.130906522274017E-1   7.511204418081911E-2  -8.426948363628058E-1   2.249658256769181E-1  -7.945883188885914E-1   2.049245238304139E-1   2.543766200542450E-1   1.955979779753256E-1  
 1.000900225056264E10    3.235969046751658E-1   6.858948420949609E-2  -8.440710812933546E-1   2.325614343086879E-1  -7.922131551434798E-1   2.075023750464122E-1   2.542956769466400E-1   2.046792271961593E-1  
 1.000975243810953E10    3.169129689534506E-1   7.045054380986736E-2  -8.429709702124792E-1   2.309823532899221E-1  -7.902312561117095E-1   1.989324688911438E-1   2.551395495732626E-1   2.019141233946459E-1  
 1.001050262565641E10    3.226046562194824E-1   7.468995313282383E-2  -8.396649611823347E-1   2.354981551567714E-1  -7.920492942691692E-1   1.956725964943568E-1   2.587862908840179E-1   2.013296232277620E-1  
 1.001125281320330E10    3.209605515003204E-1   7.402646800969741E-2  -8.423058128851713E-1   2.407251844803492E-1  -7.907370693176036E-1   1.907133559385936E-1   2.601813077926636E-1   2.011209539929816E-1  
 1.001200300075019E10    3.224463562170665E-1   7.161404787745325E-2  -8.392277437231244E-1   2.463839352130890E-1  -7.912983890888854E-1   1.900008072455724E-1   2.588018178939819E-1   2.090752582615998E-1  
 1.001275318829707E10    3.243168294429779E-1   7.112531594674874E-2  -8.355421951162229E-1   2.532626191775004E-1  -7.901347610593702E-1   1.877049058675766E-1   2.648616035779318E-1   2.115197879171366E-1  
 1.001350337584396E10    3.261682490507762E-1   7.112757186635223E-2  -8.363704526339690E-1   2.531569600105286E-1  -7.930280942234477E-1   1.810152282317480E-1   2.633625268936157E-1   2.140385891093167E-1  
 1.001425356339085E10    3.257122238477072E-1   6.768663066069681E-2  -8.364228016266082E-1   2.589502334594727E-1  -7.908807319903992E-1   1.821093261241913E-1   2.655196587244670E-1   2.134879664738230E-1  
 1.001500375093774E10    3.329560359319052E-1   6.375019041742587E-2  -8.313202531653556E-1   2.660515109697978E-1  -7.915192623839922E-1   1.776081969340642E-1   2.643304765224457E-1   2.151819733220922E-1  
 1.001575393848462E10    3.330611884593964E-1   6.776188054870183E-2  -8.261926804871438E-1   2.754887243111929E-1  -7.938154835028233E-1   1.737456967433294E-1   2.680357992649078E-1   2.188478572543705E-1  
 1.001650412603151E10    3.332659800847372E-1   6.530174096650958E-2  -8.242090487083069E-1   2.769161562124888E-1  -7.930734301701348E-1   1.727902392546336E-1   2.707111438115438E-1   2.204506238548348E-1  
 1.001725431357839E10    3.361441791057587E-1   6.388039844717296E-2  -8.197550039942224E-1   2.801569501558940E-1  -7.948297424165679E-1   1.687199870745341E-1   2.723739544550578E-1   2.234870779297216E-1  
 1.001800450112528E10    3.372775117556254E-1   6.186620129248108E-2  -8.182515781886145E-1   2.875925103823344E-1  -7.950884935015272E-1   1.659747014443080E-1   2.737519343694052E-1   2.218018562476760E-1  
 1.001875468867217E10    3.413452208042145E-1   6.169940867184050E-2  -8.150151648458940E-1   2.907439271608989E-1  -7.954285574682178E-1   1.661006808280945E-1   2.706413070360820E-1   2.240794852940810E-1  
 1.001950487621906E10    3.388889829317729E-1   5.976715684143842E-2  -8.104163976992023E-1   2.945249776045482E-1  -7.959693296078853E-1   1.652862181266149E-1   2.700869838396708E-1   2.300456894690059E-1  
 1.002025506376594E10    3.410598635673523E-1   5.910554295688394E-2  -8.061122190684509E-1   2.974644800027212E-1  -8.011273044837182E-1   1.636815617481868E-1   2.762518425782522E-1   2.299320125267856E-1  
 1.002100525131283E10    3.412292301654816E-1   5.504188709698064E-2  -8.039371697654781E-1   3.022694885730743E-1  -7.998406630482537E-1   1.610983709494273E-1   2.700417439142863E-1   2.295366641364542E-1  
 1.002175543885972E10    3.438505530357361E-1   5.405184317001832E-2  -7.990379947479507E-1   3.055457969506582E-1  -8.018246258045492E-1   1.623438348372777E-1   2.739245792229971E-1   2.299747768176937E-1  
 1.002250562640660E10    3.467039763927460E-1   5.236258439838654E-2  -7.936164286081053E-1   3.123763501644135E-1  -8.050322992483054E-1   1.624071349700292E-1   2.761636177698771E-1   2.345748891688153E-1  
 1.002325581395349E10    3.444115122159323E-1   5.354805852308622E-2  -7.895186919910974E-1   3.133507768313090E-1  -8.040549939406729E-1   1.625284602244695E-1   2.714175581932068E-1   2.315895648894121E-1  
 1.002400600150038E10    3.481587767601013E-1   5.072823168487828E-2  -7.876533617310531E-1   3.138783375422160E-1  -8.067754335261174E-1   1.630673706531525E-1   2.723764181137085E-1   2.338882730445012E-1  
 1.002475618904726E10    3.476639986038208E-1   4.697615568117877E-2  -7.812682030643212E-1   3.161570827166240E-1  -8.073467836492716E-1   1.652810474236806E-1   2.754971385002136E-1   2.316873489979562E-1  
 1.002550637659415E10    3.497450252374014E-1   4.701166207180852E-2  -7.785914803132480E-1   3.221056759357452E-1  -8.089803820285482E-1   1.663455466429393E-1   2.729741235574087E-1   2.323067637230420E-1  
 1.002625656414104E10    3.492344617843628E-1   4.503266232728935E-2  -7.729660960507427E-1   3.211175402005514E-1  -8.105721618789776E-1   1.676378250122070E-1   2.694525221983592E-1   2.318908981833119E-1  
 1.002700675168792E10    3.498891194661459E-1   4.003783885324221E-2  -7.713527111357147E-1   3.213398059209188E-1  -8.149440796558068E-1   1.698325226704280E-1   2.725047667821249E-1   2.361604993804012E-1  
 1.002775693923481E10    3.503299355506897E-1   4.063901493546013E-2  -7.685006551210087E-1   3.262182772159576E-1  -8.130380831848098E-1   1.704110701878866E-1   2.699260115623474E-1   2.343975749590555E-1  
 1.002850712678170E10    3.493909239768982E-1   3.961658058325648E-2  -7.663927823091588E-1   3.232211172580719E-1  -8.148059354318786E-1   1.732385158538818E-1   2.703235745429993E-1   2.323102873921807E-1  
 1.002925731432858E10    3.489806751410167E-1   3.976229129701433E-2  -7.616883369951557E-1   3.250025808811188E-1  -8.153635860485976E-1   1.784631361564001E-1   2.666198710600535E-1   2.345299111995344E-1  
 1.003000750187547E10    3.479942679405212E-1   3.857218577426855E-2  -7.583757219460948E-1   3.285035192966461E-1  -8.154724611260027E-1   1.851891179879507E-1   2.667424281438192E-1   2.319047528198988E-1  
 1.003075768942236E10    3.510279854138693E-1   3.605069893917971E-2  -7.561817253920786E-1   3.247346083323161E-1  -8.164925991267860E-1   1.899937192598979E-1   2.638715008894603E-1   2.317021248460944E-1  
 1.003150787696924E10    3.488263785839081E-1   3.486021770277997E-2  -7.565521594009270E-1   3.201760848363241E-1  -8.196842028164013E-1   1.860897193352382E-1   2.602068483829498E-1   2.348177562524598E-1  
 1.003225806451613E10    3.492621382077535E-1   3.846788724186184E-2  -7.528808689116451E-1   3.211940824985504E-1  -8.164538021805461E-1   1.996996601422628E-1   2.607988417148590E-1   2.301170738239748E-1  
 1.003300825206302E10    3.455231785774231E-1   3.413561247112490E-2  -7.490807986393335E-1   3.233311871687571E-1  -8.175056950805490E-1   2.043496221303940E-1   2.609661916891734E-1   2.320213895651498E-1  
 1.003375843960990E10    3.485264678796133E-1   3.535362592535769E-2  -7.472552330405928E-1   3.222898642222087E-1  -8.162799004263175E-1   2.067130108674367E-1   2.535926202932994E-1   2.303379306354960E-1  
 1.003450862715679E10    3.487837413946788E-1   3.606402941524373E-2  -7.471975071502004E-1   3.197317222754161E-1  -8.139586063928339E-1   2.105489571889242E-1   2.531801760196686E-1   2.295899448897409E-1  
 1.003525881470368E10    3.472324907779694E-1   3.840637898615150E-2  -7.440467695909512E-1   3.185950616995494E-1  -8.123981352761077E-1   2.188575416803360E-1   2.518653372923533E-1   2.288828586234976E-1  
 1.003600900225056E10    3.491158386071523E-1   3.629634141207442E-2  -7.452807687176175E-1   3.185141781965892E-1  -8.139810203614554E-1   2.205596119165421E-1   2.484225084384283E-1   2.316912059654163E-1  
 1.003675918979745E10    3.414583106835684E-1   3.671051978560864E-2  -7.430996915469226E-1   3.164399464925131E-1  -8.120470403928868E-1   2.296843330065410E-1   2.502101560433706E-1   2.265374930790812E-1  
 1.003750937734434E10    3.456753492355347E-1   3.719653930425762E-2  -7.433700321990403E-1   3.154985706011454E-1  -8.101954312557578E-1   2.348375966151556E-1   2.468618154525757E-1   2.253710390976874E-1  
 1.003825956489122E10    3.460472921530406E-1   3.809677641165193E-2  -7.437410789177511E-1   3.139672875404358E-1  -8.079635454921313E-1   2.405113677183787E-1   2.457133581240972E-1   2.210850339034246E-1  
 1.003900975243811E10    3.447501063346863E-1   3.858001228107943E-2  -7.429304641820156E-1   3.120815753936768E-1  -8.052039945839679E-1   2.475375731786092E-1   2.444261908531189E-1   2.239065725207406E-1  
 1.003975993998500E10    3.412298162778219E-1   4.254359202299588E-2  -7.452435596381875E-1   3.117230137189230E-1  -8.037093361802494E-1   2.518539627393087E-1   2.432608554760615E-1   2.229314872737142E-1  
 1.004051012753188E10    3.450587193171184E-1   4.165877392539252E-2  -7.447574222035370E-1   3.097726404666901E-1  -8.023120137518840E-1   2.589604159196218E-1   2.388944526513418E-1   2.218106288427359E-1  
 1.004126031507877E10    3.444228768348694E-1   4.052360087211580E-2  -7.477086634435574E-1   3.051857650279999E-1  -7.989230110007938E-1   2.618936498959860E-1   2.361311564842860E-1   2.187750774591199E-1  
 1.004201050262566E10    3.448417385419210E-1   4.310171549547285E-2  -7.459250613439692E-1   3.036193450291952E-1  -7.966387159598373E-1   2.658946712811788E-1   2.375745773315430E-1   2.178424585400408E-1  
 1.004276069017254E10    3.409659663836162E-1   4.264396747095148E-2  -7.479652181759668E-1   3.045504987239838E-1  -7.957233200379139E-1   2.727978726228079E-1   2.363105118274689E-1   2.135810743954078E-1  
 1.004351087771943E10    3.441881934801738E-1   4.494881235074007E-2  -7.497897670609206E-1   3.030389746030172E-1  -7.937327525988562E-1   2.792974511782329E-1   2.364454915126165E-1   2.124639069362459E-1  
 1.004426106526632E10    3.417504529158275E-1   4.423327013238125E-2  -7.508558146232356E-1   3.019238611062368E-1  -7.898689000387686E-1   2.797074317932129E-1   2.352080096801122E-1   2.132192975198945E-1  
 1.004501125281320E10    3.414059380690257E-1   4.857752974919209E-2  -7.516019542421244E-1   3.035512864589691E-1  -7.869286827077000E-1   2.900603910287222E-1   2.383182694514593E-1   2.088139233228926E-1  
 1.004576144036009E10    3.407799104849498E-1   4.590297322826574E-2  -7.579746062326825E-1   2.991335590680441E-1  -7.863206103862840E-1   2.921378711859385E-1   2.342338363329570E-1   2.083467978221816E-1  
 1.004651162790698E10    3.423992196718852E-1   4.793493302129118E-2  -7.588346380932376E-1   2.942392031351725E-1  -7.841746378697120E-1   2.950017551581065E-1   2.366001705328624E-1   2.050299647600580E-1  
 1.004726181545386E10    3.445609907309215E-1   4.835727411087740E-2  -7.627379799194392E-1   2.930097579956055E-1  -7.796458267918295E-1   2.959642112255096E-1   2.321445594231288E-1   2.043930833139772E-1  
 1.004801200300075E10    3.372353315353394E-1   4.915468135713516E-2  -7.652991825519899E-1   2.932298382123312E-1  -7.756846629679775E-1   3.036031723022461E-1   2.337965220212936E-1   1.999797810678454E-1  
 1.004876219054764E10    3.402618070443472E-1   4.475980040053059E-2  -7.675169071369711E-1   2.923493285973867E-1  -7.738974062536841E-1   3.039542039235433E-1   2.356014301379522E-1   1.995277421182365E-1  
 1.004951237809452E10    3.414991597334544E-1   4.661754629628558E-2  -7.708656709845124E-1   2.886865933736166E-1  -7.758818818749097E-1   3.013395369052887E-1   2.341608703136444E-1   1.960330093938646E-1  
 1.005026256564141E10    3.405455847581228E-1   4.881230245178917E-2  -7.723047792529947E-1   2.919293940067291E-1  -7.705490672524500E-1   3.116601010163626E-1   2.381390929222107E-1   1.930209819376573E-1  
 1.005101275318830E10    3.409886956214905E-1   5.233344733903227E-2  -7.759046008488401E-1   2.906588017940521E-1  -7.675340892308697E-1   3.153521319230398E-1   2.367488145828247E-1   1.933359002229166E-1  
 1.005176294073518E10    3.400999903678894E-1   4.514355110903669E-2  -7.779084466829463E-1   2.917036016782125E-1  -7.665169274381537E-1   3.156471848487854E-1   2.386941462755204E-1   1.897595046608466E-1  
 1.005251312828207E10    3.379684686660767E-1   5.052457377478437E-2  -7.777873073930486E-1   2.917594114939372E-1  -7.625040508537457E-1   3.188880582650503E-1   2.396869013706843E-1   1.856927929552539E-1  
 1.005326331582896E10    3.387883802254995E-1   4.914979859791108E-2  -7.840309221133417E-1   2.910185754299164E-1  -7.619810380091761E-1   3.172948559125265E-1   2.397287289301555E-1   1.855256905425912E-1  
 1.005401350337584E10    3.364089032014211E-1   4.745649957208965E-2  -7.848215402885127E-1   2.927939891815186E-1  -7.593949617240431E-1   3.211288352807363E-1   2.472340961297354E-1   1.836726479398877E-1  
 1.005476369092273E10    3.367471098899841E-1   4.825540724424703E-2  -7.865553429674725E-1   2.941964467366537E-1  -7.594035697770052E-1   3.208595017592112E-1   2.433445006608963E-1   1.786834877068199E-1  
 1.005551387846962E10    3.370989660422007E-1   4.622388195641501E-2  -7.929248656436059E-1   2.941378851731619E-1  -7.575522463219546E-1   3.197562396526337E-1   2.459814200798671E-1   1.749595112424947E-1  
 1.005626406601650E10    3.359284102916718E-1   4.924654207176565E-2  -7.934073162658075E-1   2.967485487461090E-1  -7.563842580210864E-1   3.218142489592235E-1   2.458353539307912E-1   1.725622162255210E-1  
 1.005701425356339E10    3.342190881570181E-1   4.759697981006271E-2  -7.930455733862014E-1   2.997624874114990E-1  -7.549054898170476E-1   3.200531403223674E-1   2.502464006344478E-1   1.726052525029140E-1  
 1.005776444111028E10    3.335307439168295E-1   4.508973370416327E-2  -7.969978371299407E-1   3.009170492490133E-1  -7.558559540878627E-1   3.215022484461467E-1   2.537779211997986E-1   1.723469826883793E-1  
 1.005851462865716E10    3.339623709519705E-1   4.391752825596434E-2  -7.978151614449049E-1   3.039246896902720E-1  -7.523476653430516E-1   3.224328756332398E-1   2.528911729653677E-1   1.705366153731115E-1  
 1.005926481620405E10    3.348988195260366E-1   4.343649034405965E-2  -8.005682209776479E-1   3.058748741944631E-1  -7.546129153571397E-1   3.207210103670756E-1   2.531121969223023E-1   1.668971509216903E-1  
 1.006001500375094E10    3.364399472872416E-1   4.505095033445315E-2  -8.021341769793163E-1   3.072971602280935E-1  -7.526902068127612E-1   3.208835522333781E-1   2.573491235574087E-1   1.696937266183267E-1  
 1.006076519129783E10    3.371808826923370E-1   4.516251481123423E-2  -8.020930939748210E-1   3.121271530787150E-1  -7.510111958457900E-1   3.178986012935638E-1   2.584600051244100E-1   1.611475874511830E-1  
 1.006151537884471E10    3.337269524733226E-1   4.447236516029358E-2  -8.043828607957695E-1   3.145353198051453E-1  -7.513807193556819E-1   3.157477974891663E-1   2.621664404869080E-1   1.637534189290939E-1  
 1.006226556639160E10    3.340989450613658E-1   4.221245947268869E-2  -8.022388189816627E-1   3.204034070173900E-1  -7.523192753320994E-1   3.154569069544475E-1   2.645017902056376E-1   1.633693199734382E-1  
 1.006301575393848E10    3.349239627520244E-1   4.290096062335156E-2  -8.040345939412921E-1   3.229488730430603E-1  -7.521336221077198E-1   3.117007911205292E-1   2.686536014080048E-1   1.609638915174431E-1  
 1.006376594148537E10    3.370317220687866E-1   4.424575512182286E-2  -8.039260494628627E-1   3.225737412770590E-1  -7.532808486388078E-1   3.114307622114818E-1   2.713522911071777E-1   1.597948063746918E-1  
 1.006451612903226E10    3.364621500174205E-1   4.412787444527691E-2  -8.026547277274527E-1   3.283360997835795E-1  -7.525525416547299E-1   3.086960911750794E-1   2.739095787207286E-1   1.602792068793165E-1  
 1.006526631657915E10    3.333327174186707E-1   4.265860220040672E-2  -8.022286420597814E-1   3.316061993439993E-1  -7.558199837429533E-1   3.063993155956268E-1   2.773491541544597E-1   1.556949795939286E-1  
 1.006601650412603E10    3.352237741152446E-1   4.246416916063350E-2  -7.996630227642596E-1   3.348737359046936E-1  -7.574345827687808E-1   3.055012027422587E-1   2.795629501342773E-1   1.602603139670784E-1  
 1.006676669167292E10    3.411773443222046E-1   3.922701871528943E-2  -7.990894230882784E-1   3.404633502165477E-1  -7.555215831425608E-1   3.040110270182292E-1   2.814765175183615E-1   1.624264577203277E-1  
 1.006751687921981E10    3.399411340554556E-1   3.852580021952738E-2  -7.982143256825920E-1   3.443571726481120E-1  -7.598889735282044E-1   3.011201818784078E-1   2.835276722908020E-1   1.618630981400399E-1  
 1.006826706676669E10    3.419379095236461E-1   3.385616165237211E-2  -7.945382218027037E-1   3.470293283462524E-1  -7.585392765246999E-1   2.983451684316000E-1   2.929140031337738E-1   1.591052257108630E-1  
 1.006901725431358E10    3.409085373083751E-1   3.512669961367435E-2  -7.933994624781104E-1   3.487930297851563E-1  -7.612423075240605E-1   2.962041000525157E-1   2.908130884170532E-1   1.626360743952546E-1  
 1.006976744186047E10    3.409894605477651E-1   3.686010075843951E-2  -7.896167244973185E-1   3.518138130505880E-1  -7.630299425530251E-1   2.953697443008423E-1   2.912580072879791E-1   1.648078647470887E-1  
