#  HZ   S   RI   R     50.0 
! Rohde & Schwarz ZVL13 2Ports - Version 3.31 - 1303.6509k13 SN: 101088
! Date: 2023-03-06 15:54:15
! Data & Calibration Information:
! Trc4:S11(TOSM) Trc2:S21(TOSM) Trc3:S12(TOSM) Trc5:S22(TOSM)
! 
! 
! 
 1.000000000000000E10    3.141486735649961E-1   8.075631829960631E-2  -8.338930285499878E-1   1.937760771291633E-1  -8.152003181037139E-1   2.341664640086857E-1   2.323962737236432E-1   1.856882867542118E-1  
 1.000075018754689E10    3.156556233567492E-1   8.161811798477048E-2  -8.350985172968252E-1   1.982052801461867E-1  -8.124755399401834E-1   2.350102035405969E-1   2.335372809913582E-1   1.877939353966547E-1  
 1.000150037509377E10    3.159488910947633E-1   8.011524725957422E-2  -8.365285156721837E-1   2.002901257781568E-1  -8.106568468103031E-1   2.317849034976076E-1   2.371373983595287E-1   1.863745794172723E-1  
 1.000225056264066E10    3.148004612577275E-1   7.841343335364835E-2  -8.385666276641641E-1   2.001147017727118E-1  -8.083496751172961E-1   2.292276242261215E-1   2.385927877438958E-1   1.850224572791526E-1  
 1.000300075018755E10    3.153711687104825E-1   7.877231139081352E-2  -8.402649147889427E-1   2.038285079228686E-1  -8.043099687159386E-1   2.283768357913961E-1   2.410199371088629E-1   1.872162031901851E-1  
 1.000375093773443E10    3.168470966594976E-1   7.623527040182698E-2  -8.417806720364500E-1   2.047510127864785E-1  -8.047124526644498E-1   2.249675811354633E-1   2.431553772922881E-1   1.871165512003087E-1  
 1.000450112528132E10    3.136243176333825E-1   7.745004731794741E-2  -8.410978112616947E-1   2.065881029256879E-1  -8.016435497965474E-1   2.242449252246709E-1   2.482267793542179E-1   1.898584602177655E-1  
 1.000525131282821E10    3.124893212555854E-1   7.882511906282885E-2  -8.411003800423638E-1   2.111937147465049E-1  -8.019333836191994E-1   2.211939738516832E-1   2.473734946493935E-1   1.878934070970095E-1  
 1.000600150037509E10    3.145840268659824E-1   7.641772913255800E-2  -8.443647045704346E-1   2.139463772150888E-1  -7.994185333407640E-1   2.173003279657797E-1   2.493191181990383E-1   1.869597255405091E-1  
 1.000675168792198E10    3.144429702872266E-1   7.675813593335308E-2  -8.453649951224969E-1   2.197102417462348E-1  -7.986852717643651E-1   2.146590371153729E-1   2.513884159180304E-1   1.893248078735977E-1  
 1.000750187546887E10    3.140703450364668E-1   7.618599871502237E-2  -8.482538094874478E-1   2.226255256071738E-1  -7.987701656900006E-1   2.108488887023952E-1   2.551099821407572E-1   1.922625053611313E-1  
 1.000825206301576E10    3.130481121930033E-1   7.498554609366641E-2  -8.452254680396256E-1   2.304131217557938E-1  -7.967614079184322E-1   2.101237241325595E-1   2.573794724560932E-1   1.927829327861439E-1  
 1.000900225056264E10    3.200222363429703E-1   7.205931341201466E-2  -8.486546629434008E-1   2.356031751049384E-1  -7.948658742583790E-1   2.106133700836355E-1   2.578391888259739E-1   1.975717717110754E-1  
 1.000975243810953E10    3.165779409675003E-1   7.285596776577880E-2  -8.462157837028395E-1   2.368757697319873E-1  -7.930130518329399E-1   2.035667429140723E-1   2.602816772724351E-1   1.964885608554029E-1  
 1.001050262565641E10    3.222493384303645E-1   7.482705148494988E-2  -8.427003555608648E-1   2.410428596121349E-1  -7.945832606341154E-1   2.004176570410248E-1   2.628000952191845E-1   1.960586095431032E-1  
 1.001125281320330E10    3.212855373570639E-1   7.334225533760805E-2  -8.441470171573005E-1   2.479269369438032E-1  -7.926429067199174E-1   1.965531872360064E-1   2.637320052633316E-1   1.983946912951001E-1  
 1.001200300075019E10    3.230316637566802E-1   7.249560783530834E-2  -8.425112814114877E-1   2.520087814774862E-1  -7.936596509292937E-1   1.954535108235962E-1   2.653763829501414E-1   2.043210256503805E-1  
 1.001275318829707E10    3.232181017515213E-1   7.208311729608954E-2  -8.382726055875190E-1   2.588698508113909E-1  -7.929350337777484E-1   1.927718522135842E-1   2.695805682712266E-1   2.062260678777489E-1  
 1.001350337584396E10    3.255224039743240E-1   7.226872332943847E-2  -8.390430140223565E-1   2.597312056882203E-1  -7.957617837009022E-1   1.858226630665279E-1   2.683311290300980E-1   2.090906570647566E-1  
 1.001425356339085E10    3.260743537766663E-1   6.931584429763586E-2  -8.391802984822533E-1   2.650963132893925E-1  -7.931397371881179E-1   1.875893739793162E-1   2.703561900717077E-1   2.096910479265459E-1  
 1.001500375093774E10    3.306190257197201E-1   6.601088083013386E-2  -8.347389194637352E-1   2.715873972829700E-1  -7.938276538467398E-1   1.821606114309643E-1   2.697014670380715E-1   2.107619839841386E-1  
 1.001575393848462E10    3.294301807703028E-1   6.940853266127792E-2  -8.287089364630943E-1   2.803730113981492E-1  -7.961240481207169E-1   1.791748275471136E-1   2.734613303271891E-1   2.140277760786025E-1  
 1.001650412603151E10    3.330840389571766E-1   6.525214760357248E-2  -8.264652226364925E-1   2.832968737369571E-1  -7.953257458619072E-1   1.779884296778699E-1   2.763438273085564E-1   2.162075655746606E-1  
 1.001725431357839E10    3.326263945814730E-1   6.711667748757927E-2  -8.223231245953016E-1   2.858403319633756E-1  -7.972470679869468E-1   1.744892534529445E-1   2.775744266555933E-1   2.195078289477895E-1  
 1.001800450112528E10    3.343861896428040E-1   6.420973741494329E-2  -8.211857551394475E-1   2.922988741049084E-1  -7.973494222861739E-1   1.710377246368279E-1   2.793519334734801E-1   2.187703525610730E-1  
 1.001875468867217E10    3.400427590493557E-1   6.202951057548846E-2  -8.167443148850767E-1   2.958884314076406E-1  -7.979523904474750E-1   1.703288361593866E-1   2.775242107119850E-1   2.224914758168253E-1  
 1.001950487621906E10    3.362519587767778E-1   6.031682185344319E-2  -8.124276661240412E-1   2.979071381917032E-1  -7.985152831852187E-1   1.698052553238260E-1   2.780413020228860E-1   2.258422567688252E-1  
 1.002025506376594E10    3.391070623088008E-1   6.014341524254766E-2  -8.076214391153774E-1   3.031007221377242E-1  -8.033935982819164E-1   1.676684357769684E-1   2.832288332628414E-1   2.263969170775049E-1  
 1.002100525131283E10    3.401197802503038E-1   5.689178343389535E-2  -8.049419003930607E-1   3.087588233714453E-1  -8.015486558651634E-1   1.689127111671727E-1   2.792719608960712E-1   2.269774882625744E-1  
 1.002175543885972E10    3.405734378550813E-1   5.680003426452505E-2  -8.010350824608767E-1   3.104747821733293E-1  -8.035614149820540E-1   1.686038973054514E-1   2.817531013656185E-1   2.274444869234082E-1  
 1.002250562640660E10    3.423244114791128E-1   5.216469437292943E-2  -7.947333650025517E-1   3.162954119997212E-1  -8.075204638580271E-1   1.685449645106809E-1   2.841161222966550E-1   2.296513698244047E-1  
 1.002325581395349E10    3.419082889675021E-1   5.350656566407386E-2  -7.905138100340772E-1   3.179272087345005E-1  -8.065241092116893E-1   1.681619191727274E-1   2.796887520747415E-1   2.279280722493336E-1  
 1.002400600150038E10    3.446840961010997E-1   5.138568350682302E-2  -7.882566833183783E-1   3.190343310796834E-1  -8.088658547816368E-1   1.694322877382055E-1   2.818053035159925E-1   2.307469464899539E-1  
 1.002475618904726E10    3.464595517813413E-1   4.935106694454169E-2  -7.821820945636421E-1   3.219257732806990E-1  -8.088119944323460E-1   1.707116142304309E-1   2.820108697080088E-1   2.302085103548900E-1  
 1.002550637659415E10    3.470138181108881E-1   4.689268179825992E-2  -7.790750557919417E-1   3.264201100140090E-1  -8.106558147300632E-1   1.718844633137906E-1   2.811771457635680E-1   2.300807342367459E-1  
 1.002625656414104E10    3.471748048595808E-1   4.661646923512756E-2  -7.737671029002597E-1   3.267442319535005E-1  -8.124555310270286E-1   1.734638998401380E-1   2.799844396687851E-1   2.313889607328047E-1  
 1.002700675168792E10    3.480158027802539E-1   4.070728807556767E-2  -7.713607024753124E-1   3.264612869454105E-1  -8.169413103580727E-1   1.755739530036166E-1   2.818949317328233E-1   2.342957787982285E-1  
 1.002775693923481E10    3.473216697252244E-1   4.168237937205342E-2  -7.687443650187403E-1   3.310318471535779E-1  -8.151148652369804E-1   1.770182503203735E-1   2.792240573466218E-1   2.332906388513422E-1  
 1.002850712678170E10    3.459642204535252E-1   4.016072252587753E-2  -7.677544169618922E-1   3.251043597425780E-1  -8.171248586810296E-1   1.792102337219224E-1   2.784018666709668E-1   2.326353230454101E-1  
 1.002925731432858E10    3.466184787616042E-1   4.131691447374368E-2  -7.610948502514430E-1   3.310813940635723E-1  -8.175276681272714E-1   1.835995230572971E-1   2.776362676916275E-1   2.336029830367767E-1  
 1.003000750187547E10    3.461624441035276E-1   3.741653880288939E-2  -7.581545673799416E-1   3.330782385606348E-1  -8.175935322824697E-1   1.908720935065309E-1   2.742603802284482E-1   2.332421608538030E-1  
 1.003075768942236E10    3.479826156272328E-1   3.601010706783237E-2  -7.562847754455249E-1   3.287764319471392E-1  -8.187343031050034E-1   1.952514001064702E-1   2.740962466463868E-1   2.328975198828526E-1  
 1.003150787696924E10    3.478780678339783E-1   3.464841720476820E-2  -7.556443214919968E-1   3.252533964091069E-1  -8.219268864173270E-1   1.914129915829765E-1   2.695140743220171E-1   2.342194892229024E-1  
 1.003225806451613E10    3.468902245095245E-1   3.868893277390532E-2  -7.518137351703700E-1   3.279395573970476E-1  -8.189096204103399E-1   2.046570352412188E-1   2.704383900854942E-1   2.322551876873911E-1  
 1.003300825206302E10    3.441676237838098E-1   3.708683619234868E-2  -7.476310121570885E-1   3.297243118113212E-1  -8.184756666716304E-1   2.124397885519036E-1   2.707708856681702E-1   2.324054145025075E-1  
 1.003375843960990E10    3.471171424940127E-1   3.358595600016241E-2  -7.466165808962265E-1   3.255007640493528E-1  -8.185009073255518E-1   2.141053196438058E-1   2.650841401030651E-1   2.326147885455889E-1  
 1.003450862715679E10    3.465720657815928E-1   3.391273430337064E-2  -7.464081876742779E-1   3.235917873461396E-1  -8.162519732499436E-1   2.164987643302638E-1   2.634198064812084E-1   2.319752236512872E-1  
 1.003525881470368E10    3.467297771897123E-1   3.805386134804464E-2  -7.431708085088062E-1   3.225557013152484E-1  -8.144244702288893E-1   2.246195915603078E-1   2.623910794222230E-1   2.306798246911081E-1  
 1.003600900225056E10    3.483315103178496E-1   3.333478811175583E-2  -7.442028668887620E-1   3.222738887810744E-1  -8.161796970168064E-1   2.266378885457294E-1   2.603891188826257E-1   2.336561330098184E-1  
 1.003675918979745E10    3.415596308771233E-1   3.479652723793352E-2  -7.418720513076441E-1   3.210925618368674E-1  -8.144678387711978E-1   2.342488054828834E-1   2.595320472676400E-1   2.304645502443254E-1  
 1.003750937734434E10    3.455771630484969E-1   3.557041053534819E-2  -7.426324979382019E-1   3.192984219205791E-1  -8.118669274432262E-1   2.399791436636629E-1   2.549495456976411E-1   2.288201179535550E-1  
 1.003825956489122E10    3.459678368091245E-1   3.586335899499668E-2  -7.424556069176720E-1   3.189592595877956E-1  -8.104895580530324E-1   2.455595414932152E-1   2.546363840785119E-1   2.273027056940369E-1  
 1.003900975243811E10    3.449354522064314E-1   3.758035380292436E-2  -7.418896482002183E-1   3.169444132618469E-1  -8.069548426830787E-1   2.528257668274928E-1   2.534075410850767E-1   2.287193145665106E-1  
 1.003975993998500E10    3.425644088225207E-1   3.982949466647964E-2  -7.441558867251138E-1   3.160537386750317E-1  -8.062004035433124E-1   2.558530337729067E-1   2.493539070185631E-1   2.286028717206478E-1  
 1.004051012753188E10    3.448989739500571E-1   3.956598723722546E-2  -7.444849442683854E-1   3.132661536524600E-1  -8.043019526365351E-1   2.634575838644579E-1   2.459874274955344E-1   2.261282666346358E-1  
 1.004126031507877E10    3.456935428979804E-1   3.736339592377223E-2  -7.467986569474396E-1   3.087580818525353E-1  -8.011200581584341E-1   2.656671918692309E-1   2.443445801950197E-1   2.239459580612917E-1  
 1.004201050262566E10    3.439279575011027E-1   4.019407702976482E-2  -7.445755307201257E-1   3.091858084460966E-1  -7.981141072827919E-1   2.722536797518334E-1   2.457859499990522E-1   2.231293818986729E-1  
 1.004276069017254E10    3.423955045613686E-1   4.103527791392707E-2  -7.470964538203578E-1   3.084732175244114E-1  -7.977228863898256E-1   2.780932624014539E-1   2.434297992025669E-1   2.207090772180438E-1  
 1.004351087771943E10    3.444289962440514E-1   4.350521961587645E-2  -7.485203938903803E-1   3.077284435686490E-1  -7.954452296520111E-1   2.844863830159763E-1   2.436348325346922E-1   2.200940066504394E-1  
 1.004426106526632E10    3.432809021483502E-1   4.270110060736705E-2  -7.500247390950765E-1   3.061900106978838E-1  -7.911389252412596E-1   2.847754803598977E-1   2.421760016570472E-1   2.173338034558750E-1  
 1.004501125281320E10    3.419291756658962E-1   4.536785312822922E-2  -7.514105856832065E-1   3.071767106742183E-1  -7.889219737313360E-1   2.945507442949457E-1   2.434039438238469E-1   2.160885302265117E-1  
 1.004576144036009E10    3.416768440153316E-1   4.469883633891458E-2  -7.570445815375528E-1   3.030139685487757E-1  -7.882469854368341E-1   2.977330793514553E-1   2.408222071579485E-1   2.151386896056086E-1  
 1.004651162790698E10    3.429450500513587E-1   4.750692311622284E-2  -7.586192813571787E-1   2.973556687087018E-1  -7.860328656969216E-1   2.994094045663518E-1   2.406789312428293E-1   2.129674047631366E-1  
 1.004726181545386E10    3.458710101597717E-1   4.496283903783214E-2  -7.622263610829080E-1   2.969051177066833E-1  -7.811506187142248E-1   3.005998585531369E-1   2.380445513221057E-1   2.113307544069306E-1  
 1.004801200300075E10    3.399396823672552E-1   4.620197174691200E-2  -7.653912380311170E-1   2.975686885200581E-1  -7.782770880693528E-1   3.065866962555826E-1   2.372486347243888E-1   2.077451407529616E-1  
 1.004876219054764E10    3.434180995315520E-1   4.165744382575165E-2  -7.667116572126158E-1   2.987664812764791E-1  -7.751242156051004E-1   3.101172296106703E-1   2.398166993591901E-1   2.062934741239370E-1  
 1.004951237809452E10    3.431217669412536E-1   4.523967053648548E-2  -7.704645691323211E-1   2.926309604707632E-1  -7.765885095206235E-1   3.083579933083463E-1   2.387966846399330E-1   2.017831022817369E-1  
 1.005026256564141E10    3.426076380601328E-1   4.509800899522886E-2  -7.713255428110439E-1   2.968729933008549E-1  -7.709954062461737E-1   3.182884258144832E-1   2.411298575477684E-1   2.010691158820475E-1  
 1.005101275318830E10    3.429685675815839E-1   5.075365314587857E-2  -7.756369320279385E-1   2.943927298250497E-1  -7.687654763287128E-1   3.205095582017059E-1   2.396599314198359E-1   2.006096758700336E-1  
 1.005176294073518E10    3.413282348826050E-1   4.519487980026448E-2  -7.782774971271128E-1   2.939140834600059E-1  -7.675775967325428E-1   3.200967491528807E-1   2.429100982933705E-1   1.959540719096649E-1  
 1.005251312828207E10    3.404787636932946E-1   4.708314038717736E-2  -7.771633969184264E-1   2.971522441662163E-1  -7.642159774435727E-1   3.229009636892894E-1   2.435123139914920E-1   1.926082134521224E-1  
 1.005326331582896E10    3.400388670198799E-1   4.620831743675344E-2  -7.835565285944051E-1   2.953312528200063E-1  -7.629087526788102E-1   3.225783715261961E-1   2.437369792081252E-1   1.919766168377660E-1  
 1.005401350337584E10    3.389977379839347E-1   4.742225375901098E-2  -7.850854171376502E-1   2.964952150969584E-1  -7.606394731020152E-1   3.260188075536099E-1   2.489209716129663E-1   1.904302656897007E-1  
 1.005476369092273E10    3.408457668137441E-1   4.810208023273516E-2  -7.868155134631838E-1   2.982010255662367E-1  -7.603836210109081E-1   3.263406166031189E-1   2.465596825786131E-1   1.861245717650491E-1  
 1.005551387846962E10    3.398325997158195E-1   4.599784864537394E-2  -7.932271004312884E-1   2.979286688448596E-1  -7.587926158970811E-1   3.251796294922525E-1   2.476810379025710E-1   1.829193134174563E-1  
 1.005626406601650E10    3.390708842968688E-1   4.962887210085475E-2  -7.938605334117989E-1   3.001549228641344E-1  -7.579585376280400E-1   3.260420200087164E-1   2.457591528570429E-1   1.791596573743653E-1  
 1.005701425356339E10    3.360667838736892E-1   4.761147684890035E-2  -7.939675517762955E-1   3.028763452329928E-1  -7.562168938310119E-1   3.249815487877134E-1   2.516192225203024E-1   1.791982182172457E-1  
 1.005776444111028E10    3.371229531422774E-1   4.387816396499991E-2  -7.973366566225880E-1   3.052008608241236E-1  -7.571638715736386E-1   3.262513734463639E-1   2.528909425606576E-1   1.790813020487730E-1  
 1.005851462865716E10    3.379173623977230E-1   4.264753797205129E-2  -7.979162443563721E-1   3.095694278231839E-1  -7.533728750581812E-1   3.266586479111214E-1   2.539683404064274E-1   1.757611572086736E-1  
 1.005926481620405E10    3.380376660524464E-1   4.489394185302691E-2  -8.019091046242021E-1   3.100986038589254E-1  -7.558724976628130E-1   3.255228963538876E-1   2.536878160809670E-1   1.725336165440083E-1  
 1.006001500375094E10    3.369386728055505E-1   4.656275092241415E-2  -8.029584972689108E-1   3.112504701838295E-1  -7.543642151591350E-1   3.248334697856847E-1   2.550701617293743E-1   1.754051528274115E-1  
 1.006076519129783E10    3.374135039546407E-1   4.454137362073134E-2  -8.018157451401793E-1   3.165983508635599E-1  -7.528623976239109E-1   3.221922890180794E-1   2.570402030975404E-1   1.668384410996754E-1  
 1.006151537884471E10    3.358862825827181E-1   4.624156674468357E-2  -8.057981560700472E-1   3.183626479031617E-1  -7.533323027779340E-1   3.203947349372733E-1   2.600325481420419E-1   1.701595299169313E-1  
 1.006226556639160E10    3.354060035966792E-1   4.292418695913325E-2  -8.041723550543810E-1   3.235139544987778E-1  -7.547745608242237E-1   3.191121100682357E-1   2.624413248295826E-1   1.676921296679015E-1  
 1.006301575393848E10    3.360878898832209E-1   4.385341141844242E-2  -8.046514689394689E-1   3.272192025284652E-1  -7.538191852802947E-1   3.172424638649480E-1   2.662425288970244E-1   1.669662118759940E-1  
 1.006376594148537E10    3.387594919038771E-1   4.404418298357672E-2  -8.046847819051012E-1   3.278774078764836E-1  -7.543323265366320E-1   3.171420314275840E-1   2.689548191050649E-1   1.661144061981595E-1  
 1.006451612903226E10    3.361462852724836E-1   4.319644732343053E-2  -8.033286553394110E-1   3.318833949715975E-1  -7.545077419692522E-1   3.138878252785409E-1   2.704026451763918E-1   1.661080014353540E-1  
 1.006526631657915E10    3.361918586012172E-1   4.251454105456785E-2  -8.028598911443908E-1   3.370337733263693E-1  -7.576484345651500E-1   3.110693736667118E-1   2.732096237593803E-1   1.636899844206116E-1  
 1.006601650412603E10    3.354658411036087E-1   4.187346782874590E-2  -8.006717766341339E-1   3.391744845407270E-1  -7.592079098065110E-1   3.098074878628063E-1   2.756690301185397E-1   1.644137254583095E-1  
 1.006676669167292E10    3.407874131158853E-1   4.027967254015922E-2  -8.003276133384909E-1   3.448262343644804E-1  -7.571104850677650E-1   3.086262122591228E-1   2.773168434908769E-1   1.668337497313825E-1  
 1.006751687921981E10    3.394755386552754E-1   3.932262695392839E-2  -7.990374203260039E-1   3.490437931520007E-1  -7.617873298991742E-1   3.054072613314528E-1   2.795926286448527E-1   1.653246741393125E-1  
 1.006826706676669E10    3.424220603101499E-1   3.565255790296053E-2  -7.956254185136551E-1   3.512227840301032E-1  -7.605413530965575E-1   3.034372630621845E-1   2.876537294418237E-1   1.626252734521304E-1  
 1.006901725431358E10    3.421462060371358E-1   3.639892451340493E-2  -7.947681017990295E-1   3.538278242476431E-1  -7.630622669407697E-1   3.013664085168733E-1   2.871567960831875E-1   1.673836636800454E-1  
 1.006976744186047E10    3.403094079538557E-1   3.617080773751316E-2  -7.903592893295561E-1   3.562071997392395E-1  -7.654744173026054E-1   3.001815409830010E-1   2.875358424852139E-1   1.665036116662354E-1  
