#  HZ   S   RI   R     50.0 
! Rohde & Schwarz ZVL13 2Ports - Version 3.31 - 1303.6509k13 SN: 101088
! Date: 2023-03-03 14:31:30
! Data & Calibration Information:
! Trc2:S21(TOSM)
! 
! 
! 
 4.000000000000000E9    -7.156836489710932E-1   6.198044888583916E-3  
 4.000750187546887E9    -7.129987063887655E-1   7.195678776935307E-3  
 4.001500375093773E9    -7.126073171603816E-1   7.107827495629028E-3  
 4.002250562640660E9    -7.104801894819898E-1   1.014627253680411E-2  
 4.003000750187547E9    -7.091478532954749E-1   8.498681414448463E-3  
 4.003750937734434E9    -7.071003081255162E-1   8.523953142498139E-3  
 4.004501125281320E9    -7.057529914104994E-1   8.458758004664963E-3  
 4.005251312828207E9    -7.045961868840601E-1   8.263997116973145E-3  
 4.006001500375094E9    -7.035841892056004E-1   8.137206170672061E-3  
 4.006751687921980E9    -7.016890327126307E-1   7.613899674554739E-3  
 4.007501875468867E9    -7.006267224758236E-1   7.939115069108400E-3  
 4.008252063015754E9    -6.996957522093789E-1   8.026312293872611E-3  
 4.009002250562641E9    -6.986981542331728E-1   6.868067938857859E-3  
 4.009752438109528E9    -6.982391076226316E-1   6.211180635915079E-3  
 4.010502625656414E9    -6.969424649659854E-1   5.924351843165379E-3  
 4.011252813203301E9    -6.967230763762355E-1   4.952358303938607E-3  
 4.012003000750187E9    -6.956818166283402E-1   4.579603354080354E-3  
 4.012753188297074E9    -6.958468673906469E-1   4.258004058906840E-3  
 4.013503375843961E9    -6.955919921680460E-1   4.406749185310804E-3  
 4.014253563390848E9    -6.960834125228573E-1   2.499044151364442E-3  
 4.015003750937735E9    -6.957609550390176E-1   1.707882089002412E-3  
 4.015753938484621E9    -6.967457472664981E-1   1.507099383047315E-3  
 4.016504126031508E9    -6.971197634156728E-1   7.183365138327574E-4  
 4.017254313578394E9    -6.977933075515426E-1  -1.964281719373391E-4  
 4.018004501125281E9    -6.985314553674031E-1  -5.817563667073328E-4  
 4.018754688672168E9    -6.994209919211358E-1  -9.525318809868062E-4  
 4.019504876219055E9    -7.012712775928939E-1  -1.257679720974612E-3  
 4.020255063765942E9    -7.020360677802570E-1  -9.351490186697841E-4  
 4.021005251312828E9    -7.033004739091167E-1  -8.068333098924192E-4  
 4.021755438859715E9    -7.054286168124294E-1  -1.434060523941122E-3  
 4.022505626406601E9    -7.068952892466929E-1  -4.536611172752835E-5  
 4.023255813953488E9    -7.081517613423055E-1   1.047098883415978E-3  
 4.024006001500375E9    -7.110907466943304E-1   1.808544829359714E-3  
 4.024756189047262E9    -7.119523052573196E-1   2.548742623833745E-3  
 4.025506376594149E9    -7.139130450092681E-1   3.345948979586200E-3  
 4.026256564141035E9    -7.151751269613685E-1   4.496475645439417E-3  
 4.027006751687922E9    -7.176414251916354E-1   5.653551312165910E-3  
 4.027756939234809E9    -7.197235737354751E-1   8.138493860175119E-3  
 4.028507126781695E9    -7.210505701511645E-1   1.048035778999505E-2  
 4.029257314328582E9    -7.227569560088024E-1   1.193630999014044E-2  
 4.030007501875469E9    -7.236223692190665E-1   1.495870405737866E-2  
 4.030757689422356E9    -7.249210990303904E-1   1.728698859826150E-2  
 4.031507876969242E9    -7.267789768303329E-1   1.942539383923952E-2  
 4.032258064516129E9    -7.273617583760507E-1   2.213940144809491E-2  
 4.033008252063016E9    -7.286682086281278E-1   2.630684846874771E-2  
 4.033758439609902E9    -7.297511117491921E-1   2.657218259693567E-2  
 4.034508627156789E9    -7.300681422298085E-1   2.914083099508863E-2  
 4.035258814703676E9    -7.306218304410974E-1   3.465471545801966E-2  
 4.036009002250563E9    -7.315928284597452E-1   3.574324705522222E-2  
 4.036759189797450E9    -7.311486857816762E-1   4.044052873352234E-2  
 4.037509377344336E9    -7.319106246561244E-1   4.620817037031489E-2  
 4.038259564891223E9    -7.311924867445711E-1   4.827196121880446E-2  
 4.039009752438109E9    -7.306719369854340E-1   5.003005668098695E-2  
 4.039759939984996E9    -7.304009553385129E-1   5.273227258892223E-2  
 4.040510127531883E9    -7.304056960203896E-1   5.513068138555718E-2  
 4.041260315078770E9    -7.290763191246042E-1   5.812703152119800E-2  
 4.042010502625657E9    -7.284848630987066E-1   6.095299836845999E-2  
 4.042760690172543E9    -7.269730574897606E-1   6.353744233127427E-2  
 4.043510877719430E9    -7.263815724403380E-1   6.662257953731349E-2  
 4.044261065266316E9    -7.254323461216156E-1   6.911577970953563E-2  
 4.045011252813203E9    -7.236627881989410E-1   7.180179784644628E-2  
 4.045761440360090E9    -7.228741820566000E-1   7.303259149085591E-2  
 4.046511627906977E9    -7.212235671316655E-1   7.577222290351383E-2  
 4.047261815453864E9    -7.196773984218109E-1   7.725700364091255E-2  
 4.048012003000750E9    -7.181984991589165E-1   7.895948615528359E-2  
 4.048762190547637E9    -7.162116283654716E-1   8.101666468644511E-2  
 4.049512378094523E9    -7.141296378111245E-1   8.499242773646475E-2  
 4.050262565641410E9    -7.130393507271504E-1   8.537977513941979E-2  
 4.051012753188297E9    -7.121474875248769E-1   8.647523823686401E-2  
 4.051762940735184E9    -7.101219607324637E-1   8.650538757045444E-2  
 4.052513128282071E9    -7.084160455704235E-1   8.818587219221750E-2  
 4.053263315828957E9    -7.068943451494578E-1   8.899638100319564E-2  
 4.054013503375844E9    -7.057142031125648E-1   8.989239969963732E-2  
 4.054763690922730E9    -7.038177160214348E-1   9.189554783508458E-2  
 4.055513878469617E9    -7.027526338487650E-1   9.167600073597498E-2  
 4.056264066016504E9    -7.007877184660635E-1   9.200460488066010E-2  
 4.057014253563391E9    -6.992258515461071E-1   9.136157610048977E-2  
 4.057764441110278E9    -6.982624806610016E-1   9.279504667091787E-2  
 4.058514628657164E9    -6.974312919076753E-1   9.289091687433812E-2  
 4.059264816204051E9    -6.962209846390066E-1   9.287599955734360E-2  
 4.060015003750938E9    -6.953170697237966E-1   9.323270988875503E-2  
 4.060765191297824E9    -6.936224286407646E-1   9.303785243362821E-2  
 4.061515378844711E9    -6.927593186005240E-1   9.351632758835175E-2  
 4.062265566391598E9    -6.933802484914443E-1   9.253576507721226E-2  
 4.063015753938485E9    -6.918419966952570E-1   9.217595160456354E-2  
 4.063765941485371E9    -6.911743341441480E-1   9.200108461680293E-2  
 4.064516129032258E9    -6.911026384884508E-1   9.171532301390965E-2  
 4.065266316579145E9    -6.906060957764262E-1   9.150204945866071E-2  
 4.066016504126031E9    -6.899491489785272E-1   9.149505646829488E-2  
 4.066766691672918E9    -6.904359580225773E-1   9.103898888020955E-2  
 4.067516879219805E9    -6.908085350058590E-1   9.116726879078353E-2  
 4.068267066766692E9    -6.901703118962653E-1   9.109982960905083E-2  
 4.069017254313579E9    -6.910444641110689E-1   8.945066744893848E-2  
 4.069767441860465E9    -6.912331145743936E-1   8.968922333011742E-2  
 4.070517629407352E9    -6.918261924977240E-1   8.949775005516171E-2  
 4.071267816954238E9    -6.926534237492339E-1   9.006145264484314E-2  
 4.072018004501125E9    -6.935255361119148E-1   8.918911345359167E-2  
 4.072768192048012E9    -6.943739345057696E-1   8.992044836472890E-2  
 4.073518379594899E9    -6.949878674170874E-1   8.937744542321516E-2  
 4.074268567141786E9    -6.966403385954905E-1   9.030731024758125E-2  
 4.075018754688672E9    -6.976534633051498E-1   9.044493118020706E-2  
 4.075768942235559E9    -6.991073547818488E-1   9.163768029226740E-2  
 4.076519129782445E9    -6.999817647313692E-1   9.220586690646279E-2  
 4.077269317329332E9    -7.015392293844025E-1   9.314734653406992E-2  
 4.078019504876219E9    -7.020861720383045E-1   9.393410808196082E-2  
 4.078769692423106E9    -7.032803695557393E-1   9.472887330652308E-2  
 4.079519879969993E9    -7.045608898817758E-1   9.699374012887420E-2  
 4.080270067516879E9    -7.058112113352055E-1   9.870616165320692E-2  
 4.081020255063766E9    -7.073745985382516E-1   9.959323579007001E-2  
 4.081770442610652E9    -7.074274192394374E-1   1.021935520774368E-1  
 4.082520630157539E9    -7.090761501592342E-1   1.046933815599991E-1  
 4.083270817704426E9    -7.102672661868353E-1   1.065629791272765E-1  
 4.084021005251313E9    -7.101893654786304E-1   1.083477326113794E-1  
 4.084771192798200E9    -7.121380763158169E-1   1.105685337531936E-1  
 4.085521380345086E9    -7.120475017785294E-1   1.133995902147038E-1  
 4.086271567891973E9    -7.118514456246876E-1   1.152987336348057E-1  
 4.087021755438860E9    -7.125942641217092E-1   1.177183264977315E-1  
 4.087771942985746E9    -7.129201787529413E-1   1.208893674930094E-1  
 4.088522130532633E9    -7.131494788959385E-1   1.232802714312568E-1  
 4.089272318079520E9    -7.125546800912308E-1   1.260856817928849E-1  
 4.090022505626407E9    -7.127391615315225E-1   1.290996656913898E-1  
 4.090772693173293E9    -7.121496949832303E-1   1.313301402912718E-1  
 4.091522880720180E9    -7.115680167371931E-1   1.352066469022098E-1  
 4.092273068267067E9    -7.109228822166309E-1   1.364424664611668E-1  
 4.093023255813953E9    -7.089183829207105E-1   1.397035794548063E-1  
 4.093773443360840E9    -7.087309929031831E-1   1.421077124834776E-1  
 4.094523630907727E9    -7.077881369163422E-1   1.445609917918031E-1  
 4.095273818454614E9    -7.066523672387266E-1   1.469003316286091E-1  
 4.096024006001500E9    -7.053163793035855E-1   1.493827387934817E-1  
 4.096774193548387E9    -7.038222047071888E-1   1.513744580006255E-1  
 4.097524381095274E9    -7.021228706519876E-1   1.536951944841802E-1  
 4.098274568642160E9    -7.009816813184642E-1   1.560076099182839E-1  
 4.099024756189047E9    -6.987754605046956E-1   1.574525317084307E-1  
 4.099774943735934E9    -6.975316355834221E-1   1.586643404452956E-1  
 4.100525131282821E9    -6.953421371843178E-1   1.605452643145073E-1  
 4.101275318829708E9    -6.946222199595342E-1   1.621875717522271E-1  
 4.102025506376594E9    -6.923904753140543E-1   1.636465557884489E-1  
 4.102775693923481E9    -6.908628149403309E-1   1.650597223094243E-1  
 4.103525881470367E9    -6.893317409310583E-1   1.664229338532469E-1  
 4.104276069017254E9    -6.881434817744031E-1   1.664230767752329E-1  
 4.105026256564141E9    -6.849168166683357E-1   1.675083008343805E-1  
 4.105776444111028E9    -6.850074458218901E-1   1.687331650241493E-1  
 4.106526631657915E9    -6.829232248628064E-1   1.698638833848906E-1  
 4.107276819204801E9    -6.816989969912923E-1   1.703407387700873E-1  
 4.108027006751688E9    -6.796771454379299E-1   1.713009675331918E-1  
 4.108777194298574E9    -6.785541746978606E-1   1.721739723637893E-1  
 4.109527381845461E9    -6.767879413851518E-1   1.718084194301538E-1  
 4.110277569392348E9    -6.752143762935839E-1   1.717815436030333E-1  
 4.111027756939235E9    -6.750940379320300E-1   1.725676444913324E-1  
 4.111777944486122E9    -6.740762656864119E-1   1.728404411276814E-1  
 4.112528132033008E9    -6.729012078935712E-1   1.722177133461597E-1  
 4.113278319579895E9    -6.719611664647722E-1   1.732749723197456E-1  
 4.114028507126782E9    -6.705391272433816E-1   1.730346143300768E-1  
 4.114778694673668E9    -6.704806858753051E-1   1.720827422854287E-1  
 4.115528882220555E9    -6.694936996838207E-1   1.720688246518022E-1  
 4.116279069767442E9    -6.702166310626607E-1   1.726486692753440E-1  
 4.117029257314329E9    -6.691744409996171E-1   1.705704226632712E-1  
 4.117779444861215E9    -6.694835563982838E-1   1.715987186828229E-1  
 4.118529632408102E9    -6.688274837277705E-1   1.723819656029473E-1  
 4.119279819954989E9    -6.695774895466378E-1   1.704356904274701E-1  
 4.120030007501875E9    -6.697678901011245E-1   1.714987431913194E-1  
 4.120780195048762E9    -6.691027331601264E-1   1.733650516634831E-1  
 4.121530382595649E9    -6.700897187085764E-1   1.726644745651881E-1  
 4.122280570142536E9    -6.708541861708107E-1   1.720011574611326E-1  
 4.123030757689422E9    -6.719944522479695E-1   1.713333550833399E-1  
 4.123780945236309E9    -6.727211323891960E-1   1.712563835662425E-1  
 4.124531132783196E9    -6.733849080962098E-1   1.721556626715249E-1  
 4.125281320330082E9    -6.744470018586759E-1   1.729417444159578E-1  
 4.126031507876969E9    -6.750667098418283E-1   1.735802457000842E-1  
 4.126781695423856E9    -6.764096756903695E-1   1.735495373309616E-1  
 4.127531882970743E9    -6.770244446505674E-1   1.749540572130990E-1  
 4.128282070517630E9    -6.787441254666645E-1   1.758756856069483E-1  
 4.129032258064516E9    -6.794123978002040E-1   1.775343440234408E-1  
 4.129782445611403E9    -6.807096922022079E-1   1.768570022868636E-1  
 4.130532633158289E9    -6.820054633363749E-1   1.791691636948146E-1  
 4.131282820705176E9    -6.828371641756843E-1   1.806203121184390E-1  
 4.132033008252063E9    -6.840960560114890E-1   1.828049930660606E-1  
 4.132783195798950E9    -6.845904396426132E-1   1.846751899231843E-1  
 4.133533383345837E9    -6.859126181277656E-1   1.868910280109032E-1  
 4.134283570892723E9    -6.869750469545906E-1   1.876058230066539E-1  
 4.135033758439610E9    -6.881499976651014E-1   1.896427308864809E-1  
 4.135783945986496E9    -6.885057597679413E-1   1.921015317952587E-1  
 4.136534133533383E9    -6.892744188769834E-1   1.940516012939668E-1  
 4.137284321080270E9    -6.897262782709436E-1   1.956502668173479E-1  
 4.138034508627157E9    -6.889104152887197E-1   1.993002854221554E-1  
 4.138784696174044E9    -6.893172984136626E-1   2.011499607590096E-1  
 4.139534883720930E9    -6.889206286523746E-1   2.050593242906448E-1  
 4.140285071267817E9    -6.897315224379632E-1   2.064103208442997E-1  
 4.141035258814704E9    -6.893515638126861E-1   2.086489132262942E-1  
 4.141785446361590E9    -6.893940223703786E-1   2.107785028270501E-1  
 4.142535633908477E9    -6.884465442374912E-1   2.144390747384168E-1  
 4.143285821455364E9    -6.871199892598504E-1   2.173171362289950E-1  
 4.144036009002251E9    -6.867165096617934E-1   2.193417859130888E-1  
 4.144786196549137E9    -6.856570302280373E-1   2.226592515902133E-1  
 4.145536384096024E9    -6.838871816468690E-1   2.242503962672816E-1  
 4.146286571642911E9    -6.830072679147516E-1   2.263991957734626E-1  
 4.147036759189797E9    -6.819857339113267E-1   2.294512224974761E-1  
 4.147786946736684E9    -6.795185177008223E-1   2.313264634811027E-1  
 4.148537134283571E9    -6.786044096241730E-1   2.336153947955961E-1  
 4.149287321830458E9    -6.762793656322862E-1   2.355787986484654E-1  
 4.150037509377344E9    -6.740516390938665E-1   2.366909015920876E-1  
 4.150787696924231E9    -6.724222715476430E-1   2.384939759930817E-1  
 4.151537884471118E9    -6.710409799463588E-1   2.402102338939083E-1  
 4.152288072018004E9    -6.685352599042818E-1   2.419508740625018E-1  
 4.153038259564891E9    -6.665614556141850E-1   2.432266451346548E-1  
 4.153788447111778E9    -6.643642368501117E-1   2.439590317582365E-1  
 4.154538634658665E9    -6.621448566812673E-1   2.455608846876283E-1  
 4.155288822205551E9    -6.606452101666691E-1   2.455221200383827E-1  
 4.156039009752438E9    -6.587998242742893E-1   2.470384145276050E-1  
 4.156789197299325E9    -6.563425823970102E-1   2.493599172155985E-1  
 4.157539384846211E9    -6.551092964016002E-1   2.487784724211472E-1  
 4.158289572393098E9    -6.529566070636517E-1   2.497967526314410E-1  
 4.159039759939985E9    -6.507901508462477E-1   2.501565793495772E-1  
 4.159789947486872E9    -6.488892531776899E-1   2.507509644600356E-1  
 4.160540135033759E9    -6.474347441292748E-1   2.502141220771794E-1  
 4.161290322580645E9    -6.456675733327741E-1   2.507124227946960E-1  
 4.162040510127532E9    -6.433299468258440E-1   2.502239052834351E-1  
 4.162790697674418E9    -6.421461346930921E-1   2.503949909894978E-1  
 4.163540885221305E9    -6.416360495645850E-1   2.501752471984564E-1  
 4.164291072768192E9    -6.397032655007847E-1   2.496815295113380E-1  
 4.165041260315079E9    -6.388001957527947E-1   2.497096429821674E-1  
 4.165791447861966E9    -6.372927596435694E-1   2.487965211388449E-1  
 4.166541635408852E9    -6.360236079581485E-1   2.487360439950166E-1  
 4.167291822955739E9    -6.349956204628970E-1   2.484392445362151E-1  
 4.168042010502626E9    -6.352807224831599E-1   2.484903436929740E-1  
 4.168792198049512E9    -6.345495268823459E-1   2.483584014032092E-1  
 4.169542385596399E9    -6.337808675250687E-1   2.476725276633249E-1  
 4.170292573143286E9    -6.339789381801423E-1   2.467838869160813E-1  
 4.171042760690173E9    -6.338340435290010E-1   2.461746134421499E-1  
 4.171792948237059E9    -6.336479552809248E-1   2.459834806820497E-1  
 4.172543135783946E9    -6.340627603962261E-1   2.448276786738947E-1  
 4.173293323330833E9    -6.339450516831450E-1   2.452397699520135E-1  
 4.174043510877719E9    -6.351086373019359E-1   2.447311784649301E-1  
 4.174793698424606E9    -6.354244041383311E-1   2.446101120472324E-1  
 4.175543885971493E9    -6.355527994649727E-1   2.455890927866204E-1  
 4.176294073518380E9    -6.366439741763365E-1   2.450006054184004E-1  
 4.177044261065266E9    -6.381656321133583E-1   2.450118890483155E-1  
 4.177794448612153E9    -6.384358640709698E-1   2.453677902778053E-1  
 4.178544636159040E9    -6.400364174426578E-1   2.461325728957180E-1  
 4.179294823705926E9    -6.410356269937501E-1   2.466115240551491E-1  
 4.180045011252813E9    -6.416975763838869E-1   2.479762106523989E-1  
 4.180795198799700E9    -6.419879839099287E-1   2.482227011220987E-1  
 4.181545386346587E9    -6.444217202976958E-1   2.486929179961673E-1  
 4.182295573893473E9    -6.457077451516635E-1   2.504072755933505E-1  
 4.183045761440360E9    -6.475944697925629E-1   2.512987532863266E-1  
 4.183795948987247E9    -6.481862428883682E-1   2.525051476857394E-1  
 4.184546136534133E9    -6.497914604789358E-1   2.545444962475442E-1  
 4.185296324081020E9    -6.497174821530427E-1   2.565999913299153E-1  
 4.186046511627907E9    -6.515119069864302E-1   2.587039094788649E-1  
 4.186796699174794E9    -6.525435551496602E-1   2.608543864225487E-1  
 4.187546886721681E9    -6.542803315260536E-1   2.628967362651906E-1  
 4.188297074268567E9    -6.542493107472108E-1   2.647320336274649E-1  
 4.189047261815454E9    -6.549058458972745E-1   2.675085488697688E-1  
 4.189797449362341E9    -6.557361207666882E-1   2.706714475861036E-1  
 4.190547636909227E9    -6.560884641034348E-1   2.730672667024781E-1  
 4.191297824456114E9    -6.559448852766709E-1   2.747819531719155E-1  
 4.192048012003001E9    -6.565289366880791E-1   2.776456661067315E-1  
 4.192798199549888E9    -6.560536374439996E-1   2.802853391842409E-1  
 4.193548387096774E9    -6.565894511828185E-1   2.837521086827606E-1  
 4.194298574643661E9    -6.561338095343561E-1   2.866059046882634E-1  
 4.195048762190548E9    -6.557132584494586E-1   2.886782745890741E-1  
 4.195798949737434E9    -6.550886808034536E-1   2.919412231478848E-1  
 4.196549137284321E9    -6.539316369374745E-1   2.944858632010538E-1  
 4.197299324831208E9    -6.534854393971521E-1   2.973895980620572E-1  
 4.198049512378095E9    -6.514901704868971E-1   3.007941144408893E-1  
 4.198799699924981E9    -6.509367243191863E-1   3.027791577890048E-1  
 4.199549887471868E9    -6.490477076337343E-1   3.056454309252627E-1  
 4.200300075018755E9    -6.472278639702970E-1   3.067806495220546E-1  
 4.201050262565641E9    -6.450083533556085E-1   3.107317035749516E-1  
 4.201800450112528E9    -6.431896555289508E-1   3.132376348396154E-1  
 4.202550637659415E9    -6.422418065533018E-1   3.134456154468467E-1  
 4.203300825206302E9    -6.397645182831022E-1   3.154647883091206E-1  
 4.204051012753188E9    -6.381866208153397E-1   3.169427993429730E-1  
 4.204801200300075E9    -6.355956878905276E-1   3.196124863640894E-1  
 4.205551387846962E9    -6.338311766414113E-1   3.211286631570031E-1  
 4.206301575393848E9    -6.316335851257757E-1   3.215074791949853E-1  
 4.207051762940735E9    -6.283486945873363E-1   3.233142417474990E-1  
 4.207801950487622E9    -6.260483421515427E-1   3.242606561772911E-1  
 4.208552138034509E9    -6.242931658271992E-1   3.247999547392236E-1  
