#  HZ   S   RI   R     50.0 
! Rohde & Schwarz ZVL13 2Ports - Version 3.31 - 1303.6509k13 SN: 101088
! Date: 2023-03-03 14:40:39
! Data & Calibration Information:
! Trc2:S21(TOSM)
! 
! 
! 
 4.000000000000000E9    -7.168581733116101E-1   1.442090065218508E-2  
 4.000750187546887E9    -7.143472921573361E-1   1.503545254934579E-2  
 4.001500375093773E9    -7.136906186027366E-1   1.490071274153888E-2  
 4.002250562640660E9    -7.114006623742408E-1   1.820466850697994E-2  
 4.003000750187547E9    -7.102811827344792E-1   1.670895986072719E-2  
 4.003750937734434E9    -7.083445711934996E-1   1.664512433204800E-2  
 4.004501125281320E9    -7.068110416702672E-1   1.629756638221443E-2  
 4.005251312828207E9    -7.057101762616317E-1   1.663517879135907E-2  
 4.006001500375094E9    -7.047418519266080E-1   1.627118869777769E-2  
 4.006751687921980E9    -7.028682931206383E-1   1.582507393695415E-2  
 4.007501875468867E9    -7.019137646534776E-1   1.595675450563431E-2  
 4.008252063015754E9    -7.010135317013603E-1   1.588175521418452E-2  
 4.009002250562641E9    -6.998624424176466E-1   1.490722789242864E-2  
 4.009752438109528E9    -6.995937973862123E-1   1.419835770688951E-2  
 4.010502625656414E9    -6.981090518630435E-1   1.368957298062742E-2  
 4.011252813203301E9    -6.980144616059156E-1   1.305061782430858E-2  
 4.012003000750187E9    -6.969473327617651E-1   1.286384246405214E-2  
 4.012753188297074E9    -6.971049294612526E-1   1.194570627156645E-2  
 4.013503375843961E9    -6.968310325644992E-1   1.172130499314517E-2  
 4.014253563390848E9    -6.975018389365791E-1   9.973676564171911E-3  
 4.015003750937735E9    -6.971379572272046E-1   9.585482549853622E-3  
 4.015753938484621E9    -6.981452303802981E-1   9.195280836895109E-3  
 4.016504126031508E9    -6.986924979970837E-1   8.650526795536280E-3  
 4.017254313578394E9    -6.993889559549635E-1   7.987263529095800E-3  
 4.018004501125281E9    -7.001233721338441E-1   7.654939583502710E-3  
 4.018754688672168E9    -7.010358617420511E-1   6.742189815267922E-3  
 4.019504876219055E9    -7.029119770965013E-1   6.808652791194619E-3  
 4.020255063765942E9    -7.038516067534953E-1   7.072368520777674E-3  
 4.021005251312828E9    -7.050125972435325E-1   7.068978976923972E-3  
 4.021755438859715E9    -7.071192690031165E-1   6.800018678884954E-3  
 4.022505626406601E9    -7.086861281730307E-1   8.449308750219644E-3  
 4.023255813953488E9    -7.097705096265611E-1   9.203401034697892E-3  
 4.024006001500375E9    -7.129827351724010E-1   1.019264890905470E-2  
 4.024756189047262E9    -7.135843596361797E-1   1.063376860786230E-2  
 4.025506376594149E9    -7.153904567411251E-1   1.181324525084347E-2  
 4.026256564141035E9    -7.169760712043695E-1   1.278366607055068E-2  
 4.027006751687922E9    -7.192918122828665E-1   1.414290201850236E-2  
 4.027756939234809E9    -7.212092517653728E-1   1.645876501593739E-2  
 4.028507126781695E9    -7.224848729393839E-1   1.895442581176758E-2  
 4.029257314328582E9    -7.244077727883150E-1   2.012326558120549E-2  
 4.030007501875469E9    -7.252119092045938E-1   2.333453463949263E-2  
 4.030757689422356E9    -7.262864248722515E-1   2.567599468305707E-2  
 4.031507876969242E9    -7.281528787400832E-1   2.826216324418784E-2  
 4.032258064516129E9    -7.288783219159837E-1   3.088438851200045E-2  
 4.033008252063016E9    -7.298504280253388E-1   3.477700738236308E-2  
 4.033758439609902E9    -7.310656161697953E-1   3.530419052019716E-2  
 4.034508627156789E9    -7.310273799361486E-1   3.818881538510323E-2  
 4.035258814703676E9    -7.318272648683527E-1   4.340510286018253E-2  
 4.036009002250563E9    -7.327103559167508E-1   4.436677895858884E-2  
 4.036759189797450E9    -7.321451459675051E-1   4.939681578800084E-2  
 4.037509377344336E9    -7.328764424937043E-1   5.537398263812067E-2  
 4.038259564891223E9    -7.319850252827919E-1   5.641872274130586E-2  
 4.039009752438109E9    -7.316005743021508E-1   5.839555952325463E-2  
 4.039759939984996E9    -7.313307204198736E-1   6.167965763062239E-2  
 4.040510127531883E9    -7.310475175376520E-1   6.400640186667442E-2  
 4.041260315078770E9    -7.298708075226659E-1   6.655433737486602E-2  
 4.042010502625657E9    -7.290863587825730E-1   6.924463815987111E-2  
 4.042760690172543E9    -7.274959655149074E-1   7.250206815451385E-2  
 4.043510877719430E9    -7.270415587545435E-1   7.533859562128784E-2  
 4.044261065266316E9    -7.257821744752475E-1   7.784886430948973E-2  
 4.045011252813203E9    -7.240542479653245E-1   8.057940965890886E-2  
 4.045761440360090E9    -7.232044277148003E-1   8.171984779089689E-2  
 4.046511627906977E9    -7.216193204627420E-1   8.462664943188430E-2  
 4.047261815453864E9    -7.201327206434980E-1   8.563524494320156E-2  
 4.048012003000750E9    -7.187131101822593E-1   8.734343315660956E-2  
 4.048762190547637E9    -7.166739538401460E-1   8.963694558292629E-2  
 4.049512378094523E9    -7.144295162549963E-1   9.345578141510487E-2  
 4.050262565641410E9    -7.134128271764851E-1   9.378726709634065E-2  
 4.051012753188297E9    -7.124966058904280E-1   9.481535969674591E-2  
 4.051762940735184E9    -7.103668248824421E-1   9.524518882483248E-2  
 4.052513128282071E9    -7.087658363675582E-1   9.637345604598523E-2  
 4.053263315828957E9    -7.073154696515341E-1   9.707941845804453E-2  
 4.054013503375844E9    -7.060364976208926E-1   9.818377038836482E-2  
 4.054763690922730E9    -7.039058899647197E-1   1.004255495518446E-1  
 4.055513878469617E9    -7.029880838951774E-1   1.002445526644588E-1  
 4.056264066016504E9    -7.010448866244088E-1   1.003250710293651E-1  
 4.057014253563391E9    -6.995140516787788E-1   9.987830616533759E-2  
 4.057764441110278E9    -6.983562042755100E-1   1.009301524683833E-1  
 4.058514628657164E9    -6.976867651555953E-1   1.012500131204724E-1  
 4.059264816204051E9    -6.965476105035070E-1   1.010367159023881E-1  
 4.060015003750938E9    -6.956808313986420E-1   1.013513190895319E-1  
 4.060765191297824E9    -6.939205681688964E-1   1.015175797715783E-1  
 4.061515378844711E9    -6.928735932122340E-1   1.016511929780245E-1  
 4.062265566391598E9    -6.935751374265980E-1   1.006052482277155E-1  
 4.063015753938485E9    -6.920875624747711E-1   1.003534800261259E-1  
 4.063765941485371E9    -6.914548411012572E-1   1.003139925524592E-1  
 4.064516129032258E9    -6.913257051454055E-1   9.978184064477683E-2  
 4.065266316579145E9    -6.908104222142674E-1   9.981497035920621E-2  
 4.066016504126031E9    -6.901981116873805E-1   9.986743927001954E-2  
 4.066766691672918E9    -6.907291472644725E-1   9.941309035569430E-2  
 4.067516879219805E9    -6.909756900278326E-1   9.938983391970399E-2  
 4.068267066766692E9    -6.906635922886281E-1   9.920679861307145E-2  
 4.069017254313579E9    -6.912914263451985E-1   9.777233880758285E-2  
 4.069767441860465E9    -6.918435546877154E-1   9.779450853168967E-2  
 4.070517629407352E9    -6.923597194750231E-1   9.784326081722977E-2  
 4.071267816954238E9    -6.933248322745205E-1   9.829479673504830E-2  
 4.072018004501125E9    -6.941942446881245E-1   9.754807987064124E-2  
 4.072768192048012E9    -6.948408787133193E-1   9.829664382338527E-2  
 4.073518379594899E9    -6.952923528798309E-1   9.819854084402323E-2  
 4.074268567141786E9    -6.971634023721298E-1   9.892559240013363E-2  
 4.075018754688672E9    -6.981498114350840E-1   9.915546113252641E-2  
 4.075768942235559E9    -6.994755420436909E-1   1.003331658095122E-1  
 4.076519129782445E9    -7.004956973544433E-1   1.006449719741941E-1  
 4.077269317329332E9    -7.019702036433857E-1   1.018499266430736E-1  
 4.078019504876219E9    -7.026800066513045E-1   1.024377656951547E-1  
 4.078769692423106E9    -7.035807884883888E-1   1.038697867691517E-1  
 4.079519879969993E9    -7.049863613156771E-1   1.055950406193734E-1  
 4.080270067516879E9    -7.061428282854604E-1   1.073702140226960E-1  
 4.081020255063766E9    -7.079123116398994E-1   1.084282848462463E-1  
 4.081770442610652E9    -7.077645909981567E-1   1.107373696640134E-1  
 4.082520630157539E9    -7.091842622709750E-1   1.133373507708311E-1  
 4.083270817704426E9    -7.105382771052243E-1   1.153779378980398E-1  
 4.084021005251313E9    -7.104108912913960E-1   1.171289187073708E-1  
 4.084771192798200E9    -7.122960374673785E-1   1.196100561842323E-1  
 4.085521380345086E9    -7.121902827382640E-1   1.221639596745372E-1  
 4.086271567891973E9    -7.118307763234931E-1   1.244205097705126E-1  
 4.087021755438860E9    -7.124034439456825E-1   1.266343335658312E-1  
 4.087771942985746E9    -7.129483169416639E-1   1.295426407903433E-1  
 4.088522130532633E9    -7.131595600325356E-1   1.317621482759714E-1  
 4.089272318079520E9    -7.121872897415030E-1   1.350408748388290E-1  
 4.090022505626407E9    -7.126973060940677E-1   1.381239303350449E-1  
 4.090772693173293E9    -7.119143989945771E-1   1.402143141925335E-1  
 4.091522880720180E9    -7.110139148112196E-1   1.437632751911879E-1  
 4.092273068267067E9    -7.106319805992216E-1   1.452722542434931E-1  
 4.093023255813953E9    -7.085554944322552E-1   1.488071168661118E-1  
 4.093773443360840E9    -7.083710683831469E-1   1.508049531579018E-1  
 4.094523630907727E9    -7.075439704195176E-1   1.533010917752981E-1  
 4.095273818454614E9    -7.061773854471167E-1   1.558263861984015E-1  
 4.096024006001500E9    -7.049501391282667E-1   1.582239050120116E-1  
 4.096774193548387E9    -7.034255626758731E-1   1.600447539985180E-1  
 4.097524381095274E9    -7.014097229808020E-1   1.622087408751249E-1  
 4.098274568642160E9    -7.003544995989585E-1   1.647898897677660E-1  
 4.099024756189047E9    -6.982887578766277E-1   1.663008651435375E-1  
 4.099774943735934E9    -6.969360931039915E-1   1.672049522846938E-1  
 4.100525131282821E9    -6.946242450027451E-1   1.693030975162983E-1  
 4.101275318829708E9    -6.937359030008288E-1   1.707780205160380E-1  
 4.102025506376594E9    -6.917477766959688E-1   1.722062837779523E-1  
 4.102775693923481E9    -6.901246996877217E-1   1.734704352766275E-1  
 4.103525881470367E9    -6.885899045637081E-1   1.748679216504097E-1  
 4.104276069017254E9    -6.875952265573890E-1   1.748351374268532E-1  
 4.105026256564141E9    -6.841478273916295E-1   1.761134956032038E-1  
 4.105776444111028E9    -6.842472414708106E-1   1.771011282205582E-1  
 4.106526631657915E9    -6.823623290252598E-1   1.782102218270302E-1  
 4.107276819204801E9    -6.809894151439843E-1   1.786572728306055E-1  
 4.108027006751688E9    -6.788816011958136E-1   1.794045845717192E-1  
 4.108777194298574E9    -6.778583613334736E-1   1.804135212898254E-1  
 4.109527381845461E9    -6.762209567077099E-1   1.803086580187083E-1  
 4.110277569392348E9    -6.745574232801813E-1   1.800375408977270E-1  
 4.111027756939235E9    -6.743677707252572E-1   1.807586549073458E-1  
 4.111777944486122E9    -6.734401086142949E-1   1.812357924431562E-1  
 4.112528132033008E9    -6.719671286665051E-1   1.806527261883021E-1  
 4.113278319579895E9    -6.710714573376840E-1   1.814499167948961E-1  
 4.114028507126782E9    -6.698531544581075E-1   1.810783097147941E-1  
 4.114778694673668E9    -6.698322136352741E-1   1.805774929225445E-1  
 4.115528882220555E9    -6.688528691096426E-1   1.803196500092745E-1  
 4.116279069767442E9    -6.695934828251209E-1   1.808814861774445E-1  
 4.117029257314329E9    -6.686379765560119E-1   1.789262938797474E-1  
 4.117779444861215E9    -6.688327453043609E-1   1.801569064259529E-1  
 4.118529632408102E9    -6.681845939985620E-1   1.804393047988415E-1  
 4.119279819954989E9    -6.690119503551696E-1   1.786126639842988E-1  
 4.120030007501875E9    -6.691797925112858E-1   1.797533349990845E-1  
 4.120780195048762E9    -6.685036417579170E-1   1.816364417523146E-1  
 4.121530382595649E9    -6.695835850427483E-1   1.809067567288875E-1  
 4.122280570142536E9    -6.704139070889071E-1   1.805303667485714E-1  
 4.123030757689422E9    -6.713292858621672E-1   1.799519368559122E-1  
 4.123780945236309E9    -6.723134684411651E-1   1.798953516483307E-1  
 4.124531132783196E9    -6.728732841587435E-1   1.805103696733713E-1  
 4.125281320330082E9    -6.738852326535296E-1   1.814556594640017E-1  
 4.126031507876969E9    -6.743351126227428E-1   1.820180440545083E-1  
 4.126781695423856E9    -6.758407563100549E-1   1.821069271415472E-1  
 4.127531882970743E9    -6.764735578704005E-1   1.837220279276371E-1  
 4.128282070517630E9    -6.780992415711935E-1   1.846987575143576E-1  
 4.129032258064516E9    -6.789117597836446E-1   1.862973706871271E-1  
 4.129782445611403E9    -6.802675083954379E-1   1.855348227173090E-1  
 4.130532633158289E9    -6.814779471540821E-1   1.878418056368828E-1  
 4.131282820705176E9    -6.820670461070292E-1   1.893544769138098E-1  
 4.132033008252063E9    -6.833204470267432E-1   1.916235246509314E-1  
 4.132783195798950E9    -6.839954928655970E-1   1.937590600997210E-1  
 4.133533383345837E9    -6.849710117524168E-1   1.956079977750778E-1  
 4.134283570892723E9    -6.860033947038240E-1   1.968349135369062E-1  
 4.135033758439610E9    -6.871864640765507E-1   1.985929482132197E-1  
 4.135783945986496E9    -6.874603435830308E-1   2.011125073730946E-1  
 4.136534133533383E9    -6.883669945561225E-1   2.032304088473320E-1  
 4.137284321080270E9    -6.886373788797474E-1   2.045815492570401E-1  
 4.138034508627157E9    -6.879591052542917E-1   2.082600253522396E-1  
 4.138784696174044E9    -6.882329764219409E-1   2.100235948264599E-1  
 4.139534883720930E9    -6.878619163978946E-1   2.139234725087881E-1  
 4.140285071267817E9    -6.887205491445828E-1   2.153438096791506E-1  
 4.141035258814704E9    -6.881079582337387E-1   2.177579640299082E-1  
 4.141785446361590E9    -6.881794233792529E-1   2.195414219498635E-1  
 4.142535633908477E9    -6.870578544337405E-1   2.232704502791166E-1  
 4.143285821455364E9    -6.857068619983636E-1   2.261715243011713E-1  
 4.144036009002251E9    -6.854277987150158E-1   2.285229057371616E-1  
 4.144786196549137E9    -6.841999660204885E-1   2.314557679444551E-1  
 4.145536384096024E9    -6.824306045875161E-1   2.330477173328400E-1  
 4.146286571642911E9    -6.815610106173826E-1   2.351233832389117E-1  
 4.147036759189797E9    -6.802997777978340E-1   2.382210849076510E-1  
 4.147786946736684E9    -6.779589259185503E-1   2.401909721493721E-1  
 4.148537134283571E9    -6.771275226998379E-1   2.420679441988468E-1  
 4.149287321830458E9    -6.743584109872518E-1   2.443619359135628E-1  
 4.150037509377344E9    -6.722866534714768E-1   2.452924619019032E-1  
 4.150787696924231E9    -6.706425902421204E-1   2.470370472073556E-1  
 4.151537884471118E9    -6.692518903910638E-1   2.486847045570613E-1  
 4.152288072018004E9    -6.668649272640254E-1   2.503015816658736E-1  
 4.153038259564891E9    -6.647677831303916E-1   2.516136081069708E-1  
 4.153788447111778E9    -6.625933597453023E-1   2.524055300951004E-1  
 4.154538634658665E9    -6.604256299730070E-1   2.541391686797142E-1  
 4.155288822205551E9    -6.588199619510348E-1   2.539679682552815E-1  
 4.156039009752438E9    -6.568172953064384E-1   2.554633125364781E-1  
 4.156789197299325E9    -6.547388547414232E-1   2.574042039811612E-1  
 4.157539384846211E9    -6.535397231476522E-1   2.571705721616746E-1  
 4.158289572393098E9    -6.512934127448927E-1   2.581343626379967E-1  
 4.159039759939985E9    -6.489650779636785E-1   2.583591560423374E-1  
 4.159789947486872E9    -6.470678875927222E-1   2.589327186346054E-1  
 4.160540135033759E9    -6.455541725256377E-1   2.583194050788880E-1  
 4.161290322580645E9    -6.440134857791611E-1   2.589177239239217E-1  
 4.162040510127532E9    -6.416204491425719E-1   2.580861270129681E-1  
 4.162790697674418E9    -6.404479803767088E-1   2.585537369251252E-1  
 4.163540885221305E9    -6.397163363096440E-1   2.584293160438538E-1  
 4.164291072768192E9    -6.379687091669110E-1   2.577367129623890E-1  
 4.165041260315079E9    -6.372685763350523E-1   2.575054275691510E-1  
 4.165791447861966E9    -6.352711217730855E-1   2.569721949994564E-1  
 4.166541635408852E9    -6.343395561423338E-1   2.567766726315022E-1  
 4.167291822955739E9    -6.334814402157177E-1   2.563895393311978E-1  
 4.168042010502626E9    -6.334300244351110E-1   2.568521092832088E-1  
 4.168792198049512E9    -6.328797156412329E-1   2.562944304347039E-1  
 4.169542385596399E9    -6.322494183566467E-1   2.556402768492699E-1  
 4.170292573143286E9    -6.324417898854803E-1   2.549101989865304E-1  
 4.171042760690173E9    -6.321039632732836E-1   2.539482040107251E-1  
 4.171792948237059E9    -6.321284765040227E-1   2.540178191661835E-1  
 4.172543135783946E9    -6.325316867771749E-1   2.528405056297780E-1  
 4.173293323330833E9    -6.324514803764753E-1   2.532310564219951E-1  
 4.174043510877719E9    -6.336665637896882E-1   2.527466425895691E-1  
 4.174793698424606E9    -6.336030853813595E-1   2.528669124543667E-1  
 4.175543885971493E9    -6.338581088940173E-1   2.538854662775993E-1  
 4.176294073518380E9    -6.351479984376871E-1   2.532241204977035E-1  
 4.177044261065266E9    -6.366507108597417E-1   2.532993136346340E-1  
 4.177794448612153E9    -6.370863932125420E-1   2.535686422884465E-1  
 4.178544636159040E9    -6.382996070468548E-1   2.546058651208878E-1  
 4.179294823705926E9    -6.393640134987330E-1   2.551819723844528E-1  
 4.180045011252813E9    -6.402156205834584E-1   2.563622970879078E-1  
 4.180795198799700E9    -6.405348530006523E-1   2.567936075627804E-1  
 4.181545386346587E9    -6.427810997955691E-1   2.572489646673202E-1  
 4.182295573893473E9    -6.440859107164454E-1   2.588404262065887E-1  
 4.183045761440360E9    -6.459948717851227E-1   2.599894610345364E-1  
 4.183795948987247E9    -6.463840311511865E-1   2.610361092984677E-1  
 4.184546136534133E9    -6.482229727291298E-1   2.633866160809993E-1  
 4.185296324081020E9    -6.479887435739380E-1   2.652135671079159E-1  
 4.186046511627907E9    -6.495289557524906E-1   2.674592294096947E-1  
 4.186796699174794E9    -6.508217426164130E-1   2.696832830011845E-1  
 4.187546886721681E9    -6.522480978864600E-1   2.717947582304477E-1  
 4.188297074268567E9    -6.524681582731955E-1   2.735343265235424E-1  
 4.189047261815454E9    -6.528922661424031E-1   2.761617120206357E-1  
 4.189797449362341E9    -6.535009741176212E-1   2.796622187793255E-1  
 4.190547636909227E9    -6.539403370622461E-1   2.822370319664478E-1  
 4.191297824456114E9    -6.539121974944275E-1   2.836058099269868E-1  
 4.192048012003001E9    -6.543193047890773E-1   2.865684001147748E-1  
 4.192798199549888E9    -6.539258189178389E-1   2.891685081720353E-1  
 4.193548387096774E9    -6.540722110899387E-1   2.927480510771275E-1  
 4.194298574643661E9    -6.537863614941020E-1   2.956557326614857E-1  
 4.195048762190548E9    -6.533096997231496E-1   2.976045978963375E-1  
 4.195798949737434E9    -6.527947142008936E-1   3.008698885738850E-1  
 4.196549137284321E9    -6.515208007282642E-1   3.034272243976594E-1  
 4.197299324831208E9    -6.509118984448539E-1   3.063393816053868E-1  
 4.198049512378095E9    -6.488147062161008E-1   3.097636165022851E-1  
 4.198799699924981E9    -6.482594198030436E-1   3.113965243995190E-1  
 4.199549887471868E9    -6.463493821356244E-1   3.144422644972801E-1  
 4.200300075018755E9    -6.444663378579890E-1   3.155659235119820E-1  
 4.201050262565641E9    -6.421781735942097E-1   3.195574018359185E-1  
 4.201800450112528E9    -6.405125018762344E-1   3.218741653263568E-1  
 4.202550637659415E9    -6.393753474682314E-1   3.221216484606266E-1  
 4.203300825206302E9    -6.368953370133017E-1   3.241948582530022E-1  
 4.204051012753188E9    -6.353599576815252E-1   3.253972071409226E-1  
 4.204801200300075E9    -6.327356612832139E-1   3.280223032832146E-1  
 4.205551387846962E9    -6.309565940274700E-1   3.296720505058766E-1  
 4.206301575393848E9    -6.285644709247360E-1   3.302584528326988E-1  
 4.207051762940735E9    -6.253924554715683E-1   3.316739429533482E-1  
 4.207801950487622E9    -6.231022128667952E-1   3.328064450323581E-1  
 4.208552138034509E9    -6.212395669308792E-1   3.330609423220158E-1  
