#  HZ   S   RI   R     50.0 
! Rohde & Schwarz ZVL13 2Ports - Version 3.31 - 1303.6509k13 SN: 101088
! Date: 2023-03-03 14:33:38
! Data & Calibration Information:
! Trc2:S21(TOSM)
! 
! 
! 
 4.000000000000000E9    -7.158975675842818E-1   1.563049612566829E-2  
 4.000750187546887E9    -7.132690398001322E-1   1.676123898476362E-2  
 4.001500375093773E9    -7.127993628835690E-1   1.642829374410212E-2  
 4.002250562640660E9    -7.106240578742814E-1   1.965541435405612E-2  
 4.003000750187547E9    -7.093258131195428E-1   1.835138358175754E-2  
 4.003750937734434E9    -7.074398676652348E-1   1.777711221948266E-2  
 4.004501125281320E9    -7.060819487238011E-1   1.812943018972874E-2  
 4.005251312828207E9    -7.048898917708072E-1   1.829099718481302E-2  
 4.006001500375094E9    -7.038684311982147E-1   1.761480959132314E-2  
 4.006751687921980E9    -7.021310298134226E-1   1.716111307963729E-2  
 4.007501875468867E9    -7.008971150872896E-1   1.726433569565416E-2  
 4.008252063015754E9    -7.002979988299548E-1   1.710748553276062E-2  
 4.009002250562641E9    -6.987728090784616E-1   1.655222717672587E-2  
 4.009752438109528E9    -6.989025425240276E-1   1.537817749194801E-2  
 4.010502625656414E9    -6.975221945053399E-1   1.510166767053306E-2  
 4.011252813203301E9    -6.969835916101542E-1   1.427893848158419E-2  
 4.012003000750187E9    -6.961607554712483E-1   1.448602794669569E-2  
 4.012753188297074E9    -6.960741592863894E-1   1.344371997751296E-2  
 4.013503375843961E9    -6.960876803609966E-1   1.349462498910725E-2  
 4.014253563390848E9    -6.965999660291649E-1   1.138536212965846E-2  
 4.015003750937735E9    -6.962352615379527E-1   1.098430294543505E-2  
 4.015753938484621E9    -6.974932132550638E-1   1.046374063007534E-2  
 4.016504126031508E9    -6.975510588300548E-1   1.014859631657600E-2  
 4.017254313578394E9    -6.986603560903887E-1   9.344648318365215E-3  
 4.018004501125281E9    -6.989622973902522E-1   8.852549465373160E-3  
 4.018754688672168E9    -7.001250877365662E-1   8.229103782214225E-3  
 4.019504876219055E9    -7.018108917400818E-1   8.011811254546046E-3  
 4.020255063765942E9    -7.029911530321999E-1   8.630872969515622E-3  
 4.021005251312828E9    -7.040842005349034E-1   8.541990425437690E-3  
 4.021755438859715E9    -7.061032695699703E-1   8.136302572675051E-3  
 4.022505626406601E9    -7.076797739919437E-1   9.460274875164034E-3  
 4.023255813953488E9    -7.089016321112699E-1   1.055423540063202E-2  
 4.024006001500375E9    -7.118917645681417E-1   1.158393332734704E-2  
 4.024756189047262E9    -7.125140103714966E-1   1.246686912141740E-2  
 4.025506376594149E9    -7.144315921053585E-1   1.298742929473520E-2  
 4.026256564141035E9    -7.159353864682554E-1   1.410545791499317E-2  
 4.027006751687922E9    -7.183168482097158E-1   1.544780872762203E-2  
 4.027756939234809E9    -7.200781920803051E-1   1.758316215127707E-2  
 4.028507126781695E9    -7.213868815988125E-1   2.009468277916313E-2  
 4.029257314328582E9    -7.234120826446965E-1   2.196531778201461E-2  
 4.030007501875469E9    -7.240838911755952E-1   2.479920670390129E-2  
 4.030757689422356E9    -7.252516891440431E-1   2.700429372489453E-2  
 4.031507876969242E9    -7.271590783336436E-1   2.960001688450575E-2  
 4.032258064516129E9    -7.277328899193208E-1   3.208924999460578E-2  
 4.033008252063016E9    -7.287330465788866E-1   3.642644926905633E-2  
 4.033758439609902E9    -7.301318553936468E-1   3.661141090095044E-2  
 4.034508627156789E9    -7.300885897394458E-1   3.904588788747788E-2  
 4.035258814703676E9    -7.307503998825352E-1   4.446955289691687E-2  
 4.036009002250563E9    -7.316427391340523E-1   4.555068187415600E-2  
 4.036759189797450E9    -7.312535338822730E-1   5.042713470757008E-2  
 4.037509377344336E9    -7.318808702369537E-1   5.618912708014250E-2  
 4.038259564891223E9    -7.310774305412910E-1   5.771504115313292E-2  
 4.039009752438109E9    -7.305410080921411E-1   5.964190997183324E-2  
 4.039759939984996E9    -7.302705334258733E-1   6.263012006878853E-2  
 4.040510127531883E9    -7.303453004959148E-1   6.519797198474407E-2  
 4.041260315078770E9    -7.286210984720986E-1   6.807292826473714E-2  
 4.042010502625657E9    -7.280600358899885E-1   7.086135186254977E-2  
 4.042760690172543E9    -7.264283956459046E-1   7.378720201551915E-2  
 4.043510877719430E9    -7.260346257331445E-1   7.650911413133145E-2  
 4.044261065266316E9    -7.247443595867674E-1   7.895171374082566E-2  
 4.045011252813203E9    -7.231508056527549E-1   8.156662747263911E-2  
 4.045761440360090E9    -7.222448978371481E-1   8.311451435089112E-2  
 4.046511627906977E9    -7.206631849138497E-1   8.566146530210975E-2  
 4.047261815453864E9    -7.190810608951135E-1   8.727977015078070E-2  
 4.048012003000750E9    -7.175979767579115E-1   8.872589059174062E-2  
 4.048762190547637E9    -7.157771995968705E-1   9.058964714407923E-2  
 4.049512378094523E9    -7.137274930263550E-1   9.429136611521244E-2  
 4.050262565641410E9    -7.124273526292932E-1   9.492869570851326E-2  
 4.051012753188297E9    -7.113912944289502E-1   9.602773822844030E-2  
 4.051762940735184E9    -7.094819338346112E-1   9.638823628425600E-2  
 4.052513128282071E9    -7.077379411436088E-1   9.781200043857101E-2  
 4.053263315828957E9    -7.064499914821018E-1   9.865434296429158E-2  
 4.054013503375844E9    -7.048775215131476E-1   9.958626039326192E-2  
 4.054763690922730E9    -7.029750974347137E-1   1.016009236872196E-1  
 4.055513878469617E9    -7.018435497662625E-1   1.011756785213947E-1  
 4.056264066016504E9    -7.001008800047335E-1   1.017665735632181E-1  
 4.057014253563391E9    -6.985171834673950E-1   1.010732898116112E-1  
 4.057764441110278E9    -6.974049501978954E-1   1.022310531139374E-1  
 4.058514628657164E9    -6.968523252051437E-1   1.025642729550600E-1  
 4.059264816204051E9    -6.954207036556165E-1   1.025123172998428E-1  
 4.060015003750938E9    -6.946291609790837E-1   1.025141242146492E-1  
 4.060765191297824E9    -6.929472614645587E-1   1.024541729688645E-1  
 4.061515378844711E9    -6.919633595786254E-1   1.028729288280010E-1  
 4.062265566391598E9    -6.925968568581669E-1   1.016790303587914E-1  
 4.063015753938485E9    -6.910807044540211E-1   1.016553161293268E-1  
 4.063765941485371E9    -6.905627006705196E-1   1.014688061922789E-1  
 4.064516129032258E9    -6.901422874846083E-1   1.014238556474447E-1  
 4.065266316579145E9    -6.898723951409500E-1   1.010130985826254E-1  
 4.066016504126031E9    -6.891740583587334E-1   1.009796229749918E-1  
 4.066766691672918E9    -6.896421878777623E-1   1.007434801757336E-1  
 4.067516879219805E9    -6.901095178829569E-1   1.006040981411934E-1  
 4.068267066766692E9    -6.895965256440775E-1   1.004943668097258E-1  
 4.069017254313579E9    -6.906056741320515E-1   9.892110697925091E-2  
 4.069767441860465E9    -6.906762903898807E-1   9.914135463535787E-2  
 4.070517629407352E9    -6.912365722045472E-1   9.876191325485707E-2  
 4.071267816954238E9    -6.921390595494760E-1   9.963048465549945E-2  
 4.072018004501125E9    -6.929281849579511E-1   9.874928526580336E-2  
 4.072768192048012E9    -6.938024949893640E-1   9.962266258895398E-2  
 4.073518379594899E9    -6.944121502003149E-1   9.922720856964590E-2  
 4.074268567141786E9    -6.960729683476877E-1   1.000408276915550E-1  
 4.075018754688672E9    -6.969777643194585E-1   1.002498729526997E-1  
 4.075768942235559E9    -6.981963500594383E-1   1.012914351373911E-1  
 4.076519129782445E9    -6.995054793263864E-1   1.016309046745300E-1  
 4.077269317329332E9    -7.009440547979389E-1   1.029711345583201E-1  
 4.078019504876219E9    -7.015984938319351E-1   1.035840466618538E-1  
 4.078769692423106E9    -7.026297861823386E-1   1.044507987052202E-1  
 4.079519879969993E9    -7.041047739638804E-1   1.068308269977570E-1  
 4.080270067516879E9    -7.051001744878219E-1   1.087467396259308E-1  
 4.081020255063766E9    -7.065553101634632E-1   1.097467103600502E-1  
 4.081770442610652E9    -7.066520401368209E-1   1.119609335064888E-1  
 4.082520630157539E9    -7.082173320202986E-1   1.144161455333233E-1  
 4.083270817704426E9    -7.094641654332307E-1   1.161742874234915E-1  
 4.084021005251313E9    -7.093765714133172E-1   1.181732026487589E-1  
 4.084771192798200E9    -7.111679240635760E-1   1.204742285609246E-1  
 4.085521380345086E9    -7.109823550655433E-1   1.233734466135502E-1  
 4.086271567891973E9    -7.109119993186055E-1   1.253411085903645E-1  
 4.087021755438860E9    -7.113938743117287E-1   1.279357360303402E-1  
 4.087771942985746E9    -7.118994476890178E-1   1.306835664808750E-1  
 4.088522130532633E9    -7.121747498553567E-1   1.331745952367783E-1  
 4.089272318079520E9    -7.113716866053593E-1   1.357574594020843E-1  
 4.090022505626407E9    -7.116713878441531E-1   1.392825596034527E-1  
 4.090772693173293E9    -7.108151006795758E-1   1.413826236128807E-1  
 4.091522880720180E9    -7.102971152844496E-1   1.450301806628704E-1  
 4.092273068267067E9    -7.094284816308596E-1   1.463343520462513E-1  
 4.093023255813953E9    -7.074375808484748E-1   1.496405994892120E-1  
 4.093773443360840E9    -7.072502966562575E-1   1.519223476946354E-1  
 4.094523630907727E9    -7.063544817389769E-1   1.545787310600281E-1  
 4.095273818454614E9    -7.051083851548159E-1   1.567014467716218E-1  
 4.096024006001500E9    -7.037669608397368E-1   1.594446279108524E-1  
 4.096774193548387E9    -7.024225845525794E-1   1.612558044493198E-1  
 4.097524381095274E9    -7.004187083865828E-1   1.634682664275169E-1  
 4.098274568642160E9    -6.991438042326772E-1   1.658787819743157E-1  
 4.099024756189047E9    -6.971707759232024E-1   1.671747387945652E-1  
 4.099774943735934E9    -6.959691859720456E-1   1.681338921189308E-1  
 4.100525131282821E9    -6.935831485462919E-1   1.703801283240319E-1  
 4.101275318829708E9    -6.929944327777877E-1   1.716400250792503E-1  
 4.102025506376594E9    -6.905521050462561E-1   1.734835407137871E-1  
 4.102775693923481E9    -6.893769163802072E-1   1.746690335869789E-1  
 4.103525881470367E9    -6.874276226435212E-1   1.759887172281742E-1  
 4.104276069017254E9    -6.865286782586155E-1   1.759484528005123E-1  
 4.105026256564141E9    -6.829804012878961E-1   1.770861911773682E-1  
 4.105776444111028E9    -6.831367768139370E-1   1.781877823174000E-1  
 4.106526631657915E9    -6.810165758826901E-1   1.792024497687816E-1  
 4.107276819204801E9    -6.798937024555234E-1   1.797594401240349E-1  
 4.108027006751688E9    -6.779813248607225E-1   1.807301604747773E-1  
 4.108777194298574E9    -6.768270392015376E-1   1.813864289224148E-1  
 4.109527381845461E9    -6.749029642891730E-1   1.815066900849342E-1  
 4.110277569392348E9    -6.733419665834097E-1   1.809733332693577E-1  
 4.111027756939235E9    -6.732388581151785E-1   1.818617622554303E-1  
 4.111777944486122E9    -6.722536538072456E-1   1.822785940766335E-1  
 4.112528132033008E9    -6.710463966460012E-1   1.816239848732949E-1  
 4.113278319579895E9    -6.699902174392035E-1   1.825475874543190E-1  
 4.114028507126782E9    -6.688596319471926E-1   1.822455954551697E-1  
 4.114778694673668E9    -6.687194319572121E-1   1.815560007095337E-1  
 4.115528882220555E9    -6.678556491053769E-1   1.813958188891411E-1  
 4.116279069767442E9    -6.683282341522303E-1   1.821061584353448E-1  
 4.117029257314329E9    -6.673599200076993E-1   1.798538337647915E-1  
 4.117779444861215E9    -6.677110309684482E-1   1.808319775760174E-1  
 4.118529632408102E9    -6.671509288574938E-1   1.815396836400033E-1  
 4.119279819954989E9    -6.678246728134649E-1   1.795753310620785E-1  
 4.120030007501875E9    -6.678807081163394E-1   1.809708298742771E-1  
 4.120780195048762E9    -6.672489367589897E-1   1.827776589989662E-1  
 4.121530382595649E9    -6.682599603145218E-1   1.818162325024605E-1  
 4.122280570142536E9    -6.689636744671630E-1   1.813895392417907E-1  
 4.123030757689422E9    -6.701962099560322E-1   1.807646915316582E-1  
 4.123780945236309E9    -6.711255078191060E-1   1.806786982715130E-1  
 4.124531132783196E9    -6.716707015959871E-1   1.818669615685940E-1  
 4.125281320330082E9    -6.727613567769967E-1   1.822717717289925E-1  
 4.126031507876969E9    -6.733651901860691E-1   1.830461664497852E-1  
 4.126781695423856E9    -6.747800829022205E-1   1.830183310806751E-1  
 4.127531882970743E9    -6.751913816390213E-1   1.843637031316757E-1  
 4.128282070517630E9    -6.769819078394004E-1   1.855949102342129E-1  
 4.129032258064516E9    -6.776348711791755E-1   1.872387671470642E-1  
 4.129782445611403E9    -6.791951458675216E-1   1.864479193091393E-1  
 4.130532633158289E9    -6.800280831909819E-1   1.888458493351936E-1  
 4.131282820705176E9    -6.810399429884357E-1   1.902140423655510E-1  
 4.132033008252063E9    -6.822453382618733E-1   1.924134533107281E-1  
 4.132783195798950E9    -6.826415537331240E-1   1.943965612351895E-1  
 4.133533383345837E9    -6.840268587919971E-1   1.966454230248928E-1  
 4.134283570892723E9    -6.849129007412392E-1   1.976568567752838E-1  
 4.135033758439610E9    -6.861440234209616E-1   1.997143059968949E-1  
 4.135783945986496E9    -6.863832511746891E-1   2.018603992462159E-1  
 4.136534133533383E9    -6.871552046689708E-1   2.038452564179897E-1  
 4.137284321080270E9    -6.874952926826528E-1   2.054868970811367E-1  
 4.138034508627157E9    -6.868472262734892E-1   2.088074463605881E-1  
 4.138784696174044E9    -6.870823941676499E-1   2.108865596354008E-1  
 4.139534883720930E9    -6.867105208455666E-1   2.148764668405057E-1  
 4.140285071267817E9    -6.874545940499621E-1   2.160946303606034E-1  
 4.141035258814704E9    -6.869974865423474E-1   2.186215609312058E-1  
 4.141785446361590E9    -6.869330971492706E-1   2.205919492244721E-1  
 4.142535633908477E9    -6.858391408468805E-1   2.240148141980171E-1  
 4.143285821455364E9    -6.845384051216756E-1   2.271228888630867E-1  
 4.144036009002251E9    -6.843670635129098E-1   2.289757968485356E-1  
 4.144786196549137E9    -6.830441868096564E-1   2.322887769341469E-1  
 4.145536384096024E9    -6.812985310365607E-1   2.339820791780949E-1  
 4.146286571642911E9    -6.802621463630707E-1   2.360855640470982E-1  
 4.147036759189797E9    -6.791830541830306E-1   2.391176418960095E-1  
 4.147786946736684E9    -6.767872854655447E-1   2.410887455940247E-1  
 4.148537134283571E9    -6.760773040581515E-1   2.427058155834675E-1  
 4.149287321830458E9    -6.734712117692614E-1   2.450669640302658E-1  
 4.150037509377344E9    -6.712033331095543E-1   2.461267957091332E-1  
 4.150787696924231E9    -6.694193610566286E-1   2.479487398266792E-1  
 4.151537884471118E9    -6.680822336598242E-1   2.495775794982910E-1  
 4.152288072018004E9    -6.656097103550309E-1   2.512973871827126E-1  
 4.153038259564891E9    -6.637325187193124E-1   2.525067746639252E-1  
 4.153788447111778E9    -6.614135877931782E-1   2.535041755437851E-1  
 4.154538634658665E9    -6.593858838171360E-1   2.549178475141525E-1  
 4.155288822205551E9    -6.576538302848394E-1   2.548083275556564E-1  
 4.156039009752438E9    -6.558718619610986E-1   2.563923552632332E-1  
 4.156789197299325E9    -6.534242944481105E-1   2.585843825340271E-1  
 4.157539384846211E9    -6.523385680322826E-1   2.581399461627007E-1  
 4.158289572393098E9    -6.499248810495328E-1   2.591464102268219E-1  
 4.159039759939985E9    -6.481584770192096E-1   2.592174953222275E-1  
 4.159789947486872E9    -6.459454456014991E-1   2.596739393472671E-1  
 4.160540135033759E9    -6.445151426547964E-1   2.592671567201615E-1  
 4.161290322580645E9    -6.428226402953935E-1   2.595241412520409E-1  
 4.162040510127532E9    -6.405696231025461E-1   2.593541914224625E-1  
 4.162790697674418E9    -6.391241757600810E-1   2.595895957946777E-1  
 4.163540885221305E9    -6.386041437235546E-1   2.594787386059761E-1  
 4.164291072768192E9    -6.367693217374629E-1   2.586929222941399E-1  
 4.165041260315079E9    -6.361325651588997E-1   2.585440337657928E-1  
 4.165791447861966E9    -6.344878258822033E-1   2.578719466924668E-1  
 4.166541635408852E9    -6.330598453784639E-1   2.577298033237457E-1  
 4.167291822955739E9    -6.323226948038798E-1   2.571317464113236E-1  
 4.168042010502626E9    -6.322553213874566E-1   2.575262594223022E-1  
 4.168792198049512E9    -6.316294004349292E-1   2.574456053972244E-1  
 4.169542385596399E9    -6.310412703931636E-1   2.567346256971359E-1  
 4.170292573143286E9    -6.312826036073068E-1   2.556344878673553E-1  
 4.171042760690173E9    -6.306708440685278E-1   2.550000518560410E-1  
 4.171792948237059E9    -6.307494322584807E-1   2.550442838668824E-1  
 4.172543135783946E9    -6.314983219176997E-1   2.538223570585251E-1  
 4.173293323330833E9    -6.310026132078356E-1   2.542218926548958E-1  
 4.174043510877719E9    -6.322978702325548E-1   2.537452211976052E-1  
 4.174793698424606E9    -6.325713752884785E-1   2.534909504652023E-1  
 4.175543885971493E9    -6.323523107961360E-1   2.548641827702523E-1  
 4.176294073518380E9    -6.339636589421677E-1   2.538836461305618E-1  
 4.177044261065266E9    -6.354930877901002E-1   2.542261248826980E-1  
 4.177794448612153E9    -6.358105519801061E-1   2.543695378303528E-1  
 4.178544636159040E9    -6.371668700418587E-1   2.551652011275292E-1  
 4.179294823705926E9    -6.382328802054840E-1   2.557450935244560E-1  
 4.180045011252813E9    -6.390607281229389E-1   2.573323205113412E-1  
 4.180795198799700E9    -6.394003448862293E-1   2.576089826226234E-1  
 4.181545386346587E9    -6.416267486845688E-1   2.581680369377137E-1  
 4.182295573893473E9    -6.428445692751550E-1   2.594472026824952E-1  
 4.183045761440360E9    -6.446438924579544E-1   2.607470610737801E-1  
 4.183795948987247E9    -6.452504608633315E-1   2.618475699424744E-1  
 4.184546136534133E9    -6.470198169922102E-1   2.640984472632408E-1  
 4.185296324081020E9    -6.466415039397372E-1   2.659727999567985E-1  
 4.186046511627907E9    -6.484913887146977E-1   2.681667357683182E-1  
 4.186796699174794E9    -6.496979327181549E-1   2.703133654594422E-1  
 4.187546886721681E9    -6.511301498823398E-1   2.725278878211975E-1  
 4.188297074268567E9    -6.511867079259031E-1   2.743661054968834E-1  
 4.189047261815454E9    -6.517116285655338E-1   2.769264200329781E-1  
 4.189797449362341E9    -6.521660905854653E-1   2.802119794487953E-1  
 4.190547636909227E9    -6.527532191192957E-1   2.829201927781105E-1  
 4.191297824456114E9    -6.527807497108344E-1   2.840145578980445E-1  
 4.192048012003001E9    -6.533884308664874E-1   2.871539273858071E-1  
 4.192798199549888E9    -6.526827043099573E-1   2.897010195255280E-1  
 4.193548387096774E9    -6.530695578926014E-1   2.932899776101112E-1  
 4.194298574643661E9    -6.525902911931711E-1   2.963455370068551E-1  
 4.195048762190548E9    -6.520246381163404E-1   2.983374807238580E-1  
 4.195798949737434E9    -6.515800351391321E-1   3.014262682199479E-1  
 4.196549137284321E9    -6.502510501344793E-1   3.040252557396888E-1  
 4.197299324831208E9    -6.497449104203462E-1   3.071367186307908E-1  
 4.198049512378095E9    -6.476278868865062E-1   3.101945084333421E-1  
 4.198799699924981E9    -6.473776260767177E-1   3.119435554742813E-1  
 4.199549887471868E9    -6.450066093715344E-1   3.153790315985681E-1  
 4.200300075018755E9    -6.434452388105775E-1   3.158620929718018E-1  
 4.201050262565641E9    -6.410238752870292E-1   3.201185449957847E-1  
 4.201800450112528E9    -6.391604534095258E-1   3.225012326240540E-1  
 4.202550637659415E9    -6.385541422733545E-1   3.225856336951257E-1  
 4.203300825206302E9    -6.360046030008374E-1   3.246152910590172E-1  
 4.204051012753188E9    -6.341515116250697E-1   3.260736304521561E-1  
 4.204801200300075E9    -6.316824372317191E-1   3.286879119277000E-1  
 4.205551387846962E9    -6.296848548652626E-1   3.306336838006974E-1  
 4.206301575393848E9    -6.273471432951220E-1   3.307485675811768E-1  
 4.207051762940735E9    -6.240635033125099E-1   3.324899196624756E-1  
 4.207801950487622E9    -6.219174055811672E-1   3.334678363800049E-1  
 4.208552138034509E9    -6.200412215463578E-1   3.340559491515160E-1  
