#  HZ   S   RI   R     50.0 
! Rohde & Schwarz ZVL13 2Ports - Version 3.31 - 1303.6509k13 SN: 101088
! Date: 2023-03-03 14:45:36
! Data & Calibration Information:
! Trc2:S21(TOSM)
! 
! 
! 
 4.000000000000000E9    -7.172180179837663E-1   1.088617843296379E-2  
 4.000750187546887E9    -7.145535750447317E-1   1.175128823518753E-2  
 4.001500375093773E9    -7.140310080522285E-1   1.172588812187314E-2  
 4.002250562640660E9    -7.119304639502474E-1   1.443495588563383E-2  
 4.003000750187547E9    -7.105673874512013E-1   1.341287379059941E-2  
 4.003750937734434E9    -7.087883498380820E-1   1.318833549320698E-2  
 4.004501125281320E9    -7.073765887204486E-1   1.345452902931721E-2  
 4.005251312828207E9    -7.060566437675365E-1   1.353594860248268E-2  
 4.006001500375094E9    -7.053088900680149E-1   1.284830838628114E-2  
 4.006751687921980E9    -7.035273300746585E-1   1.239368690829724E-2  
 4.007501875468867E9    -7.025474885174363E-1   1.301617465075106E-2  
 4.008252063015754E9    -7.016332387738569E-1   1.256753957457841E-2  
 4.009002250562641E9    -7.001550908389795E-1   1.150315552856773E-2  
 4.009752438109528E9    -7.001427448353004E-1   1.055381907708943E-2  
 4.010502625656414E9    -6.988281223118141E-1   1.044918316509575E-2  
 4.011252813203301E9    -6.986839888773831E-1   9.603086231276394E-3  
 4.012003000750187E9    -6.972959160808656E-1   9.471775260753931E-3  
 4.012753188297074E9    -6.974672146065966E-1   8.498129490297289E-3  
 4.013503375843961E9    -6.972607814851305E-1   8.976161115802822E-3  
 4.014253563390848E9    -6.979336429792884E-1   6.906684456393124E-3  
 4.015003750937735E9    -6.974645914191102E-1   6.363042223267258E-3  
 4.015753938484621E9    -6.988551088778383E-1   5.905208169016989E-3  
 4.016504126031508E9    -6.990749120802864E-1   5.231463681906462E-3  
 4.017254313578394E9    -6.997563524407985E-1   4.718468004837632E-3  
 4.018004501125281E9    -7.003430894194570E-1   4.335770987905563E-3  
 4.018754688672168E9    -7.015423612247540E-1   4.036630689399317E-3  
 4.019504876219055E9    -7.033447559552806E-1   3.676362110534683E-3  
 4.020255063765942E9    -7.042783112259722E-1   3.859778983751313E-3  
 4.021005251312828E9    -7.057059543717676E-1   3.597351594595239E-3  
 4.021755438859715E9    -7.075580222173072E-1   3.252478228649125E-3  
 4.022505626406601E9    -7.091049942259089E-1   4.754452022491023E-3  
 4.023255813953488E9    -7.102210220546850E-1   5.733000627253206E-3  
 4.024006001500375E9    -7.132470121842798E-1   6.879951454233378E-3  
 4.024756189047262E9    -7.140004951604986E-1   7.776484236121178E-3  
 4.025506376594149E9    -7.158399572921876E-1   8.599477501586081E-3  
 4.026256564141035E9    -7.173189231931324E-1   9.696962490677833E-3  
 4.027006751687922E9    -7.196555409041071E-1   1.102479682583362E-2  
 4.027756939234809E9    -7.216217066326814E-1   1.305590919032693E-2  
 4.028507126781695E9    -7.229174671613874E-1   1.545796214696020E-2  
 4.029257314328582E9    -7.247198598091560E-1   1.706060353480279E-2  
 4.030007501875469E9    -7.255186382441701E-1   1.990221569500864E-2  
 4.030757689422356E9    -7.267953442605299E-1   2.292326077260077E-2  
 4.031507876969242E9    -7.286295000847499E-1   2.498930970765651E-2  
 4.032258064516129E9    -7.292373678112448E-1   2.744165993295610E-2  
 4.033008252063016E9    -7.305024356903763E-1   3.168849951773882E-2  
 4.033758439609902E9    -7.317856686234346E-1   3.183675363659859E-2  
 4.034508627156789E9    -7.316756379792160E-1   3.423658500239253E-2  
 4.035258814703676E9    -7.325087215948931E-1   3.976246018335223E-2  
 4.036009002250563E9    -7.332407831887686E-1   4.090347543358804E-2  
 4.036759189797450E9    -7.328788953102889E-1   4.575390659645200E-2  
 4.037509377344336E9    -7.336693073140476E-1   5.154132114350797E-2  
 4.038259564891223E9    -7.327868849517696E-1   5.289187100902201E-2  
 4.039009752438109E9    -7.320288704333964E-1   5.513984857872129E-2  
 4.039759939984996E9    -7.320919883968564E-1   5.840066493675113E-2  
 4.040510127531883E9    -7.319628263456676E-1   6.051349429786207E-2  
 4.041260315078770E9    -7.304810525603055E-1   6.327944514155387E-2  
 4.042010502625657E9    -7.298476953893497E-1   6.617467018216848E-2  
 4.042760690172543E9    -7.282034646067535E-1   6.938879673928021E-2  
 4.043510877719430E9    -7.277076001243038E-1   7.191073551774024E-2  
 4.044261065266316E9    -7.266428825838820E-1   7.428151864558459E-2  
 4.045011252813203E9    -7.248014048871225E-1   7.721601438522339E-2  
 4.045761440360090E9    -7.238762209347163E-1   7.850077020376922E-2  
 4.046511627906977E9    -7.224696388593430E-1   8.104398804903032E-2  
 4.047261815453864E9    -7.208743604618507E-1   8.253806320577858E-2  
 4.048012003000750E9    -7.193632383512157E-1   8.413169708847999E-2  
 4.048762190547637E9    -7.173501904829545E-1   8.625081545114517E-2  
 4.049512378094523E9    -7.153301362401687E-1   9.039048290997745E-2  
 4.050262565641410E9    -7.141149048192084E-1   9.059749294072390E-2  
 4.051012753188297E9    -7.131346913758703E-1   9.171951085329058E-2  
 4.051762940735184E9    -7.113166212730722E-1   9.166643234342338E-2  
 4.052513128282071E9    -7.095393629774665E-1   9.333502239733936E-2  
 4.053263315828957E9    -7.081812938332978E-1   9.413177904486658E-2  
 4.054013503375844E9    -7.066878686226460E-1   9.525797595083714E-2  
 4.054763690922730E9    -7.047051067727708E-1   9.747425900399685E-2  
 4.055513878469617E9    -7.039563564179230E-1   9.684958331286908E-2  
 4.056264066016504E9    -7.019904237844878E-1   9.729687701910736E-2  
 4.057014253563391E9    -7.002851778808521E-1   9.659978430718184E-2  
 4.057764441110278E9    -6.991923060856494E-1   9.783989637345078E-2  
 4.058514628657164E9    -6.984500196869573E-1   9.823530764132739E-2  
 4.059264816204051E9    -6.973800651178396E-1   9.800520537793636E-2  
 4.060015003750938E9    -6.963892355908868E-1   9.799063429981472E-2  
 4.060765191297824E9    -6.947452632520187E-1   9.794230882078410E-2  
 4.061515378844711E9    -6.939369153418119E-1   9.843077831715347E-2  
 4.062265566391598E9    -6.946568699447879E-1   9.743476093560459E-2  
 4.063015753938485E9    -6.928963499875317E-1   9.726728790998461E-2  
 4.063765941485371E9    -6.924506170086628E-1   9.717422683537010E-2  
 4.064516129032258E9    -6.922238736988842E-1   9.682394237816336E-2  
 4.065266316579145E9    -6.916422827058857E-1   9.642083530128003E-2  
 4.066016504126031E9    -6.910505702869291E-1   9.655794205516577E-2  
 4.066766691672918E9    -6.914626973579993E-1   9.623392366617919E-2  
 4.067516879219805E9    -6.918831623723100E-1   9.615691342204813E-2  
 4.068267066766692E9    -6.915887792397280E-1   9.603948947787286E-2  
 4.069017254313579E9    -6.922579209709607E-1   9.448296622931959E-2  
 4.069767441860465E9    -6.926878282736541E-1   9.460352887213232E-2  
 4.070517629407352E9    -6.930542125038856E-1   9.476443019509317E-2  
 4.071267816954238E9    -6.940649419603985E-1   9.498039397597312E-2  
 4.072018004501125E9    -6.948601042876968E-1   9.447624545544386E-2  
 4.072768192048012E9    -6.955975914278957E-1   9.527025882154705E-2  
 4.073518379594899E9    -6.963104137413017E-1   9.479971991479398E-2  
 4.074268567141786E9    -6.979076861889915E-1   9.549095820635557E-2  
 4.075018754688672E9    -6.990025037439529E-1   9.568412328511479E-2  
 4.075768942235559E9    -7.002095916048524E-1   9.711239050328732E-2  
 4.076519129782445E9    -7.013031876969713E-1   9.751158393919471E-2  
 4.077269317329332E9    -7.027433914218791E-1   9.851596500724556E-2  
 4.078019504876219E9    -7.033680812126776E-1   9.896192435175182E-2  
 4.078769692423106E9    -7.045606000484261E-1   1.000834741145373E-1  
 4.079519879969993E9    -7.060192979792117E-1   1.023742240518332E-1  
 4.080270067516879E9    -7.069553702583713E-1   1.040078659430146E-1  
 4.081020255063766E9    -7.085526425412356E-1   1.052186109796166E-1  
 4.081770442610652E9    -7.085742815594729E-1   1.077294431403279E-1  
 4.082520630157539E9    -7.100108034821502E-1   1.100153694674373E-1  
 4.083270817704426E9    -7.113769303432551E-1   1.120332097336650E-1  
 4.084021005251313E9    -7.111918235769208E-1   1.138138363063335E-1  
 4.084771192798200E9    -7.131803624373689E-1   1.162706375643611E-1  
 4.085521380345086E9    -7.128419109731614E-1   1.189380640089512E-1  
 4.086271567891973E9    -7.128380240737622E-1   1.209071098491550E-1  
 4.087021755438860E9    -7.133904458093213E-1   1.234563505500555E-1  
 4.087771942985746E9    -7.137853246450784E-1   1.266939352005720E-1  
 4.088522130532633E9    -7.140076255696215E-1   1.285149109810591E-1  
 4.089272318079520E9    -7.132175224225151E-1   1.317605127841234E-1  
 4.090022505626407E9    -7.136020293483422E-1   1.347588537931442E-1  
 4.090772693173293E9    -7.127841088616211E-1   1.368772674649954E-1  
 4.091522880720180E9    -7.121743937883824E-1   1.406735894680023E-1  
 4.092273068267067E9    -7.115908290458703E-1   1.421353235989809E-1  
 4.093023255813953E9    -7.097206113429940E-1   1.452424156516790E-1  
 4.093773443360840E9    -7.095923424923005E-1   1.474304347336292E-1  
 4.094523630907727E9    -7.086081445008935E-1   1.502257607579232E-1  
 4.095273818454614E9    -7.073282864483901E-1   1.523414012938738E-1  
 4.096024006001500E9    -7.059140383821086E-1   1.550360213667155E-1  
 4.096774193548387E9    -7.045303609237407E-1   1.567068761587143E-1  
 4.097524381095274E9    -7.026247730412213E-1   1.590409089624882E-1  
 4.098274568642160E9    -7.014108550917654E-1   1.613592617064714E-1  
 4.099024756189047E9    -6.993791319743004E-1   1.628481140583754E-1  
 4.099774943735934E9    -6.982452594971693E-1   1.639322049319744E-1  
 4.100525131282821E9    -6.957065873983057E-1   1.659181923866272E-1  
 4.101275318829708E9    -6.950725205790511E-1   1.672331293076277E-1  
 4.102025506376594E9    -6.930927347247384E-1   1.692084723562003E-1  
 4.102775693923481E9    -6.915475390909651E-1   1.704433678686619E-1  
 4.103525881470367E9    -6.898329038994125E-1   1.717495759725570E-1  
 4.104276069017254E9    -6.888089654521594E-1   1.716138333678246E-1  
 4.105026256564141E9    -6.853641057773459E-1   1.727782396972180E-1  
 4.105776444111028E9    -6.854922001782049E-1   1.740545295774937E-1  
 4.106526631657915E9    -6.834901439675286E-1   1.748788644075394E-1  
 4.107276819204801E9    -6.820564117133949E-1   1.756063647419214E-1  
 4.108027006751688E9    -6.804379557539877E-1   1.762319134026766E-1  
 4.108777194298574E9    -6.791395577284242E-1   1.772443879693746E-1  
 4.109527381845461E9    -6.773691166379060E-1   1.770405545532704E-1  
 4.110277569392348E9    -6.758734434912787E-1   1.770327621698380E-1  
 4.111027756939235E9    -6.758488408741394E-1   1.775014563202858E-1  
 4.111777944486122E9    -6.747336687864660E-1   1.779425295740366E-1  
 4.112528132033008E9    -6.731709830589390E-1   1.773624214828014E-1  
 4.113278319579895E9    -6.724435702040358E-1   1.781846609860659E-1  
 4.114028507126782E9    -6.712621648720202E-1   1.785423373132944E-1  
 4.114778694673668E9    -6.711840748850124E-1   1.774944724887611E-1  
 4.115528882220555E9    -6.703821660078745E-1   1.769182091057301E-1  
 4.116279069767442E9    -6.707403386983081E-1   1.777560928612948E-1  
 4.117029257314329E9    -6.699990833479075E-1   1.756760192662478E-1  
 4.117779444861215E9    -6.702138961254651E-1   1.768308010846376E-1  
 4.118529632408102E9    -6.694750063127261E-1   1.775798843353987E-1  
 4.119279819954989E9    -6.702380045673942E-1   1.755594491958618E-1  
 4.120030007501875E9    -6.703875504280950E-1   1.766787303388119E-1  
 4.120780195048762E9    -6.695197938439570E-1   1.786471455693245E-1  
 4.121530382595649E9    -6.707418842293104E-1   1.777433228790760E-1  
 4.122280570142536E9    -6.716086859518800E-1   1.773207110166550E-1  
 4.123030757689422E9    -6.727257662339928E-1   1.767408290654421E-1  
 4.123780945236309E9    -6.734887699169323E-1   1.766824526935816E-1  
 4.124531132783196E9    -6.740964664255910E-1   1.776826791912317E-1  
 4.125281320330082E9    -6.749978587082317E-1   1.784766727685928E-1  
 4.126031507876969E9    -6.757381256666459E-1   1.789939360618592E-1  
 4.126781695423856E9    -6.771293671467057E-1   1.786982809454203E-1  
 4.127531882970743E9    -6.777374003208472E-1   1.804284349232912E-1  
 4.128282070517630E9    -6.793613675935675E-1   1.815983293354512E-1  
 4.129032258064516E9    -6.802455787050228E-1   1.831141794770956E-1  
 4.129782445611403E9    -6.815046145001320E-1   1.821856598556042E-1  
 4.130532633158289E9    -6.826183730727806E-1   1.846695978641511E-1  
 4.131282820705176E9    -6.834977390843980E-1   1.862735991925001E-1  
 4.132033008252063E9    -6.846037184942508E-1   1.884185699522496E-1  
 4.132783195798950E9    -6.850646566453701E-1   1.904404390752316E-1  
 4.133533383345837E9    -6.863765768801354E-1   1.925114948004484E-1  
 4.134283570892723E9    -6.874098502786116E-1   1.935609125941992E-1  
 4.135033758439610E9    -6.885353349808163E-1   1.955472044497729E-1  
 4.135783945986496E9    -6.887561942826218E-1   1.979057390987873E-1  
 4.136534133533383E9    -6.896606092933159E-1   1.999412167817354E-1  
 4.137284321080270E9    -6.900600081958803E-1   2.015505203753710E-1  
 4.138034508627157E9    -6.893203850962981E-1   2.048791218250990E-1  
 4.138784696174044E9    -6.897470426267465E-1   2.067684871554375E-1  
 4.139534883720930E9    -6.892363622749468E-1   2.109346046596766E-1  
 4.140285071267817E9    -6.900755032111191E-1   2.120983654409647E-1  
 4.141035258814704E9    -6.895077237189200E-1   2.146969457417727E-1  
 4.141785446361590E9    -6.896496386107013E-1   2.163468225896359E-1  
 4.142535633908477E9    -6.885748753741263E-1   2.201249203979970E-1  
 4.143285821455364E9    -6.869959100063455E-1   2.231871109902859E-1  
 4.144036009002251E9    -6.867279894640077E-1   2.250247889906168E-1  
 4.144786196549137E9    -6.856427739464600E-1   2.282239868640900E-1  
 4.145536384096024E9    -6.839778767489624E-1   2.300544694811106E-1  
 4.146286571642911E9    -6.827990505454233E-1   2.317894347012043E-1  
 4.147036759189797E9    -6.818430726245273E-1   2.351686829030514E-1  
 4.147786946736684E9    -6.792856395522210E-1   2.371081524640322E-1  
 4.148537134283571E9    -6.785639916591267E-1   2.388870118260384E-1  
 4.149287321830458E9    -6.760272920016854E-1   2.411079407483340E-1  
 4.150037509377344E9    -6.738384370465922E-1   2.422870672941208E-1  
 4.150787696924231E9    -6.721156770208493E-1   2.442090988904238E-1  
 4.151537884471118E9    -6.707282488739914E-1   2.458476446419955E-1  
 4.152288072018004E9    -6.683922657057912E-1   2.473138010948897E-1  
 4.153038259564891E9    -6.664653805257237E-1   2.485355423539877E-1  
 4.153788447111778E9    -6.638398361208404E-1   2.494902280420066E-1  
 4.154538634658665E9    -6.621177531136929E-1   2.506763267070055E-1  
 4.155288822205551E9    -6.605334561192670E-1   2.508831400871278E-1  
 4.156039009752438E9    -6.585127112618266E-1   2.524509022235871E-1  
 4.156789197299325E9    -6.562762610784461E-1   2.544271158874035E-1  
 4.157539384846211E9    -6.550259429119888E-1   2.540962299704552E-1  
 4.158289572393098E9    -6.527992871946570E-1   2.550955008268357E-1  
 4.159039759939985E9    -6.506097918423220E-1   2.554384450316429E-1  
 4.159789947486872E9    -6.487437483377516E-1   2.557659861147404E-1  
 4.160540135033759E9    -6.471233150442020E-1   2.553308666348458E-1  
 4.161290322580645E9    -6.455990747278200E-1   2.556660306453704E-1  
 4.162040510127532E9    -6.433367574298714E-1   2.552831768691540E-1  
 4.162790697674418E9    -6.418588217175483E-1   2.554442420899868E-1  
 4.163540885221305E9    -6.414640496762403E-1   2.556284766495228E-1  
 4.164291072768192E9    -6.395401395143555E-1   2.547482639253139E-1  
 4.165041260315079E9    -6.385854146373112E-1   2.549685507118702E-1  
 4.165791447861966E9    -6.370844714688934E-1   2.539663014113904E-1  
 4.166541635408852E9    -6.356746695705857E-1   2.538663651049137E-1  
 4.167291822955739E9    -6.351557830569748E-1   2.533145250976085E-1  
 4.168042010502626E9    -6.350246416570392E-1   2.537659785747529E-1  
 4.168792198049512E9    -6.345333862557698E-1   2.533883170485497E-1  
 4.169542385596399E9    -6.338038370919449E-1   2.527502965629102E-1  
 4.170292573143286E9    -6.339805166415172E-1   2.518638640344143E-1  
 4.171042760690173E9    -6.335018120783879E-1   2.513962956070900E-1  
 4.171792948237059E9    -6.335603871885986E-1   2.510942459404469E-1  
 4.172543135783946E9    -6.341191372400368E-1   2.500455597639084E-1  
 4.173293323330833E9    -6.340537852089352E-1   2.502995244711638E-1  
 4.174043510877719E9    -6.353264616504709E-1   2.498754132091999E-1  
 4.174793698424606E9    -6.352364869912031E-1   2.498470417410136E-1  
 4.175543885971493E9    -6.352649516646108E-1   2.511467369794845E-1  
 4.176294073518380E9    -6.367229023090395E-1   2.503363502770662E-1  
 4.177044261065266E9    -6.382095756781440E-1   2.504268098771573E-1  
 4.177794448612153E9    -6.387616704400904E-1   2.503680052310228E-1  
 4.178544636159040E9    -6.399826802210947E-1   2.516174738705158E-1  
 4.179294823705926E9    -6.410260219556654E-1   2.523105084598065E-1  
 4.180045011252813E9    -6.418537003961209E-1   2.534555936157704E-1  
 4.180795198799700E9    -6.420005333538805E-1   2.536203649342060E-1  
 4.181545386346587E9    -6.445731761735382E-1   2.542214975953103E-1  
 4.182295573893473E9    -6.456103603335809E-1   2.559620487689973E-1  
 4.183045761440360E9    -6.475659073010723E-1   2.568390654921532E-1  
 4.183795948987247E9    -6.480110432933007E-1   2.581757270097733E-1  
 4.184546136534133E9    -6.497814776685575E-1   2.602703679203988E-1  
 4.185296324081020E9    -6.494100391235865E-1   2.624347316026688E-1  
 4.186046511627907E9    -6.512146247660129E-1   2.646358475387097E-1  
 4.186796699174794E9    -6.523638459561358E-1   2.665926024317741E-1  
 4.187546886721681E9    -6.540836399078643E-1   2.687873844504357E-1  
 4.188297074268567E9    -6.539918250895124E-1   2.705054062604905E-1  
 4.189047261815454E9    -6.545977137127398E-1   2.733273924887181E-1  
 4.189797449362341E9    -6.551901474108519E-1   2.767456028163433E-1  
 4.190547636909227E9    -6.556846159692173E-1   2.790824468135834E-1  
 4.191297824456114E9    -6.555664997296139E-1   2.806172838211060E-1  
 4.192048012003001E9    -6.561664748789593E-1   2.835003537535668E-1  
 4.192798199549888E9    -6.555859224561041E-1   2.863024230301381E-1  
 4.193548387096774E9    -6.560953408062592E-1   2.896989855170250E-1  
 4.194298574643661E9    -6.556324557910905E-1   2.925388020575047E-1  
 4.195048762190548E9    -6.551218112068354E-1   2.946426048576832E-1  
 4.195798949737434E9    -6.544493928578203E-1   2.977299753129483E-1  
 4.196549137284321E9    -6.531887811538009E-1   3.007156171500683E-1  
 4.197299324831208E9    -6.527913325400698E-1   3.034271556138993E-1  
 4.198049512378095E9    -6.507340273017961E-1   3.064367846250535E-1  
 4.198799699924981E9    -6.501492460395396E-1   3.083691517412663E-1  
 4.199549887471868E9    -6.481474384877413E-1   3.115486871600152E-1  
 4.200300075018755E9    -6.463140198118073E-1   3.124187700748444E-1  
 4.201050262565641E9    -6.441324205669292E-1   3.165474734902383E-1  
 4.201800450112528E9    -6.424346229966156E-1   3.188789020478726E-1  
 4.202550637659415E9    -6.413368943065021E-1   3.191703415215016E-1  
 4.203300825206302E9    -6.391092171214950E-1   3.212505125701428E-1  
 4.204051012753188E9    -6.372775361191738E-1   3.226930350363254E-1  
 4.204801200300075E9    -6.347722597076676E-1   3.251176756024362E-1  
 4.205551387846962E9    -6.328661200561720E-1   3.270018049180508E-1  
 4.206301575393848E9    -6.306811238557850E-1   3.274454078674317E-1  
 4.207051762940735E9    -6.272257530607516E-1   3.289844883680343E-1  
 4.207801950487622E9    -6.252669791938860E-1   3.297736292183399E-1  
 4.208552138034509E9    -6.231790828827091E-1   3.302671691775322E-1  
