#  HZ   S   RI   R     50.0 
! Rohde & Schwarz ZVL13 2Ports - Version 3.31 - 1303.6509k13 SN: 101088
! Date: 2023-03-03 14:37:02
! Data & Calibration Information:
! Trc2:S21(TOSM)
! 
! 
! 
 4.000000000000000E9    -7.164392938382891E-1   1.581192398822274E-2  
 4.000750187546887E9    -7.140262413238463E-1   1.632532667374606E-2  
 4.001500375093773E9    -7.132873658475991E-1   1.665677041572043E-2  
 4.002250562640660E9    -7.110645440620380E-1   1.966593983029348E-2  
 4.003000750187547E9    -7.098797489598951E-1   1.817574805171806E-2  
 4.003750937734434E9    -7.079787935301604E-1   1.805050860541417E-2  
 4.004501125281320E9    -7.065836874277021E-1   1.794842229842849E-2  
 4.005251312828207E9    -7.053942511441380E-1   1.805692900128581E-2  
 4.006001500375094E9    -7.044163006307991E-1   1.743409942250893E-2  
 4.006751687921980E9    -7.026240281068378E-1   1.705002094194979E-2  
 4.007501875468867E9    -7.015288683345561E-1   1.744268950071901E-2  
 4.008252063015754E9    -7.006628348953400E-1   1.718656435168727E-2  
 4.009002250562641E9    -6.995039149752941E-1   1.637461847048177E-2  
 4.009752438109528E9    -6.991505044518142E-1   1.571847640765839E-2  
 4.010502625656414E9    -6.979154535852613E-1   1.510224710681471E-2  
 4.011252813203301E9    -6.976688350815145E-1   1.461391375773614E-2  
 4.012003000750187E9    -6.964953584981710E-1   1.444438056338338E-2  
 4.012753188297074E9    -6.965514867278192E-1   1.286630432275997E-2  
 4.013503375843961E9    -6.964759592645854E-1   1.330272789932242E-2  
 4.014253563390848E9    -6.970742177398673E-1   1.165131460311923E-2  
 4.015003750937735E9    -6.967650779196627E-1   1.103428830046660E-2  
 4.015753938484621E9    -6.977942251482225E-1   1.079217418711045E-2  
 4.016504126031508E9    -6.982720947078978E-1   1.033107419583003E-2  
 4.017254313578394E9    -6.990746710382320E-1   9.394146406540379E-3  
 4.018004501125281E9    -6.995501964100053E-1   8.858949466524593E-3  
 4.018754688672168E9    -7.005189722554773E-1   8.338544673372752E-3  
 4.019504876219055E9    -7.025280460014001E-1   8.126202028818072E-3  
 4.020255063765942E9    -7.034185396729367E-1   8.747947787479051E-3  
 4.021005251312828E9    -7.046559096257204E-1   8.419856516250317E-3  
 4.021755438859715E9    -7.068385657853199E-1   8.318312327069827E-3  
 4.022505626406601E9    -7.080787046772441E-1   9.866521227460207E-3  
 4.023255813953488E9    -7.091819560622950E-1   1.050577480247272E-2  
 4.024006001500375E9    -7.123754360117934E-1   1.178421336290089E-2  
 4.024756189047262E9    -7.131555992916490E-1   1.261433819878965E-2  
 4.025506376594149E9    -7.149179933507049E-1   1.306081977338097E-2  
 4.026256564141035E9    -7.164066585331171E-1   1.421713157615390E-2  
 4.027006751687922E9    -7.188240004715607E-1   1.557830583671875E-2  
 4.027756939234809E9    -7.207524508801282E-1   1.804306684427491E-2  
 4.028507126781695E9    -7.220204949950582E-1   2.038763488038232E-2  
 4.029257314328582E9    -7.238166568252178E-1   2.201659190942871E-2  
 4.030007501875469E9    -7.246329890851896E-1   2.483647237159763E-2  
 4.030757689422356E9    -7.256936128063570E-1   2.727288831933922E-2  
 4.031507876969242E9    -7.275437596658371E-1   2.988617595006995E-2  
 4.032258064516129E9    -7.283584586674632E-1   3.211881521607526E-2  
 4.033008252063016E9    -7.293051306555696E-1   3.655227184144080E-2  
 4.033758439609902E9    -7.306779054350223E-1   3.681898408075177E-2  
 4.034508627156789E9    -7.305828450124250E-1   3.938288272700162E-2  
 4.035258814703676E9    -7.312897909806135E-1   4.468361044519593E-2  
 4.036009002250563E9    -7.321085508101010E-1   4.603760288426478E-2  
 4.036759189797450E9    -7.317517847174828E-1   5.071611639942943E-2  
 4.037509377344336E9    -7.323379809242894E-1   5.608593756892820E-2  
 4.038259564891223E9    -7.314772925020733E-1   5.783618177545936E-2  
 4.039009752438109E9    -7.309957867266732E-1   6.001446819928058E-2  
 4.039759939984996E9    -7.307149977432689E-1   6.301624141129704E-2  
 4.040510127531883E9    -7.306582885605564E-1   6.527588972234585E-2  
 4.041260315078770E9    -7.291066143484279E-1   6.823511380075642E-2  
 4.042010502625657E9    -7.285127935613869E-1   7.078018320735299E-2  
 4.042760690172543E9    -7.269853432815208E-1   7.402678139289662E-2  
 4.043510877719430E9    -7.266107608038370E-1   7.668607613862823E-2  
 4.044261065266316E9    -7.252736960423244E-1   7.927277745010512E-2  
 4.045011252813203E9    -7.235769203782495E-1   8.166169680737452E-2  
 4.045761440360090E9    -7.226047756949514E-1   8.313262923576244E-2  
 4.046511627906977E9    -7.209569765101599E-1   8.574565236191133E-2  
 4.047261815453864E9    -7.195927534570210E-1   8.715765493413726E-2  
 4.048012003000750E9    -7.180618222436648E-1   8.892395647318144E-2  
 4.048762190547637E9    -7.159738918314221E-1   9.095379326168508E-2  
 4.049512378094523E9    -7.139660511774235E-1   9.461240477262523E-2  
 4.050262565641410E9    -7.127471443281015E-1   9.519689918278866E-2  
 4.051012753188297E9    -7.119847678848406E-1   9.626146606348443E-2  
 4.051762940735184E9    -7.099404272578077E-1   9.628750919027482E-2  
 4.052513128282071E9    -7.080776854458538E-1   9.792374043157259E-2  
 4.053263315828957E9    -7.067015535807820E-1   9.856152841439002E-2  
 4.054013503375844E9    -7.054094692125009E-1   9.959361747443692E-2  
 4.054763690922730E9    -7.033328163980351E-1   1.018773133090328E-1  
 4.055513878469617E9    -7.025188505094990E-1   1.016592182038875E-1  
 4.056264066016504E9    -7.003773310357480E-1   1.016523101899171E-1  
 4.057014253563391E9    -6.987568211980522E-1   1.013296940068112E-1  
 4.057764441110278E9    -6.976801777074370E-1   1.026778482121895E-1  
 4.058514628657164E9    -6.971714616952307E-1   1.025973313450772E-1  
 4.059264816204051E9    -6.958770575537207E-1   1.024788147311021E-1  
 4.060015003750938E9    -6.949700053797985E-1   1.028115706080068E-1  
 4.060765191297824E9    -6.932355168048423E-1   1.028510065509091E-1  
 4.061515378844711E9    -6.923387793482858E-1   1.029886106460747E-1  
 4.062265566391598E9    -6.930580396163389E-1   1.019007986382467E-1  
 4.063015753938485E9    -6.914575175285431E-1   1.020850914995730E-1  
 4.063765941485371E9    -6.908961228576454E-1   1.017455914307836E-1  
 4.064516129032258E9    -6.907270139035069E-1   1.015336064665389E-1  
 4.065266316579145E9    -6.903433092612606E-1   1.008797193898738E-1  
 4.066016504126031E9    -6.896597909161564E-1   1.010309383457575E-1  
 4.066766691672918E9    -6.899868493981008E-1   1.010092500150939E-1  
 4.067516879219805E9    -6.902482094474166E-1   1.006153676962955E-1  
 4.068267066766692E9    -6.901394861922708E-1   1.004600799528389E-1  
 4.069017254313579E9    -6.909108171772441E-1   9.913220423473919E-2  
 4.069767441860465E9    -6.911634872021517E-1   9.945593243934016E-2  
 4.070517629407352E9    -6.916205823061854E-1   9.915543987012897E-2  
 4.071267816954238E9    -6.926011261969558E-1   9.958196481656902E-2  
 4.072018004501125E9    -6.933682125475288E-1   9.873857153901623E-2  
 4.072768192048012E9    -6.940587296047143E-1   9.985211723679865E-2  
 4.073518379594899E9    -6.950076367427363E-1   9.919513340623673E-2  
 4.074268567141786E9    -6.965230364092723E-1   9.999550362929177E-2  
 4.075018754688672E9    -6.972883610234603E-1   1.007421310839459E-1  
 4.075768942235559E9    -6.988228348668533E-1   1.014621489658727E-1  
 4.076519129782445E9    -6.997859333266793E-1   1.019155597860614E-1  
 4.077269317329332E9    -7.014157916026245E-1   1.028240075451893E-1  
 4.078019504876219E9    -7.018422629800717E-1   1.038117837477192E-1  
 4.078769692423106E9    -7.029835222626744E-1   1.049021477972565E-1  
 4.079519879969993E9    -7.044880352945746E-1   1.070025288200061E-1  
 4.080270067516879E9    -7.054369881506799E-1   1.085891930310426E-1  
 4.081020255063766E9    -7.070309577974080E-1   1.097347945335701E-1  
 4.081770442610652E9    -7.070909628171936E-1   1.122631888611421E-1  
 4.082520630157539E9    -7.086225868257203E-1   1.145620091532345E-1  
 4.083270817704426E9    -7.097919621843412E-1   1.164515755131950E-1  
 4.084021005251313E9    -7.097297916551167E-1   1.184062445241399E-1  
 4.084771192798200E9    -7.114695141292899E-1   1.209385865746420E-1  
 4.085521380345086E9    -7.113968883964696E-1   1.236325812267816E-1  
 4.086271567891973E9    -7.112262336815166E-1   1.256960299369450E-1  
 4.087021755438860E9    -7.118243325087225E-1   1.279742455950894E-1  
 4.087771942985746E9    -7.121675220423380E-1   1.310859380842201E-1  
 4.088522130532633E9    -7.123785496567101E-1   1.331471256411708E-1  
 4.089272318079520E9    -7.116260640905053E-1   1.359727579859164E-1  
 4.090022505626407E9    -7.120226288621235E-1   1.393764687056275E-1  
 4.090772693173293E9    -7.111259023214122E-1   1.415141205066918E-1  
 4.091522880720180E9    -7.105759985075216E-1   1.450372453951911E-1  
 4.092273068267067E9    -7.097221074940047E-1   1.468757245024951E-1  
 4.093023255813953E9    -7.079678889120525E-1   1.499535966076918E-1  
 4.093773443360840E9    -7.076862994987877E-1   1.521138336471363E-1  
 4.094523630907727E9    -7.066573104325788E-1   1.547633577764175E-1  
 4.095273818454614E9    -7.054413217698934E-1   1.569498689339124E-1  
 4.096024006001500E9    -7.038999929953624E-1   1.596903398181828E-1  
 4.096774193548387E9    -7.026767365595767E-1   1.614324435776829E-1  
 4.097524381095274E9    -7.007911080710503E-1   1.635343600855395E-1  
 4.098274568642160E9    -6.995779305075559E-1   1.660219226794331E-1  
 4.099024756189047E9    -6.975378698527349E-1   1.672486133725141E-1  
 4.099774943735934E9    -6.962915158872280E-1   1.684950627947730E-1  
 4.100525131282821E9    -6.939561829361858E-1   1.705637604611518E-1  
 4.101275318829708E9    -6.931205617325373E-1   1.719330621164109E-1  
 4.102025506376594E9    -6.911280374585502E-1   1.736657080218917E-1  
 4.102775693923481E9    -6.895637782429719E-1   1.748160223600939E-1  
 4.103525881470367E9    -6.878330664534256E-1   1.759564228376704E-1  
 4.104276069017254E9    -6.868401305122007E-1   1.761922695344318E-1  
 4.105026256564141E9    -6.833552659241676E-1   1.773558283249191E-1  
 4.105776444111028E9    -6.834756390676045E-1   1.785027676125154E-1  
 4.106526631657915E9    -6.814378690465347E-1   1.793462031301558E-1  
 4.107276819204801E9    -6.801325637763308E-1   1.799159602597562E-1  
 4.108027006751688E9    -6.785223878924624E-1   1.806080575254417E-1  
 4.108777194298574E9    -6.772535780781513E-1   1.816176822499036E-1  
 4.109527381845461E9    -6.752866209639798E-1   1.812716991246691E-1  
 4.110277569392348E9    -6.737739282998850E-1   1.812937307892077E-1  
 4.111027756939235E9    -6.735006220909705E-1   1.819817425917998E-1  
 4.111777944486122E9    -6.728209537166870E-1   1.825373473329879E-1  
 4.112528132033008E9    -6.712955012621424E-1   1.818558842579880E-1  
 4.113278319579895E9    -6.702270660490510E-1   1.828387560762466E-1  
 4.114028507126782E9    -6.690262928244445E-1   1.825615312816531E-1  
 4.114778694673668E9    -6.690353639281285E-1   1.816238434650374E-1  
 4.115528882220555E9    -6.683051921649786E-1   1.814945596361930E-1  
 4.116279069767442E9    -6.687987569829362E-1   1.824570953475282E-1  
 4.117029257314329E9    -6.678922566137591E-1   1.799666003903439E-1  
 4.117779444861215E9    -6.681375034473254E-1   1.809723768453399E-1  
 4.118529632408102E9    -6.674988132595446E-1   1.819662179112221E-1  
 4.119279819954989E9    -6.680799374067800E-1   1.800429847552970E-1  
 4.120030007501875E9    -6.682533925326747E-1   1.809829971136407E-1  
 4.120780195048762E9    -6.675710792820616E-1   1.830336216194785E-1  
 4.121530382595649E9    -6.686096233056608E-1   1.821761359144120E-1  
 4.122280570142536E9    -6.694566712836750E-1   1.816095300882893E-1  
 4.123030757689422E9    -6.706645959424616E-1   1.811811073558216E-1  
 4.123780945236309E9    -6.713682140833470E-1   1.810859160938503E-1  
 4.124531132783196E9    -6.720839188560719E-1   1.817762575269487E-1  
 4.125281320330082E9    -6.731879138763278E-1   1.826834979659706E-1  
 4.126031507876969E9    -6.736875036292279E-1   1.832090623138938E-1  
 4.126781695423856E9    -6.747928257202828E-1   1.833877301280458E-1  
 4.127531882970743E9    -6.757299648401286E-1   1.847233306084319E-1  
 4.128282070517630E9    -6.773485443149548E-1   1.857907184009944E-1  
 4.129032258064516E9    -6.778700847999875E-1   1.875433427850811E-1  
 4.129782445611403E9    -6.793265796676150E-1   1.866941648388627E-1  
 4.130532633158289E9    -6.804698620030590E-1   1.890545122783942E-1  
 4.131282820705176E9    -6.812544841220695E-1   1.906176881405348E-1  
 4.132033008252063E9    -6.824946252220976E-1   1.929364764844564E-1  
 4.132783195798950E9    -6.828846462954205E-1   1.945941908300128E-1  
 4.133533383345837E9    -6.841581905246216E-1   1.970241016747986E-1  
 4.134283570892723E9    -6.850982141643012E-1   1.978189420177839E-1  
 4.135033758439610E9    -6.863803831574898E-1   1.997691323655519E-1  
 4.135783945986496E9    -6.867623467509874E-1   2.021803830298603E-1  
 4.136534133533383E9    -6.873680825359698E-1   2.041954234848300E-1  
 4.137284321080270E9    -6.878635482036432E-1   2.059101509346292E-1  
 4.138034508627157E9    -6.872672371282186E-1   2.093555473408328E-1  
 4.138784696174044E9    -6.875871603478582E-1   2.112162993005954E-1  
 4.139534883720930E9    -6.869657182393295E-1   2.153027116209606E-1  
 4.140285071267817E9    -6.877676947938379E-1   2.165228231966721E-1  
 4.141035258814704E9    -6.873340824150864E-1   2.186203513881347E-1  
 4.141785446361590E9    -6.872329906392862E-1   2.207694066869800E-1  
 4.142535633908477E9    -6.860771014977394E-1   2.244337958485756E-1  
 4.143285821455364E9    -6.847057214996538E-1   2.274927759657923E-1  
 4.144036009002251E9    -6.843227798154172E-1   2.295105459641421E-1  
 4.144786196549137E9    -6.831644134647885E-1   2.326038327940755E-1  
 4.145536384096024E9    -6.815373218465861E-1   2.342976847029962E-1  
 4.146286571642911E9    -6.806175150280716E-1   2.361643021203840E-1  
 4.147036759189797E9    -6.794614808967144E-1   2.394098367788931E-1  
 4.147786946736684E9    -6.769659256890066E-1   2.414715186104659E-1  
 4.148537134283571E9    -6.761139669068410E-1   2.431898838566562E-1  
 4.149287321830458E9    -6.736351039022145E-1   2.453865595274595E-1  
 4.150037509377344E9    -6.715675346794818E-1   2.466318582795734E-1  
 4.150787696924231E9    -6.696467895743051E-1   2.482741376480698E-1  
 4.151537884471118E9    -6.683239493877716E-1   2.499370310204244E-1  
 4.152288072018004E9    -6.658670182649663E-1   2.513964568952918E-1  
 4.153038259564891E9    -6.640103080261050E-1   2.528356703121171E-1  
 4.153788447111778E9    -6.616019495776511E-1   2.535611103903785E-1  
 4.154538634658665E9    -6.595980269202100E-1   2.549597680053723E-1  
 4.155288822205551E9    -6.577667481598584E-1   2.551928749753842E-1  
 4.156039009752438E9    -6.560273016446531E-1   2.566865683292306E-1  
 4.156789197299325E9    -6.536092556203264E-1   2.585653344391325E-1  
 4.157539384846211E9    -6.524803499916385E-1   2.582284110752640E-1  
 4.158289572393098E9    -6.504661940344425E-1   2.593290364413661E-1  
 4.159039759939985E9    -6.481647135151287E-1   2.593649526220191E-1  
 4.159789947486872E9    -6.463835302347474E-1   2.599134287242294E-1  
 4.160540135033759E9    -6.447241781625895E-1   2.594198741496900E-1  
 4.161290322580645E9    -6.429544672800380E-1   2.599246209671483E-1  
 4.162040510127532E9    -6.408180592981343E-1   2.594366289328531E-1  
 4.162790697674418E9    -6.393836598502410E-1   2.595370249214298E-1  
 4.163540885221305E9    -6.388955271910105E-1   2.595642168828724E-1  
 4.164291072768192E9    -6.369926884739193E-1   2.587654281207037E-1  
 4.165041260315079E9    -6.363301302471416E-1   2.588195924017343E-1  
 4.165791447861966E9    -6.345466575516910E-1   2.580026060622228E-1  
 4.166541635408852E9    -6.332924501224071E-1   2.578007983011851E-1  
 4.167291822955739E9    -6.326179310751270E-1   2.576023106472120E-1  
 4.168042010502626E9    -6.324708295971295E-1   2.579272003352172E-1  
 4.168792198049512E9    -6.318889400160156E-1   2.574954275939587E-1  
 4.169542385596399E9    -6.312919774401191E-1   2.569853885734365E-1  
 4.170292573143286E9    -6.314995568441537E-1   2.558995353219411E-1  
 4.171042760690173E9    -6.311618245745984E-1   2.551596012005785E-1  
 4.171792948237059E9    -6.310468477051215E-1   2.550549062579516E-1  
 4.172543135783946E9    -6.315537435052434E-1   2.542207787073440E-1  
 4.173293323330833E9    -6.314005243826749E-1   2.545100108929113E-1  
 4.174043510877719E9    -6.326951944158102E-1   2.539578061726878E-1  
 4.174793698424606E9    -6.328414656124994E-1   2.538411280636856E-1  
 4.175543885971493E9    -6.329006240137280E-1   2.551479411481021E-1  
 4.176294073518380E9    -6.341965078606943E-1   2.542033539432776E-1  
 4.177044261065266E9    -6.357153002755822E-1   2.546042383106453E-1  
 4.177794448612153E9    -6.361093598140294E-1   2.546140121403140E-1  
 4.178544636159040E9    -6.375164941511661E-1   2.555028709383733E-1  
 4.179294823705926E9    -6.385758365095186E-1   2.561682447188354E-1  
 4.180045011252813E9    -6.392791270635907E-1   2.575096726362330E-1  
 4.180795198799700E9    -6.395217872565583E-1   2.578459453661344E-1  
 4.181545386346587E9    -6.418693143243899E-1   2.582130047211972E-1  
 4.182295573893473E9    -6.431001022265710E-1   2.600045914791844E-1  
 4.183045761440360E9    -6.450651142641452E-1   2.609202726291854E-1  
 4.183795948987247E9    -6.453692718631285E-1   2.621321526923010E-1  
 4.184546136534133E9    -6.472430336305455E-1   2.642793066550396E-1  
 4.185296324081020E9    -6.470366664976899E-1   2.662637824399979E-1  
 4.186046511627907E9    -6.485761773063791E-1   2.687227029995284E-1  
 4.186796699174794E9    -6.496893692869890E-1   2.707364945527864E-1  
 4.187546886721681E9    -6.513172185878355E-1   2.727082171518541E-1  
 4.188297074268567E9    -6.513064551064112E-1   2.746252597531831E-1  
 4.189047261815454E9    -6.519127292179963E-1   2.772604478178046E-1  
 4.189797449362341E9    -6.525323153122834E-1   2.806355975262204E-1  
 4.190547636909227E9    -6.529894487002415E-1   2.830590363152507E-1  
 4.191297824456114E9    -6.529587713902890E-1   2.847247280557525E-1  
 4.192048012003001E9    -6.535434052605416E-1   2.875797014609424E-1  
 4.192798199549888E9    -6.528951583638809E-1   2.901620007160610E-1  
 4.193548387096774E9    -6.532889658819022E-1   2.936520665412659E-1  
 4.194298574643661E9    -6.527790081076164E-1   2.965787366781664E-1  
 4.195048762190548E9    -6.521437486939071E-1   2.986370136730174E-1  
 4.195798949737434E9    -6.518268939583171E-1   3.018911032820655E-1  
 4.196549137284321E9    -6.503850885518721E-1   3.044769290037067E-1  
 4.197299324831208E9    -6.501081566041987E-1   3.071317981118303E-1  
 4.198049512378095E9    -6.478567915821549E-1   3.105281895836937E-1  
 4.198799699924981E9    -6.474249524479144E-1   3.124469195203988E-1  
 4.199549887471868E9    -6.452650423788647E-1   3.156501960291911E-1  
 4.200300075018755E9    -6.434162891033403E-1   3.164358052957324E-1  
 4.201050262565641E9    -6.412097376926378E-1   3.204738707480276E-1  
 4.201800450112528E9    -6.395433329666117E-1   3.227271785857186E-1  
 4.202550637659415E9    -6.386279438515975E-1   3.229436782988975E-1  
 4.203300825206302E9    -6.360207045673409E-1   3.251289805460635E-1  
 4.204051012753188E9    -6.344201971275972E-1   3.262961116766632E-1  
 4.204801200300075E9    -6.317703947677719E-1   3.290070772367737E-1  
 4.205551387846962E9    -6.299058113642683E-1   3.306759580524061E-1  
 4.206301575393848E9    -6.275438168521380E-1   3.310783718694143E-1  
 4.207051762940735E9    -6.243074566791665E-1   3.327737384707242E-1  
 4.207801950487622E9    -6.222016816624109E-1   3.337461156032998E-1  
 4.208552138034509E9    -6.203397284475407E-1   3.340635858475345E-1  
