#  HZ   S   RI   R     50.0 
! Rohde & Schwarz ZVL13 2Ports - Version 3.31 - 1303.6509k13 SN: 101088
! Date: 2023-03-03 14:38:06
! Data & Calibration Information:
! Trc2:S21(TOSM)
! 
! 
! 
 4.000000000000000E9    -7.164291002196823E-1   1.570484320633114E-2  
 4.000750187546887E9    -7.139006788506599E-1   1.589787068776787E-2  
 4.001500375093773E9    -7.131790654662422E-1   1.648988391272723E-2  
 4.002250562640660E9    -7.111336744976630E-1   1.966920023784041E-2  
 4.003000750187547E9    -7.098711541974424E-1   1.779864422976971E-2  
 4.003750937734434E9    -7.079216328638338E-1   1.767218407243490E-2  
 4.004501125281320E9    -7.065885914987934E-1   1.778599465265870E-2  
 4.005251312828207E9    -7.053964010607051E-1   1.812897544354200E-2  
 4.006001500375094E9    -7.042867618477731E-1   1.766147734597326E-2  
 4.006751687921980E9    -7.025673544657402E-1   1.675975555554032E-2  
 4.007501875468867E9    -7.015652030736796E-1   1.708898751065135E-2  
 4.008252063015754E9    -7.006445745971572E-1   1.706612115725875E-2  
 4.009002250562641E9    -6.996093683819132E-1   1.649333495646715E-2  
 4.009752438109528E9    -6.993665702443378E-1   1.545108204707504E-2  
 4.010502625656414E9    -6.978743510148990E-1   1.501724744215608E-2  
 4.011252813203301E9    -6.977430052916289E-1   1.456364686600864E-2  
 4.012003000750187E9    -6.965709886877378E-1   1.419188230298460E-2  
 4.012753188297074E9    -6.966182649035602E-1   1.252496162429452E-2  
 4.013503375843961E9    -6.964794591153560E-1   1.294898018240929E-2  
 4.014253563390848E9    -6.970223409335649E-1   1.147554713301361E-2  
 4.015003750937735E9    -6.969017526548966E-1   1.085851499810815E-2  
 4.015753938484621E9    -6.978873834489511E-1   1.052446422167123E-2  
 4.016504126031508E9    -6.983182216919652E-1   1.025695030577481E-2  
 4.017254313578394E9    -6.991552991366905E-1   9.408103032037617E-3  
 4.018004501125281E9    -6.997559962884224E-1   8.583907540887593E-3  
 4.018754688672168E9    -7.007903008899631E-1   8.204006082378328E-3  
 4.019504876219055E9    -7.024681935278052E-1   7.929207445122304E-3  
 4.020255063765942E9    -7.034825146436526E-1   8.616381799802184E-3  
 4.021005251312828E9    -7.046311553243383E-1   8.600399959832432E-3  
 4.021755438859715E9    -7.066769302688665E-1   7.983327847905456E-3  
 4.022505626406601E9    -7.082850987558916E-1   9.700680077075960E-3  
 4.023255813953488E9    -7.093720671329872E-1   1.070553970523178E-2  
 4.024006001500375E9    -7.123210950170750E-1   1.161981339566410E-2  
 4.024756189047262E9    -7.131577931538173E-1   1.223739459179342E-2  
 4.025506376594149E9    -7.150259432943352E-1   1.287503699772060E-2  
 4.026256564141035E9    -7.164252256133725E-1   1.420771373435855E-2  
 4.027006751687922E9    -7.188775383401808E-1   1.539844895713032E-2  
 4.027756939234809E9    -7.207089339929027E-1   1.789106436073780E-2  
 4.028507126781695E9    -7.220721634809916E-1   2.019908182322979E-2  
 4.029257314328582E9    -7.239020139353746E-1   2.184778172522784E-2  
 4.030007501875469E9    -7.245848923150394E-1   2.461369929835201E-2  
 4.030757689422356E9    -7.259382749294040E-1   2.721093047410250E-2  
 4.031507876969242E9    -7.277939377996627E-1   2.949920872226357E-2  
 4.032258064516129E9    -7.283381191551326E-1   3.185369379818440E-2  
 4.033008252063016E9    -7.295403171860381E-1   3.632742293179036E-2  
 4.033758439609902E9    -7.307648106992244E-1   3.658354997634888E-2  
 4.034508627156789E9    -7.307827276567493E-1   3.924022730439902E-2  
 4.035258814703676E9    -7.313510006196999E-1   4.459809549152851E-2  
 4.036009002250563E9    -7.322332849508499E-1   4.584610454738141E-2  
 4.036759189797450E9    -7.319167017614789E-1   5.032070249319077E-2  
 4.037509377344336E9    -7.324539906846898E-1   5.616057787090540E-2  
 4.038259564891223E9    -7.317038287578664E-1   5.774722229689360E-2  
 4.039009752438109E9    -7.310690844786641E-1   5.970579124987126E-2  
 4.039759939984996E9    -7.307277216525748E-1   6.267712336033582E-2  
 4.040510127531883E9    -7.307379200627839E-1   6.522197037935257E-2  
 4.041260315078770E9    -7.292297847127716E-1   6.810344912111760E-2  
 4.042010502625657E9    -7.285439130909501E-1   7.055542364716530E-2  
 4.042760690172543E9    -7.271242498832807E-1   7.398444585502149E-2  
 4.043510877719430E9    -7.264234609462679E-1   7.643366038799287E-2  
 4.044261065266316E9    -7.253680631835254E-1   7.896818265318871E-2  
 4.045011252813203E9    -7.236298798314242E-1   8.167165189981461E-2  
 4.045761440360090E9    -7.228421188974392E-1   8.299525149166585E-2  
 4.046511627906977E9    -7.210326403852192E-1   8.547404766082764E-2  
 4.047261815453864E9    -7.196137395359564E-1   8.716865666210651E-2  
 4.048012003000750E9    -7.182816664071290E-1   8.865607589483261E-2  
 4.048762190547637E9    -7.159599404437188E-1   9.088899672031402E-2  
 4.049512378094523E9    -7.140353710362942E-1   9.447606235742570E-2  
 4.050262565641410E9    -7.128947327130351E-1   9.500539667904376E-2  
 4.051012753188297E9    -7.119104331861330E-1   9.617088213562966E-2  
 4.051762940735184E9    -7.100423638861594E-1   9.634066253900528E-2  
 4.052513128282071E9    -7.080488115780128E-1   9.781119391322136E-2  
 4.053263315828957E9    -7.068020942635371E-1   9.850704342126847E-2  
 4.054013503375844E9    -7.055406324445103E-1   9.977536901831625E-2  
 4.054763690922730E9    -7.034396237048998E-1   1.018558261543513E-1  
 4.055513878469617E9    -7.025720754784747E-1   1.016607900708914E-1  
 4.056264066016504E9    -7.005573097677773E-1   1.015682237595320E-1  
 4.057014253563391E9    -6.989916546256496E-1   1.009522995352745E-1  
 4.057764441110278E9    -6.979585276349554E-1   1.023332771658898E-1  
 4.058514628657164E9    -6.971361970195571E-1   1.024761541932822E-1  
 4.059264816204051E9    -6.960440279035290E-1   1.022583147883415E-1  
 4.060015003750938E9    -6.954190625760341E-1   1.023506752401590E-1  
 4.060765191297824E9    -6.934762217620111E-1   1.025329352170229E-1  
 4.061515378844711E9    -6.925918564048925E-1   1.030178336054087E-1  
 4.062265566391598E9    -6.931365506688830E-1   1.019263108819723E-1  
 4.063015753938485E9    -6.916966845729268E-1   1.019332935661078E-1  
 4.063765941485371E9    -6.910365687335829E-1   1.014853077381849E-1  
 4.064516129032258E9    -6.909094530780421E-1   1.016472784429789E-1  
 4.065266316579145E9    -6.904095076123958E-1   1.008144690841437E-1  
 4.066016504126031E9    -6.897108754860208E-1   1.008723342418671E-1  
 4.066766691672918E9    -6.902993220616649E-1   1.004828036576510E-1  
 4.067516879219805E9    -6.904173645890434E-1   1.008311340957880E-1  
 4.068267066766692E9    -6.901957799432192E-1   1.004326245933771E-1  
 4.069017254313579E9    -6.910349305121314E-1   9.891260720789433E-2  
 4.069767441860465E9    -6.911609121160471E-1   9.926477842032910E-2  
 4.070517629407352E9    -6.918365137530926E-1   9.884042128920556E-2  
 4.071267816954238E9    -6.924795417410191E-1   9.936808846890928E-2  
 4.072018004501125E9    -6.935604009309510E-1   9.886098138988020E-2  
 4.072768192048012E9    -6.943189099436636E-1   9.962905965745449E-2  
 4.073518379594899E9    -6.949522811360792E-1   9.935112163424494E-2  
 4.074268567141786E9    -6.966444101699576E-1   9.994107723236083E-2  
 4.075018754688672E9    -6.974951602379824E-1   1.002737533301115E-1  
 4.075768942235559E9    -6.990834397888168E-1   1.014499945938587E-1  
 4.076519129782445E9    -7.000544999549984E-1   1.018751273304224E-1  
 4.077269317329332E9    -7.014928422674446E-1   1.028929246962071E-1  
 4.078019504876219E9    -7.020044244400967E-1   1.036273073405028E-1  
 4.078769692423106E9    -7.030914924893521E-1   1.047094897925854E-1  
 4.079519879969993E9    -7.045217908862624E-1   1.069322705268860E-1  
 4.080270067516879E9    -7.054635987290286E-1   1.086905973404646E-1  
 4.081020255063766E9    -7.073316629039042E-1   1.096422850340605E-1  
 4.081770442610652E9    -7.073146691910585E-1   1.120880923420191E-1  
 4.082520630157539E9    -7.087954248286701E-1   1.145556002110243E-1  
 4.083270817704426E9    -7.100229932812856E-1   1.167136930674315E-1  
 4.084021005251313E9    -7.099558308896390E-1   1.182130471616984E-1  
 4.084771192798200E9    -7.116659980759269E-1   1.207829873263836E-1  
 4.085521380345086E9    -7.113701704534089E-1   1.237276498973370E-1  
 4.086271567891973E9    -7.113130468062858E-1   1.253186248242855E-1  
 4.087021755438860E9    -7.121440848886899E-1   1.274759848415852E-1  
 4.087771942985746E9    -7.122310395409629E-1   1.310667954385281E-1  
 4.088522130532633E9    -7.123980867983438E-1   1.332246772944927E-1  
 4.089272318079520E9    -7.116990604417995E-1   1.360631467401981E-1  
 4.090022505626407E9    -7.122245119096202E-1   1.392227225005627E-1  
 4.090772693173293E9    -7.113999876625814E-1   1.413896845281124E-1  
 4.091522880720180E9    -7.106292962648617E-1   1.452146968245507E-1  
 4.092273068267067E9    -7.100192446690189E-1   1.469079315662384E-1  
 4.093023255813953E9    -7.083343690982186E-1   1.495830056071281E-1  
 4.093773443360840E9    -7.078249456261477E-1   1.520039787888527E-1  
 4.094523630907727E9    -7.069069514830644E-1   1.545779709517956E-1  
 4.095273818454614E9    -7.057816084562526E-1   1.570103165507316E-1  
 4.096024006001500E9    -7.042175627699823E-1   1.595901200175285E-1  
 4.096774193548387E9    -7.028141203413070E-1   1.613041007518768E-1  
 4.097524381095274E9    -7.009416912899888E-1   1.635099536180497E-1  
 4.098274568642160E9    -6.998824496053948E-1   1.658232861757278E-1  
 4.099024756189047E9    -6.976059829331535E-1   1.671753714978695E-1  
 4.099774943735934E9    -6.964879995925351E-1   1.687037289142609E-1  
 4.100525131282821E9    -6.941295112237044E-1   1.703181950747967E-1  
 4.101275318829708E9    -6.933561912133109E-1   1.717456384003163E-1  
 4.102025506376594E9    -6.911377340978908E-1   1.734746636450291E-1  
 4.102775693923481E9    -6.899278544072180E-1   1.748917806148529E-1  
 4.103525881470367E9    -6.880033274272217E-1   1.761757595837116E-1  
 4.104276069017254E9    -6.870574178541143E-1   1.761532832682133E-1  
 4.105026256564141E9    -6.835296177926939E-1   1.771211989223958E-1  
 4.105776444111028E9    -6.836394817821890E-1   1.783695550262928E-1  
 4.106526631657915E9    -6.815859076967442E-1   1.792838563024998E-1  
 4.107276819204801E9    -6.802861984560720E-1   1.796261754631996E-1  
 4.108027006751688E9    -6.784710746873323E-1   1.807673838734627E-1  
 4.108777194298574E9    -6.772776087832410E-1   1.816073064506054E-1  
 4.109527381845461E9    -6.755293387954792E-1   1.815882894396782E-1  
 4.110277569392348E9    -6.739711953045268E-1   1.815547554194928E-1  
 4.111027756939235E9    -6.737049703591891E-1   1.819431388378144E-1  
 4.111777944486122E9    -6.726494740475911E-1   1.824901369214058E-1  
 4.112528132033008E9    -6.714958507991798E-1   1.819516628980637E-1  
 4.113278319579895E9    -6.704510207741122E-1   1.825585833191872E-1  
 4.114028507126782E9    -6.694180664514220E-1   1.825515325367451E-1  
 4.114778694673668E9    -6.691938347851506E-1   1.816684836149216E-1  
 4.115528882220555E9    -6.684461796595840E-1   1.815813872218132E-1  
 4.116279069767442E9    -6.687259185475987E-1   1.822100092470646E-1  
 4.117029257314329E9    -6.680336979773366E-1   1.799464206397534E-1  
 4.117779444861215E9    -6.683524379667039E-1   1.812068155407906E-1  
 4.118529632408102E9    -6.676228001032541E-1   1.817156852781773E-1  
 4.119279819954989E9    -6.683374356405094E-1   1.799707013368606E-1  
 4.120030007501875E9    -6.685242096983027E-1   1.807937183976174E-1  
 4.120780195048762E9    -6.678673123773160E-1   1.830500265955925E-1  
 4.121530382595649E9    -6.688220688388427E-1   1.818650990724564E-1  
 4.122280570142536E9    -6.698216197216037E-1   1.813757340610027E-1  
 4.123030757689422E9    -6.708002744862655E-1   1.808495645225048E-1  
 4.123780945236309E9    -6.716322920883785E-1   1.811035096645355E-1  
 4.124531132783196E9    -6.722904963651012E-1   1.817885640263558E-1  
 4.125281320330082E9    -6.731793047416816E-1   1.826119957864285E-1  
 4.126031507876969E9    -6.737440760356710E-1   1.833618302643300E-1  
 4.126781695423856E9    -6.751189676849625E-1   1.832165066897869E-1  
 4.127531882970743E9    -6.757746551590210E-1   1.847714684903622E-1  
 4.128282070517630E9    -6.775250280522243E-1   1.857279582321644E-1  
 4.129032258064516E9    -6.784556887887792E-1   1.875807861983776E-1  
 4.129782445611403E9    -6.794178659678114E-1   1.866169954836369E-1  
 4.130532633158289E9    -6.807782703013238E-1   1.890006704628468E-1  
 4.131282820705176E9    -6.814822894559520E-1   1.906650017201901E-1  
 4.132033008252063E9    -6.827494519892307E-1   1.926886354386807E-1  
 4.132783195798950E9    -6.831412375689786E-1   1.946169622242451E-1  
 4.133533383345837E9    -6.844049275358169E-1   1.968490982055664E-1  
 4.134283570892723E9    -6.853479713334373E-1   1.976381126046181E-1  
 4.135033758439610E9    -6.866262165165019E-1   1.996674300730228E-1  
 4.135783945986496E9    -6.868431235602991E-1   2.021666194498539E-1  
 4.136534133533383E9    -6.876030636514113E-1   2.042466589808465E-1  
 4.137284321080270E9    -6.881868991997944E-1   2.058970184624195E-1  
 4.138034508627157E9    -6.874073375715989E-1   2.091882461309433E-1  
 4.138784696174044E9    -6.874871282318897E-1   2.112529234588146E-1  
 4.139534883720930E9    -6.871800768172690E-1   2.151063027977944E-1  
 4.140285071267817E9    -6.878250043628009E-1   2.164806361496449E-1  
 4.141035258814704E9    -6.876208074304309E-1   2.189108560979367E-1  
 4.141785446361590E9    -6.876285914255109E-1   2.207277303934097E-1  
 4.142535633908477E9    -6.864889291355386E-1   2.245111005008221E-1  
 4.143285821455364E9    -6.850209739956716E-1   2.275334428250790E-1  
 4.144036009002251E9    -6.847002203753918E-1   2.291672019660473E-1  
 4.144786196549137E9    -6.835137954026460E-1   2.325171254575253E-1  
 4.145536384096024E9    -6.816101924222765E-1   2.343866196274758E-1  
 4.146286571642911E9    -6.807703904177690E-1   2.361920234560967E-1  
 4.147036759189797E9    -6.797032670341953E-1   2.394701343774796E-1  
 4.147786946736684E9    -6.772173217046233E-1   2.411653017997742E-1  
 4.148537134283571E9    -6.763642524870828E-1   2.431653977930546E-1  
 4.149287321830458E9    -6.737977152463356E-1   2.455004385113717E-1  
 4.150037509377344E9    -6.718927879778271E-1   2.463760273158551E-1  
 4.150787696924231E9    -6.698913604474602E-1   2.482593275606632E-1  
 4.151537884471118E9    -6.685767150387268E-1   2.498044300079346E-1  
 4.152288072018004E9    -6.660765005573900E-1   2.513984674215318E-1  
 4.153038259564891E9    -6.640385728946987E-1   2.526450946927070E-1  
 4.153788447111778E9    -6.618833164480260E-1   2.537250685691834E-1  
 4.154538634658665E9    -6.598369177063596E-1   2.549671417474747E-1  
 4.155288822205551E9    -6.581206261621123E-1   2.550102078914643E-1  
 4.156039009752438E9    -6.563351227515328E-1   2.568534529209137E-1  
 4.156789197299325E9    -6.538234718259217E-1   2.584884294867516E-1  
 4.157539384846211E9    -6.527685009482910E-1   2.586215031147003E-1  
 4.158289572393098E9    -6.506635269202498E-1   2.592764568328858E-1  
 4.159039759939985E9    -6.484316067981267E-1   2.595863032341004E-1  
 4.159789947486872E9    -6.464572799877586E-1   2.599671253561974E-1  
 4.160540135033759E9    -6.450665705861882E-1   2.594440093636513E-1  
 4.161290322580645E9    -6.432631812180417E-1   2.599737975001335E-1  
 4.162040510127532E9    -6.410315241803531E-1   2.595987227559090E-1  
 4.162790697674418E9    -6.395737056395097E-1   2.596308752894402E-1  
 4.163540885221305E9    -6.391094885549998E-1   2.595577734708786E-1  
 4.164291072768192E9    -6.371819036144334E-1   2.588841548562050E-1  
 4.165041260315079E9    -6.365243131671260E-1   2.588882464170456E-1  
 4.165791447861966E9    -6.346180102405694E-1   2.583252772688867E-1  
 4.166541635408852E9    -6.336459808048285E-1   2.579959657788277E-1  
 4.167291822955739E9    -6.328130122552033E-1   2.575386771559716E-1  
 4.168042010502626E9    -6.328091214098178E-1   2.577174890041351E-1  
 4.168792198049512E9    -6.319543829664240E-1   2.578546601533890E-1  
 4.169542385596399E9    -6.314508575344277E-1   2.566206738352776E-1  
 4.170292573143286E9    -6.316207000227661E-1   2.559640684723855E-1  
 4.171042760690173E9    -6.313836011785702E-1   2.550894016027451E-1  
 4.171792948237059E9    -6.313077303748064E-1   2.551078009605408E-1  
 4.172543135783946E9    -6.317083106636342E-1   2.540042582154274E-1  
 4.173293323330833E9    -6.316047852780062E-1   2.544948244094848E-1  
 4.174043510877719E9    -6.328186106277061E-1   2.539676934480667E-1  
 4.174793698424606E9    -6.330960807270089E-1   2.537541332840920E-1  
 4.175543885971493E9    -6.329727326157917E-1   2.549174013733864E-1  
 4.176294073518380E9    -6.343927784662743E-1   2.542430859804153E-1  
 4.177044261065266E9    -6.359504809041550E-1   2.544225531816483E-1  
 4.177794448612153E9    -6.364078432948211E-1   2.546553468704224E-1  
 4.178544636159040E9    -6.377513236293877E-1   2.554873710870743E-1  
 4.179294823705926E9    -6.388593338587058E-1   2.561925864219666E-1  
 4.180045011252813E9    -6.396460815982205E-1   2.574443182349205E-1  
 4.180795198799700E9    -6.397518391501661E-1   2.578537708520889E-1  
 4.181545386346587E9    -6.420223165248776E-1   2.582454499602318E-1  
 4.182295573893473E9    -6.435913154167336E-1   2.599017143249512E-1  
 4.183045761440360E9    -6.451386362262890E-1   2.612397766113282E-1  
 4.183795948987247E9    -6.458007918270380E-1   2.620931667089463E-1  
 4.184546136534133E9    -6.474719884030332E-1   2.643371397256852E-1  
 4.185296324081020E9    -6.472865848653131E-1   2.662033474445343E-1  
 4.186046511627907E9    -6.489292601707458E-1   2.685359078645707E-1  
 4.186796699174794E9    -6.499816031712735E-1   2.706031757593155E-1  
 4.187546886721681E9    -6.515297812825164E-1   2.728897744417190E-1  
 4.188297074268567E9    -6.515950005552070E-1   2.744769278168678E-1  
 4.189047261815454E9    -6.521281106852728E-1   2.773809251189232E-1  
 4.189797449362341E9    -6.527824739607258E-1   2.806892499327660E-1  
 4.190547636909227E9    -6.534025336336077E-1   2.829196667671204E-1  
 4.191297824456114E9    -6.528846196454960E-1   2.845225876569748E-1  
 4.192048012003001E9    -6.537216162481643E-1   2.875733950734139E-1  
 4.192798199549888E9    -6.531802765488051E-1   2.902279311418533E-1  
 4.193548387096774E9    -6.533632228359300E-1   2.938525515794755E-1  
 4.194298574643661E9    -6.530094123619196E-1   2.966181570291520E-1  
 4.195048762190548E9    -6.525919102283021E-1   2.986551719903946E-1  
 4.195798949737434E9    -6.520244666887625E-1   3.018304544687271E-1  
 4.196549137284321E9    -6.507264623322021E-1   3.046394500136376E-1  
 4.197299324831208E9    -6.502423465701791E-1   3.072218906879425E-1  
 4.198049512378095E9    -6.481797944184520E-1   3.106254124641418E-1  
 4.198799699924981E9    -6.477358475015971E-1   3.123227062821388E-1  
 4.199549887471868E9    -6.456591567563660E-1   3.156597751379014E-1  
 4.200300075018755E9    -6.437495116516586E-1   3.164163160324098E-1  
 4.201050262565641E9    -6.414003323788604E-1   3.205124062299729E-1  
 4.201800450112528E9    -6.397463684994009E-1   3.229351699352265E-1  
 4.202550637659415E9    -6.384930024908598E-1   3.231475061178208E-1  
 4.203300825206302E9    -6.363355559360525E-1   3.251358163356781E-1  
 4.204051012753188E9    -6.345332249584784E-1   3.266068392992019E-1  
 4.204801200300075E9    -6.318686689123318E-1   3.290921169519425E-1  
 4.205551387846962E9    -6.301040041461783E-1   3.307768440246583E-1  
 4.206301575393848E9    -6.279432244972589E-1   3.308576282858849E-1  
 4.207051762940735E9    -6.245357126669044E-1   3.328685978055000E-1  
 4.207801950487622E9    -6.225776849099953E-1   3.336330705881119E-1  
 4.208552138034509E9    -6.205293340770731E-1   3.341672781109810E-1  
