#  HZ   S   RI   R     50.0 
! Rohde & Schwarz ZVL13 2Ports - Version 3.31 - 1303.6509k13 SN: 101088
! Date: 2023-03-03 14:46:59
! Data & Calibration Information:
! Trc2:S21(TOSM)
! 
! 
! 
 4.000000000000000E9    -7.173280303968658E-1   9.074210047924891E-3  
 4.000750187546887E9    -7.148273521819095E-1   9.541701893900521E-3  
 4.001500375093773E9    -7.142580702973826E-1   9.695067876033484E-3  
 4.002250562640660E9    -7.121263506329305E-1   1.287088075131457E-2  
 4.003000750187547E9    -7.108333603779632E-1   1.102410467092600E-2  
 4.003750937734434E9    -7.088611908077022E-1   1.107313902463950E-2  
 4.004501125281320E9    -7.075322300702430E-1   1.125879531236738E-2  
 4.005251312828207E9    -7.063157107144443E-1   1.143706638545823E-2  
 4.006001500375094E9    -7.054837995453862E-1   1.057863872150052E-2  
 4.006751687921980E9    -7.035321701687670E-1   1.013432648633979E-2  
 4.007501875468867E9    -7.025262116928898E-1   1.026511298173015E-2  
 4.008252063015754E9    -7.015184941296746E-1   1.028102345330362E-2  
 4.009002250562641E9    -7.004329977259092E-1   9.590669161737900E-3  
 4.009752438109528E9    -7.001479542232310E-1   8.806738164606505E-3  
 4.010502625656414E9    -6.988111820122867E-1   8.170869904990774E-3  
 4.011252813203301E9    -6.986050164694868E-1   7.652013269525022E-3  
 4.012003000750187E9    -6.975752034688010E-1   7.447970541515855E-3  
 4.012753188297074E9    -6.975504216109651E-1   6.382605886195788E-3  
 4.013503375843961E9    -6.974295557488447E-1   6.590136495581827E-3  
 4.014253563390848E9    -6.980370648611700E-1   5.078748473213754E-3  
 4.015003750937735E9    -6.977263869892417E-1   4.198598800936947E-3  
 4.015753938484621E9    -6.989210679305502E-1   3.736211341477465E-3  
 4.016504126031508E9    -6.992690044220703E-1   3.359959517978831E-3  
 4.017254313578394E9    -7.000014600746085E-1   2.279495429798729E-3  
 4.018004501125281E9    -7.005389528083594E-1   2.035009402317635E-3  
 4.018754688672168E9    -7.015281118192019E-1   1.476401497971048E-3  
 4.019504876219055E9    -7.033520777419433E-1   1.353550541231351E-3  
 4.020255063765942E9    -7.042246344503077E-1   1.819196655287059E-3  
 4.021005251312828E9    -7.055647918662742E-1   1.750029827733816E-3  
 4.021755438859715E9    -7.076813376621182E-1   1.444268899348914E-3  
 4.022505626406601E9    -7.091473489932658E-1   2.757863055595780E-3  
 4.023255813953488E9    -7.103521978507414E-1   3.631688647960313E-3  
 4.024006001500375E9    -7.133610306487349E-1   4.714235930703348E-3  
 4.024756189047262E9    -7.140454276061555E-1   5.522446638380644E-3  
 4.025506376594149E9    -7.158450296111079E-1   6.306861535127275E-3  
 4.026256564141035E9    -7.173608501765111E-1   7.188238922516816E-3  
 4.027006751687922E9    -7.196375211670123E-1   8.378883330093697E-3  
 4.027756939234809E9    -7.216865359319483E-1   1.087005358322896E-2  
 4.028507126781695E9    -7.231074570047273E-1   1.326527115691453E-2  
 4.029257314328582E9    -7.248194817267997E-1   1.483862360919919E-2  
 4.030007501875469E9    -7.257224302390030E-1   1.779598151692935E-2  
 4.030757689422356E9    -7.268214876531123E-1   2.032610892703572E-2  
 4.031507876969242E9    -7.287954065936153E-1   2.285789644294791E-2  
 4.032258064516129E9    -7.294569595755144E-1   2.489771074515768E-2  
 4.033008252063016E9    -7.306412186550931E-1   2.921781891038642E-2  
 4.033758439609902E9    -7.320576321649917E-1   2.977160387104564E-2  
 4.034508627156789E9    -7.318136818763874E-1   3.220319208255039E-2  
 4.035258814703676E9    -7.324636656441014E-1   3.746581144436077E-2  
 4.036009002250563E9    -7.334105091869960E-1   3.853414170194791E-2  
 4.036759189797450E9    -7.330384170369864E-1   4.344207368669659E-2  
 4.037509377344336E9    -7.337673474205300E-1   4.944786431418362E-2  
 4.038259564891223E9    -7.330640200047682E-1   5.061771718011797E-2  
 4.039009752438109E9    -7.324619977750876E-1   5.257441295479984E-2  
 4.039759939984996E9    -7.321528179489429E-1   5.603889078668505E-2  
 4.040510127531883E9    -7.322339893198003E-1   5.823494524115698E-2  
 4.041260315078770E9    -7.307742248096560E-1   6.105160278135911E-2  
 4.042010502625657E9    -7.300883721316338E-1   6.387208310301602E-2  
 4.042760690172543E9    -7.284962281424741E-1   6.698157354900242E-2  
 4.043510877719430E9    -7.280646760047409E-1   6.979093724315617E-2  
 4.044261065266316E9    -7.270206305296093E-1   7.204592499906572E-2  
 4.045011252813203E9    -7.253570501650692E-1   7.482036324365438E-2  
 4.045761440360090E9    -7.243364542995933E-1   7.607679774769395E-2  
 4.046511627906977E9    -7.228286909345245E-1   7.873529586610199E-2  
 4.047261815453864E9    -7.211388112352224E-1   8.010457204864176E-2  
 4.048012003000750E9    -7.198301712452533E-1   8.194145467402043E-2  
 4.048762190547637E9    -7.178140258534753E-1   8.407130467229336E-2  
 4.049512378094523E9    -7.158246449542075E-1   8.787351638423652E-2  
 4.050262565641410E9    -7.144739228332195E-1   8.835123421495408E-2  
 4.051012753188297E9    -7.136381678360677E-1   8.931325043309479E-2  
 4.051762940735184E9    -7.116377279183527E-1   8.944262022557112E-2  
 4.052513128282071E9    -7.100480037256985E-1   9.099422056996079E-2  
 4.053263315828957E9    -7.084439750450199E-1   9.175457248202712E-2  
 4.054013503375844E9    -7.071453126134638E-1   9.324773088351639E-2  
 4.054763690922730E9    -7.053602395710353E-1   9.500186445191505E-2  
 4.055513878469617E9    -7.041969917716430E-1   9.473832785236837E-2  
 4.056264066016504E9    -7.024134546457646E-1   9.496056846173855E-2  
 4.057014253563391E9    -7.005967769869832E-1   9.440396284491570E-2  
 4.057764441110278E9    -6.995890371700604E-1   9.573916272518042E-2  
 4.058514628657164E9    -6.989916351889959E-1   9.591755635803195E-2  
 4.059264816204051E9    -6.977741532161508E-1   9.578003481633220E-2  
 4.060015003750938E9    -6.969484825090031E-1   9.600988206893954E-2  
 4.060765191297824E9    -6.951227901709325E-1   9.607491257952899E-2  
 4.061515378844711E9    -6.942485370060348E-1   9.630342578951270E-2  
 4.062265566391598E9    -6.948570093978032E-1   9.518838623584809E-2  
 4.063015753938485E9    -6.934175877246134E-1   9.513526223243773E-2  
 4.063765941485371E9    -6.928384759276329E-1   9.498318255552651E-2  
 4.064516129032258E9    -6.926186282259662E-1   9.489780692860482E-2  
 4.065266316579145E9    -6.921867389877663E-1   9.438427760071311E-2  
 4.066016504126031E9    -6.915211343250987E-1   9.436931560253353E-2  
 4.066766691672918E9    -6.919036337912711E-1   9.423617325616629E-2  
 4.067516879219805E9    -6.923047724477980E-1   9.415828648320587E-2  
 4.068267066766692E9    -6.918358260285565E-1   9.382228888376058E-2  
 4.069017254313579E9    -6.926484208357699E-1   9.233035118497163E-2  
 4.069767441860465E9    -6.930844576061567E-1   9.254903127006442E-2  
 4.070517629407352E9    -6.934226310389963E-1   9.247264494574072E-2  
 4.071267816954238E9    -6.943893845715419E-1   9.307107696695628E-2  
 4.072018004501125E9    -6.952068226431307E-1   9.243219027350845E-2  
 4.072768192048012E9    -6.959148338242158E-1   9.313692499692740E-2  
 4.073518379594899E9    -6.965310254189381E-1   9.269584275359663E-2  
 4.074268567141786E9    -6.982712055695078E-1   9.322027943379434E-2  
 4.075018754688672E9    -6.991633729177413E-1   9.365371635072679E-2  
 4.075768942235559E9    -7.005769265473530E-1   9.479275445875525E-2  
 4.076519129782445E9    -7.016247424854621E-1   9.535332453473661E-2  
 4.077269317329332E9    -7.030994829808688E-1   9.622842751431467E-2  
 4.078019504876219E9    -7.037278406084787E-1   9.715634256658705E-2  
 4.078769692423106E9    -7.048154298207172E-1   9.811006893083457E-2  
 4.079519879969993E9    -7.062306291105309E-1   1.001998408501149E-1  
 4.080270067516879E9    -7.073582976994640E-1   1.019566473710910E-1  
 4.081020255063766E9    -7.091075932551746E-1   1.028573899195791E-1  
 4.081770442610652E9    -7.091253632637620E-1   1.053688709252924E-1  
 4.082520630157539E9    -7.104488583709220E-1   1.078906761585549E-1  
 4.083270817704426E9    -7.119431360649726E-1   1.099241015530154E-1  
 4.084021005251313E9    -7.117834107904919E-1   1.116676701292992E-1  
 4.084771192798200E9    -7.135349097970531E-1   1.141299521227107E-1  
 4.085521380345086E9    -7.134767312708121E-1   1.169342013340146E-1  
 4.086271567891973E9    -7.133367555428676E-1   1.186897395906225E-1  
 4.087021755438860E9    -7.138585616294366E-1   1.211176988430470E-1  
 4.087771942985746E9    -7.141217652411521E-1   1.243715072802827E-1  
 4.088522130532633E9    -7.145417984590885E-1   1.264382850598842E-1  
 4.089272318079520E9    -7.138063090129833E-1   1.291525089106858E-1  
 4.090022505626407E9    -7.140677005638186E-1   1.325171550681889E-1  
 4.090772693173293E9    -7.133778698584601E-1   1.344757741291821E-1  
 4.091522880720180E9    -7.127483764672586E-1   1.384546828319878E-1  
 4.092273068267067E9    -7.119859508487092E-1   1.399938561902196E-1  
 4.093023255813953E9    -7.101353107400867E-1   1.431500226037353E-1  
 4.093773443360840E9    -7.099104592162930E-1   1.451476168135852E-1  
 4.094523630907727E9    -7.088816626631548E-1   1.483717393030525E-1  
 4.095273818454614E9    -7.078486590056324E-1   1.501472259070128E-1  
 4.096024006001500E9    -7.064874231151529E-1   1.525378713793010E-1  
 4.096774193548387E9    -7.050725160837126E-1   1.545509287066609E-1  
 4.097524381095274E9    -7.032083683456545E-1   1.569374905768931E-1  
 4.098274568642160E9    -7.020153617620948E-1   1.591434929037988E-1  
 4.099024756189047E9    -6.998133006420496E-1   1.605086973345876E-1  
 4.099774943735934E9    -6.987557760528134E-1   1.619283249141276E-1  
 4.100525131282821E9    -6.962971551811882E-1   1.637988934111595E-1  
 4.101275318829708E9    -6.956999576140833E-1   1.651689139225781E-1  
 4.102025506376594E9    -6.936266700027544E-1   1.668886511292309E-1  
 4.102775693923481E9    -6.921047303096085E-1   1.680735480692536E-1  
 4.103525881470367E9    -6.903420475427595E-1   1.696059863510729E-1  
 4.104276069017254E9    -6.894444918739433E-1   1.694001033652723E-1  
 4.105026256564141E9    -6.860257179829662E-1   1.708117396396250E-1  
 4.105776444111028E9    -6.859529623517665E-1   1.717050048612058E-1  
 4.106526631657915E9    -6.839925903091725E-1   1.726769208910763E-1  
 4.107276819204801E9    -6.827412106216242E-1   1.732517839736193E-1  
 4.108027006751688E9    -6.809930020012331E-1   1.741044171131998E-1  
 4.108777194298574E9    -6.795247914338266E-1   1.753295546941013E-1  
 4.109527381845461E9    -6.779716757080914E-1   1.748753512147219E-1  
 4.110277569392348E9    -6.763522731943872E-1   1.747318234900981E-1  
 4.111027756939235E9    -6.760800680594132E-1   1.755404160630256E-1  
 4.111777944486122E9    -6.753335999398232E-1   1.759051252700538E-1  
 4.112528132033008E9    -6.739048585857406E-1   1.753669762999267E-1  
 4.113278319579895E9    -6.731072060600377E-1   1.762312138128877E-1  
 4.114028507126782E9    -6.719748373887968E-1   1.760300034763664E-1  
 4.114778694673668E9    -6.716911431492264E-1   1.751475348816216E-1  
 4.115528882220555E9    -6.707436668917962E-1   1.754491642143429E-1  
 4.116279069767442E9    -6.714045164698621E-1   1.757187903050334E-1  
 4.117029257314329E9    -6.704733258877778E-1   1.735357746754885E-1  
 4.117779444861215E9    -6.706860440428435E-1   1.747142243608833E-1  
 4.118529632408102E9    -6.700996407351458E-1   1.753092143964172E-1  
 4.119279819954989E9    -6.708068224999065E-1   1.734660305796713E-1  
 4.120030007501875E9    -6.710567039849567E-1   1.746886008959264E-1  
 4.120780195048762E9    -6.705236481030078E-1   1.764857567468137E-1  
 4.121530382595649E9    -6.713264043008433E-1   1.759642055331021E-1  
 4.122280570142536E9    -6.721096943821741E-1   1.751982145852298E-1  
 4.123030757689422E9    -6.733574390778677E-1   1.746563221990914E-1  
 4.123780945236309E9    -6.742065136313350E-1   1.747507309331149E-1  
 4.124531132783196E9    -6.746248675900640E-1   1.755028015573323E-1  
 4.125281320330082E9    -6.756830944024819E-1   1.763459841627628E-1  
 4.126031507876969E9    -6.763217838483911E-1   1.769008192386627E-1  
 4.126781695423856E9    -6.775875611171895E-1   1.769827303951234E-1  
 4.127531882970743E9    -6.781495513780649E-1   1.785913174398691E-1  
 4.128282070517630E9    -6.801211278698859E-1   1.792601272492856E-1  
 4.129032258064516E9    -6.808196219243826E-1   1.810986159361005E-1  
 4.129782445611403E9    -6.820697251169284E-1   1.801609264490605E-1  
 4.130532633158289E9    -6.832065262854088E-1   1.825580001771301E-1  
 4.131282820705176E9    -6.841020129117422E-1   1.841891445071698E-1  
 4.132033008252063E9    -6.853470489004976E-1   1.863500877405256E-1  
 4.132783195798950E9    -6.857779379798016E-1   1.882877543508858E-1  
 4.133533383345837E9    -6.870615189866783E-1   1.903220260908008E-1  
 4.134283570892723E9    -6.880698814345083E-1   1.913944197826982E-1  
 4.135033758439610E9    -6.891593780943178E-1   1.929741995511651E-1  
 4.135783945986496E9    -6.894844661519597E-1   1.956978870762736E-1  
 4.136534133533383E9    -6.902938000969446E-1   1.977039485793561E-1  
 4.137284321080270E9    -6.906527390199216E-1   1.994317685707361E-1  
 4.138034508627157E9    -6.899967805995642E-1   2.024620028352291E-1  
 4.138784696174044E9    -6.903733942807683E-1   2.047835611945838E-1  
 4.139534883720930E9    -6.899432114395364E-1   2.087794653664530E-1  
 4.140285071267817E9    -6.908294903918797E-1   2.098247006156296E-1  
 4.141035258814704E9    -6.902632694941826E-1   2.124887979351432E-1  
 4.141785446361590E9    -6.902607175332322E-1   2.141238801626414E-1  
 4.142535633908477E9    -6.892158143499476E-1   2.179779756818861E-1  
 4.143285821455364E9    -6.880187499230249E-1   2.210022058688402E-1  
 4.144036009002251E9    -6.875461439004449E-1   2.227793386260272E-1  
 4.144786196549137E9    -6.863562993202370E-1   2.260569632525295E-1  
 4.145536384096024E9    -6.846077568377109E-1   2.276863760461211E-1  
 4.146286571642911E9    -6.837726332053032E-1   2.298758294643611E-1  
 4.147036759189797E9    -6.827925652470160E-1   2.327279812871516E-1  
 4.147786946736684E9    -6.801782160263166E-1   2.348434097052068E-1  
 4.148537134283571E9    -6.794507729978876E-1   2.369102116332651E-1  
 4.149287321830458E9    -6.770290103890313E-1   2.391271783310473E-1  
 4.150037509377344E9    -6.747553659870376E-1   2.402005754709244E-1  
 4.150787696924231E9    -6.729157209268974E-1   2.419443488372565E-1  
 4.151537884471118E9    -6.716352996937627E-1   2.436633964140117E-1  
 4.152288072018004E9    -6.692738913798597E-1   2.450640328019262E-1  
 4.153038259564891E9    -6.672288416818503E-1   2.464419374710619E-1  
 4.153788447111778E9    -6.649483017087851E-1   2.474339716914595E-1  
 4.154538634658665E9    -6.630237973839507E-1   2.485931599989087E-1  
 4.155288822205551E9    -6.612450355187134E-1   2.487696723321975E-1  
 4.156039009752438E9    -6.594757867150471E-1   2.504969366611839E-1  
 4.156789197299325E9    -6.571182091173262E-1   2.523066328098774E-1  
 4.157539384846211E9    -6.558268723796847E-1   2.521365421445072E-1  
 4.158289572393098E9    -6.536927899276631E-1   2.530191125656367E-1  
 4.159039759939985E9    -6.515013197512242E-1   2.531460668722689E-1  
 4.159789947486872E9    -6.495784807796740E-1   2.539970253986419E-1  
 4.160540135033759E9    -6.480999764900149E-1   2.532153239263594E-1  
 4.161290322580645E9    -6.463427956970298E-1   2.538123429167569E-1  
 4.162040510127532E9    -6.440728518215794E-1   2.534007651422918E-1  
 4.162790697674418E9    -6.428247201434589E-1   2.532340892857016E-1  
 4.163540885221305E9    -6.421141103923888E-1   2.534498046846986E-1  
 4.164291072768192E9    -6.404920073558230E-1   2.530012187089323E-1  
 4.165041260315079E9    -6.396389504760582E-1   2.528602380625010E-1  
 4.165791447861966E9    -6.379309219217062E-1   2.520183350200654E-1  
 4.166541635408852E9    -6.368429975695625E-1   2.517548450755775E-1  
 4.167291822955739E9    -6.359530668942727E-1   2.514518643905819E-1  
 4.168042010502626E9    -6.358582720315593E-1   2.516860871922373E-1  
 4.168792198049512E9    -6.352262440658184E-1   2.514126349732578E-1  
 4.169542385596399E9    -6.346428724824966E-1   2.506441453078390E-1  
 4.170292573143286E9    -6.350127271947790E-1   2.498798004153371E-1  
 4.171042760690173E9    -6.344297460612843E-1   2.493836317223311E-1  
 4.171792948237059E9    -6.344241865232491E-1   2.493152073002756E-1  
 4.172543135783946E9    -6.349899240793046E-1   2.480879065482915E-1  
 4.173293323330833E9    -6.348409389360229E-1   2.482659002876431E-1  
 4.174043510877719E9    -6.360606941707784E-1   2.478971566403509E-1  
 4.174793698424606E9    -6.362539805908576E-1   2.478165970240385E-1  
 4.175543885971493E9    -6.363977101701840E-1   2.491004615383000E-1  
 4.176294073518380E9    -6.376851099922895E-1   2.484022657496780E-1  
 4.177044261065266E9    -6.390307876200145E-1   2.483694078706355E-1  
 4.177794448612153E9    -6.393734026474753E-1   2.487516975453943E-1  
 4.178544636159040E9    -6.408944565033982E-1   2.493584635732472E-1  
 4.179294823705926E9    -6.418737371463378E-1   2.502146093071699E-1  
 4.180045011252813E9    -6.427353285929109E-1   2.514218055493236E-1  
 4.180795198799700E9    -6.429345494343890E-1   2.520283189315796E-1  
 4.181545386346587E9    -6.453404332339513E-1   2.523142586147487E-1  
 4.182295573893473E9    -6.465108525805737E-1   2.540050785497726E-1  
 4.183045761440360E9    -6.484123675083781E-1   2.551110040360093E-1  
 4.183795948987247E9    -6.488039382079941E-1   2.560655229352713E-1  
 4.184546136534133E9    -6.507568244996907E-1   2.582801294352711E-1  
 4.185296324081020E9    -6.505218162922382E-1   2.601065033612847E-1  
 4.186046511627907E9    -6.522706493364532E-1   2.624959538079500E-1  
 4.186796699174794E9    -6.533798884707334E-1   2.645709737468660E-1  
 4.187546886721681E9    -6.548577301970777E-1   2.668697558195591E-1  
 4.188297074268567E9    -6.548920009343457E-1   2.686060669872165E-1  
 4.189047261815454E9    -6.555193837689363E-1   2.710704802773595E-1  
 4.189797449362341E9    -6.560717068226779E-1   2.745739426153899E-1  
 4.190547636909227E9    -6.566407401365721E-1   2.770326512872875E-1  
 4.191297824456114E9    -6.564656700177964E-1   2.787679904812873E-1  
 4.192048012003001E9    -6.571656568135612E-1   2.816378667593301E-1  
 4.192798199549888E9    -6.565476045830284E-1   2.839821155620217E-1  
 4.193548387096774E9    -6.569561501835387E-1   2.876329544189572E-1  
 4.194298574643661E9    -6.565355745001315E-1   2.905501546485126E-1  
 4.195048762190548E9    -6.560837526953770E-1   2.925809754718841E-1  
 4.195798949737434E9    -6.553861216165121E-1   2.958637221592666E-1  
 4.196549137284321E9    -6.542247533873906E-1   2.984710354349315E-1  
 4.197299324831208E9    -6.536941277497342E-1   3.012672963902056E-1  
 4.198049512378095E9    -6.516921350997800E-1   3.045922037190795E-1  
 4.198799699924981E9    -6.511908830056389E-1   3.065297197363973E-1  
 4.199549887471868E9    -6.492283453692966E-1   3.096894294881822E-1  
 4.200300075018755E9    -6.473167671147664E-1   3.104050363645554E-1  
 4.201050262565641E9    -6.451619341972066E-1   3.147438422104419E-1  
 4.201800450112528E9    -6.434542588878498E-1   3.167861341063679E-1  
 4.202550637659415E9    -6.424823573808051E-1   3.171874301436246E-1  
 4.203300825206302E9    -6.398670808623663E-1   3.193669198325277E-1  
 4.204051012753188E9    -6.382818179375679E-1   3.207125786367953E-1  
 4.204801200300075E9    -6.358748104022554E-1   3.231731221622528E-1  
 4.205551387846962E9    -6.340963692053057E-1   3.249396402792038E-1  
 4.206301575393848E9    -6.315643638809705E-1   3.253875621986389E-1  
 4.207051762940735E9    -6.283610935585717E-1   3.270090566286147E-1  
 4.207801950487622E9    -6.263271450338448E-1   3.278402919397356E-1  
 4.208552138034509E9    -6.241556717918201E-1   3.285351390191317E-1  
