#  HZ   S   RI   R     50.0 
! Rohde & Schwarz ZVL13 2Ports - Version 3.31 - 1303.6509k13 SN: 101088
! Date: 2023-03-03 14:41:50
! Data & Calibration Information:
! Trc2:S21(TOSM)
! 
! 
! 
 4.000000000000000E9    -7.169231614670542E-1   1.470943844822422E-2  
 4.000750187546887E9    -7.142376231639325E-1   1.532001714091376E-2  
 4.001500375093773E9    -7.136820684070167E-1   1.571219670463074E-2  
 4.002250562640660E9    -7.116392540446263E-1   1.839451621477120E-2  
 4.003000750187547E9    -7.102914981547178E-1   1.708209993712418E-2  
 4.003750937734434E9    -7.084075852051766E-1   1.700898622148670E-2  
 4.004501125281320E9    -7.070093238919709E-1   1.705204311226309E-2  
 4.005251312828207E9    -7.060089498148363E-1   1.684549178931118E-2  
 4.006001500375094E9    -7.047614971681875E-1   1.633325510283467E-2  
 4.006751687921980E9    -7.030684794186621E-1   1.601035015536845E-2  
 4.007501875468867E9    -7.020201122258413E-1   1.602897410669551E-2  
 4.008252063015754E9    -7.013086832216303E-1   1.580960380668845E-2  
 4.009002250562641E9    -7.000865808543173E-1   1.550740874461644E-2  
 4.009752438109528E9    -6.998599146065091E-1   1.416201014958974E-2  
 4.010502625656414E9    -6.984444273913937E-1   1.385328176486400E-2  
 4.011252813203301E9    -6.983181568015472E-1   1.314742426128034E-2  
 4.012003000750187E9    -6.971495696411634E-1   1.274242594198417E-2  
 4.012753188297074E9    -6.972157662426696E-1   1.202956540351175E-2  
 4.013503375843961E9    -6.971833309879425E-1   1.243634825898428E-2  
 4.014253563390848E9    -6.975301289901549E-1   1.082783516698610E-2  
 4.015003750937735E9    -6.973023952801210E-1   9.867784723853695E-3  
 4.015753938484621E9    -6.985001443522032E-1   9.314025129628367E-3  
 4.016504126031508E9    -6.989822385896107E-1   8.802934230071495E-3  
 4.017254313578394E9    -6.998202253013384E-1   7.801254373698495E-3  
 4.018004501125281E9    -7.002309006757825E-1   8.015537283545361E-3  
 4.018754688672168E9    -7.013015813710455E-1   7.541538421126550E-3  
 4.019504876219055E9    -7.030037020394713E-1   6.998412393696606E-3  
 4.020255063765942E9    -7.039464854954363E-1   7.519806801483967E-3  
 4.021005251312828E9    -7.052575756350094E-1   7.731693557738327E-3  
 4.021755438859715E9    -7.072924001331146E-1   6.841294243458194E-3  
 4.022505626406601E9    -7.087039987147870E-1   8.417114914412611E-3  
 4.023255813953488E9    -7.101802041255632E-1   9.614375074845739E-3  
 4.024006001500375E9    -7.130112972290629E-1   1.079008409167640E-2  
 4.024756189047262E9    -7.138048675468586E-1   1.138578487206250E-2  
 4.025506376594149E9    -7.156480964458589E-1   1.205781249055359E-2  
 4.026256564141035E9    -7.169164214664336E-1   1.329275583598670E-2  
 4.027006751687922E9    -7.194887920406519E-1   1.443308763034270E-2  
 4.027756939234809E9    -7.214281490594320E-1   1.653447808074393E-2  
 4.028507126781695E9    -7.227957560053521E-1   1.911780557703786E-2  
 4.029257314328582E9    -7.244897627885794E-1   2.074187068271078E-2  
 4.030007501875469E9    -7.251624422944221E-1   2.367426551980153E-2  
 4.030757689422356E9    -7.264500762408582E-1   2.622821420906484E-2  
 4.031507876969242E9    -7.283241712013245E-1   2.864115087131039E-2  
 4.032258064516129E9    -7.290963998786380E-1   3.098181937294454E-2  
 4.033008252063016E9    -7.299588108830398E-1   3.533930528452248E-2  
 4.033758439609902E9    -7.315156824823913E-1   3.589560151112454E-2  
 4.034508627156789E9    -7.313473232164416E-1   3.836367370142043E-2  
 4.035258814703676E9    -7.319903932718977E-1   4.381366490269453E-2  
 4.036009002250563E9    -7.329150022040342E-1   4.488670578413458E-2  
 4.036759189797450E9    -7.324555544694013E-1   4.996058861433716E-2  
 4.037509377344336E9    -7.330390719301108E-1   5.544406756035240E-2  
 4.038259564891223E9    -7.322077573077626E-1   5.662660007088632E-2  
 4.039009752438109E9    -7.315449902241321E-1   5.858194007095695E-2  
 4.039759939984996E9    -7.313061392486417E-1   6.202936529274659E-2  
 4.040510127531883E9    -7.312929691482747E-1   6.410354326319695E-2  
 4.041260315078770E9    -7.299431385325409E-1   6.695394293950499E-2  
 4.042010502625657E9    -7.292332556680123E-1   6.967871672919394E-2  
 4.042760690172543E9    -7.275382822427573E-1   7.295287462759019E-2  
 4.043510877719430E9    -7.271677798841735E-1   7.566882117493452E-2  
 4.044261065266316E9    -7.259502998593063E-1   7.803416297519208E-2  
 4.045011252813203E9    -7.243354952107837E-1   8.064919113800675E-2  
 4.045761440360090E9    -7.234107909152496E-1   8.216295280853661E-2  
 4.046511627906977E9    -7.218660276491100E-1   8.484932430794091E-2  
 4.047261815453864E9    -7.202038131999357E-1   8.617694757018986E-2  
 4.048012003000750E9    -7.187783996794482E-1   8.798022449626029E-2  
 4.048762190547637E9    -7.165757074165992E-1   9.023104668562117E-2  
 4.049512378094523E9    -7.146575002815045E-1   9.385698678290844E-2  
 4.050262565641410E9    -7.136270833465436E-1   9.399361153462531E-2  
 4.051012753188297E9    -7.126962727205318E-1   9.516335919123145E-2  
 4.051762940735184E9    -7.105105722630410E-1   9.512653107380123E-2  
 4.052513128282071E9    -7.088497556723229E-1   9.667285420537744E-2  
 4.053263315828957E9    -7.074633885115332E-1   9.737088349420581E-2  
 4.054013503375844E9    -7.059834828551249E-1   9.879891996370258E-2  
 4.054763690922730E9    -7.041081777438057E-1   1.009288876257688E-1  
 4.055513878469617E9    -7.031363475664495E-1   1.003741935390830E-1  
 4.056264066016504E9    -7.011573598026217E-1   1.005907009645849E-1  
 4.057014253563391E9    -6.996692645201453E-1   1.001103440761417E-1  
 4.057764441110278E9    -6.984324071908721E-1   1.014262764002756E-1  
 4.058514628657164E9    -6.979040476723138E-1   1.016220445876718E-1  
 4.059264816204051E9    -6.965319330824543E-1   1.015917085045651E-1  
 4.060015003750938E9    -6.958542070820800E-1   1.016711118375808E-1  
 4.060765191297824E9    -6.939370273074180E-1   1.016665504511968E-1  
 4.061515378844711E9    -6.929740612873749E-1   1.019414456534982E-1  
 4.062265566391598E9    -6.936368243560704E-1   1.007326391051784E-1  
 4.063015753938485E9    -6.922950183891968E-1   1.007208991777376E-1  
 4.063765941485371E9    -6.917377593774459E-1   1.003643297083304E-1  
 4.064516129032258E9    -6.914726561082060E-1   1.003351789871082E-1  
 4.065266316579145E9    -6.911472880783287E-1   1.001388442707062E-1  
 4.066016504126031E9    -6.903365945456935E-1   1.000337998350561E-1  
 4.066766691672918E9    -6.907322473796860E-1   9.998497092967482E-2  
 4.067516879219805E9    -6.912177942335739E-1   9.971753238108010E-2  
 4.068267066766692E9    -6.908819988809212E-1   9.967453716753424E-2  
 4.069017254313579E9    -6.915848394658370E-1   9.809656854141506E-2  
 4.069767441860465E9    -6.919896874249055E-1   9.811072126638891E-2  
 4.070517629407352E9    -6.922807892683238E-1   9.830388425307725E-2  
 4.071267816954238E9    -6.931732963138476E-1   9.851125940083716E-2  
 4.072018004501125E9    -6.942171065812611E-1   9.805202043489369E-2  
 4.072768192048012E9    -6.948025883155126E-1   9.894163873675468E-2  
 4.073518379594899E9    -6.955010154167881E-1   9.842526400326940E-2  
 4.074268567141786E9    -6.973723302928364E-1   9.928936326427013E-2  
 4.075018754688672E9    -6.983521307089780E-1   9.937978417476269E-2  
 4.075768942235559E9    -6.995482935813830E-1   1.004678563347385E-1  
 4.076519129782445E9    -7.006208886190710E-1   1.010362558398843E-1  
 4.077269317329332E9    -7.020582751063029E-1   1.020768892587871E-1  
 4.078019504876219E9    -7.025529741550959E-1   1.029318035555631E-1  
 4.078769692423106E9    -7.038805274852351E-1   1.038485183380694E-1  
 4.079519879969993E9    -7.052741510812381E-1   1.060972997843251E-1  
 4.080270067516879E9    -7.062427963455824E-1   1.075459880217463E-1  
 4.081020255063766E9    -7.079326701840272E-1   1.088513117066547E-1  
 4.081770442610652E9    -7.079381506842138E-1   1.113710253108591E-1  
 4.082520630157539E9    -7.093446245374262E-1   1.136445932912603E-1  
 4.083270817704426E9    -7.105824216179479E-1   1.158707423656434E-1  
 4.084021005251313E9    -7.104862568305694E-1   1.176869991699308E-1  
 4.084771192798200E9    -7.124614728417105E-1   1.199028817868009E-1  
 4.085521380345086E9    -7.120370784867888E-1   1.227016208436862E-1  
 4.086271567891973E9    -7.120730719465316E-1   1.246617818849832E-1  
 4.087021755438860E9    -7.126526464721343E-1   1.269408138562292E-1  
 4.087771942985746E9    -7.129156592696641E-1   1.302237982295752E-1  
 4.088522130532633E9    -7.131702839592586E-1   1.323904162967206E-1  
 4.089272318079520E9    -7.124978059477565E-1   1.352233546184302E-1  
 4.090022505626407E9    -7.128370995867120E-1   1.382744220087677E-1  
 4.090772693173293E9    -7.118426080118119E-1   1.406534211029709E-1  
 4.091522880720180E9    -7.113475872331243E-1   1.442196371575296E-1  
 4.092273068267067E9    -7.106465737779298E-1   1.458351502940804E-1  
 4.093023255813953E9    -7.086947783585417E-1   1.488241823505908E-1  
 4.093773443360840E9    -7.085130834067198E-1   1.511016564555467E-1  
 4.094523630907727E9    -7.074587428599853E-1   1.538688167981208E-1  
 4.095273818454614E9    -7.061901525316574E-1   1.560323130814285E-1  
 4.096024006001500E9    -7.049953058580317E-1   1.585585539318919E-1  
 4.096774193548387E9    -7.034801561880982E-1   1.604196556260735E-1  
 4.097524381095274E9    -7.016036314498164E-1   1.627248039452583E-1  
 4.098274568642160E9    -7.003529686468697E-1   1.651159768473357E-1  
 4.099024756189047E9    -6.983710866846173E-1   1.664222346619964E-1  
 4.099774943735934E9    -6.971527777010892E-1   1.675512343900353E-1  
 4.100525131282821E9    -6.947567534018643E-1   1.696121585288495E-1  
 4.101275318829708E9    -6.941030739014285E-1   1.710119987239988E-1  
 4.102025506376594E9    -6.920303988006784E-1   1.724759887118340E-1  
 4.102775693923481E9    -6.903425635393183E-1   1.738211640083939E-1  
 4.103525881470367E9    -6.886950205344563E-1   1.751903860631436E-1  
 4.104276069017254E9    -6.876901306651250E-1   1.752698603679985E-1  
 4.105026256564141E9    -6.842958721165298E-1   1.763318061156273E-1  
 4.105776444111028E9    -6.842332070073314E-1   1.773033161219508E-1  
 4.106526631657915E9    -6.823657172087274E-1   1.785440710450709E-1  
 4.107276819204801E9    -6.811261701073085E-1   1.789981523630470E-1  
 4.108027006751688E9    -6.791651862392241E-1   1.800384722437710E-1  
 4.108777194298574E9    -6.778727503578270E-1   1.809369888111353E-1  
 4.109527381845461E9    -6.761210608101818E-1   1.804425987182856E-1  
 4.110277569392348E9    -6.745584646090886E-1   1.804362034379244E-1  
 4.111027756939235E9    -6.744940697645742E-1   1.811346472092718E-1  
 4.111777944486122E9    -6.736883575158750E-1   1.813786792785973E-1  
 4.112528132033008E9    -6.721859338460458E-1   1.807622748831212E-1  
 4.113278319579895E9    -6.712655920750921E-1   1.815648865399808E-1  
 4.114028507126782E9    -6.699635691401153E-1   1.815755716991723E-1  
 4.114778694673668E9    -6.698338769444248E-1   1.808215318676830E-1  
 4.115528882220555E9    -6.691464271217009E-1   1.806433892656416E-1  
 4.116279069767442E9    -6.695789261279110E-1   1.813079169259966E-1  
 4.117029257314329E9    -6.685915884603103E-1   1.794207174220533E-1  
 4.117779444861215E9    -6.690427383205949E-1   1.802697168424725E-1  
 4.118529632408102E9    -6.683875951105129E-1   1.809096284627468E-1  
 4.119279819954989E9    -6.690656507030283E-1   1.788247254361063E-1  
 4.120030007501875E9    -6.692682963000456E-1   1.802307574362606E-1  
 4.120780195048762E9    -6.685332849742519E-1   1.821422510112226E-1  
 4.121530382595649E9    -6.697023459974488E-1   1.813147404130549E-1  
 4.122280570142536E9    -6.703720499269019E-1   1.808453772965223E-1  
 4.123030757689422E9    -6.714022762759497E-1   1.802874336116463E-1  
 4.123780945236309E9    -6.722968106727871E-1   1.800890555028022E-1  
 4.124531132783196E9    -6.729272925197287E-1   1.809453291032165E-1  
 4.125281320330082E9    -6.739455784778583E-1   1.818028897453398E-1  
 4.126031507876969E9    -6.745798067466047E-1   1.823265054259152E-1  
 4.126781695423856E9    -6.759975154007865E-1   1.823968170916737E-1  
 4.127531882970743E9    -6.765464720129563E-1   1.839284497440606E-1  
 4.128282070517630E9    -6.782889080494481E-1   1.849819467228055E-1  
 4.129032258064516E9    -6.788315599293964E-1   1.867353800646812E-1  
 4.129782445611403E9    -6.802406356200579E-1   1.856647516085059E-1  
 4.130532633158289E9    -6.814696000634958E-1   1.880968426510990E-1  
 4.131282820705176E9    -6.821939190468022E-1   1.898828362318278E-1  
 4.132033008252063E9    -6.834955385156343E-1   1.918218329546005E-1  
 4.132783195798950E9    -6.839287151383741E-1   1.938538960491121E-1  
 4.133533383345837E9    -6.852664950208827E-1   1.960656704136432E-1  
 4.134283570892723E9    -6.862071031430123E-1   1.970381775847078E-1  
 4.135033758439610E9    -6.873668802862037E-1   1.989841132938564E-1  
 4.135783945986496E9    -6.876670256910985E-1   2.015019119840265E-1  
 4.136534133533383E9    -6.884586091004563E-1   2.032398997810782E-1  
 4.137284321080270E9    -6.886787591882191E-1   2.051297125935704E-1  
 4.138034508627157E9    -6.880278012115857E-1   2.085375234617293E-1  
 4.138784696174044E9    -6.883796990516162E-1   2.103121477414668E-1  
 4.139534883720930E9    -6.879114857906437E-1   2.143922933778763E-1  
 4.140285071267817E9    -6.888142504617074E-1   2.157604426941276E-1  
 4.141035258814704E9    -6.883254479429746E-1   2.180315485376865E-1  
 4.141785446361590E9    -6.882100740818425E-1   2.200087060674727E-1  
 4.142535633908477E9    -6.871858939366501E-1   2.238142363142521E-1  
 4.143285821455364E9    -6.856242286778314E-1   2.270968068860919E-1  
 4.144036009002251E9    -6.853418696115543E-1   2.283770573072285E-1  
 4.144786196549137E9    -6.843932881599175E-1   2.315270983744413E-1  
 4.145536384096024E9    -6.825242895473708E-1   2.333383932541610E-1  
 4.146286571642911E9    -6.814578115619756E-1   2.353452642388791E-1  
 4.147036759189797E9    -6.803440077056508E-1   2.386458325576782E-1  
 4.147786946736684E9    -6.779592854255424E-1   2.405520353637636E-1  
 4.148537134283571E9    -6.770127991228303E-1   2.423631709362716E-1  
 4.149287321830458E9    -6.745087066428900E-1   2.448544328370989E-1  
 4.150037509377344E9    -6.723849085276704E-1   2.454944029021264E-1  
 4.150787696924231E9    -6.705745748345477E-1   2.476153399802149E-1  
 4.151537884471118E9    -6.693835553747433E-1   2.490263300618529E-1  
 4.152288072018004E9    -6.670116339606425E-1   2.506599451021552E-1  
 4.153038259564891E9    -6.650232852610487E-1   2.518660579574109E-1  
 4.153788447111778E9    -6.626853382905682E-1   2.529435590000451E-1  
 4.154538634658665E9    -6.605138977750832E-1   2.542107853506506E-1  
 4.155288822205551E9    -6.587310854416698E-1   2.543686918781996E-1  
 4.156039009752438E9    -6.570518784016188E-1   2.560949118245245E-1  
 4.156789197299325E9    -6.548182859127928E-1   2.578641324044467E-1  
 4.157539384846211E9    -6.533458262061924E-1   2.575803437894583E-1  
 4.158289572393098E9    -6.513761134369660E-1   2.584194272730649E-1  
 4.159039759939985E9    -6.489497775386791E-1   2.586327887161077E-1  
 4.159789947486872E9    -6.472234710243157E-1   2.592939353669286E-1  
 4.160540135033759E9    -6.455535903988877E-1   2.586440341816545E-1  
 4.161290322580645E9    -6.438856225270512E-1   2.592636615725160E-1  
 4.162040510127532E9    -6.417292164461815E-1   2.585530863403976E-1  
 4.162790697674418E9    -6.404027178874699E-1   2.589307043136359E-1  
 4.163540885221305E9    -6.396480183830496E-1   2.587386829367578E-1  
 4.164291072768192E9    -6.377966835006016E-1   2.580820383626521E-1  
 4.165041260315079E9    -6.372757023767054E-1   2.579876528468431E-1  
 4.165791447861966E9    -6.355189858430939E-1   2.571719170389176E-1  
 4.166541635408852E9    -6.343880068159185E-1   2.572769638526440E-1  
 4.167291822955739E9    -6.333854725458057E-1   2.568326928874255E-1  
 4.168042010502626E9    -6.335528158196171E-1   2.567722295342982E-1  
 4.168792198049512E9    -6.329203128782800E-1   2.566053970640302E-1  
 4.169542385596399E9    -6.321324674062869E-1   2.559006644118727E-1  
 4.170292573143286E9    -6.324398604554290E-1   2.553289632562996E-1  
 4.171042760690173E9    -6.320155772789275E-1   2.545996093246043E-1  
 4.171792948237059E9    -6.320234561629953E-1   2.544473990758658E-1  
 4.172543135783946E9    -6.327854168782009E-1   2.531724371539057E-1  
 4.173293323330833E9    -6.324204312016238E-1   2.536395863831042E-1  
 4.174043510877719E9    -6.337232267109128E-1   2.530624082391262E-1  
 4.174793698424606E9    -6.338607779349333E-1   2.530385865532160E-1  
 4.175543885971493E9    -6.338537063430864E-1   2.544009998128117E-1  
 4.176294073518380E9    -6.352363748564759E-1   2.532723836913407E-1  
 4.177044261065266E9    -6.366245181207793E-1   2.537179169963301E-1  
 4.177794448612153E9    -6.371550304588338E-1   2.539466644385457E-1  
 4.178544636159040E9    -6.384586948220746E-1   2.546982013420761E-1  
 4.179294823705926E9    -6.395161471353387E-1   2.554549639383257E-1  
 4.180045011252813E9    -6.403397689601807E-1   2.568481399955155E-1  
 4.180795198799700E9    -6.405426101856977E-1   2.571509170517028E-1  
 4.181545386346587E9    -6.428960703031226E-1   2.577311069878043E-1  
 4.182295573893473E9    -6.441661695674608E-1   2.592655414056778E-1  
 4.183045761440360E9    -6.460682764854596E-1   2.600288358982802E-1  
 4.183795948987247E9    -6.464929440311572E-1   2.613938062431216E-1  
 4.184546136534133E9    -6.483073396275354E-1   2.634999099901915E-1  
 4.185296324081020E9    -6.479842353537016E-1   2.654957486048043E-1  
 4.186046511627907E9    -6.496553095745070E-1   2.678794692469538E-1  
 4.186796699174794E9    -6.507382167061100E-1   2.698247509886325E-1  
 4.187546886721681E9    -6.524181546444673E-1   2.722074865699112E-1  
 4.188297074268567E9    -6.524899655511721E-1   2.738267542476058E-1  
 4.189047261815454E9    -6.529964357776212E-1   2.766328132864237E-1  
 4.189797449362341E9    -6.535719266040689E-1   2.800409773139060E-1  
 4.190547636909227E9    -6.542363387045940E-1   2.823293969396652E-1  
 4.191297824456114E9    -6.538618000657583E-1   2.840978269409835E-1  
 4.192048012003001E9    -6.545775777452949E-1   2.871019589646460E-1  
 4.192798199549888E9    -6.539502072002543E-1   2.897146044449508E-1  
 4.193548387096774E9    -6.541891918483493E-1   2.930938080001772E-1  
 4.194298574643661E9    -6.539122663970260E-1   2.959845585138202E-1  
 4.195048762190548E9    -6.534192828484693E-1   2.980244298189879E-1  
 4.195798949737434E9    -6.528162158548615E-1   3.012624375984669E-1  
 4.196549137284321E9    -6.513753988868125E-1   3.039308408731222E-1  
 4.197299324831208E9    -6.511840714193591E-1   3.067332150378527E-1  
 4.198049512378095E9    -6.487959395406597E-1   3.100534641174377E-1  
 4.198799699924981E9    -6.484774974317049E-1   3.117345891435445E-1  
 4.199549887471868E9    -6.462923787840429E-1   3.148308643460274E-1  
 4.200300075018755E9    -6.445078750543882E-1   3.158917702839375E-1  
 4.201050262565641E9    -6.421168173117636E-1   3.197558427159786E-1  
 4.201800450112528E9    -6.405970729893841E-1   3.222731355220676E-1  
 4.202550637659415E9    -6.395082238648968E-1   3.224917705029251E-1  
 4.203300825206302E9    -6.370198784248943E-1   3.246523875089885E-1  
 4.204051012753188E9    -6.354001491447192E-1   3.258886470362544E-1  
 4.204801200300075E9    -6.329832201923156E-1   3.282073420485259E-1  
 4.205551387846962E9    -6.309268242455529E-1   3.302979297207594E-1  
 4.206301575393848E9    -6.285952555154761E-1   3.304817693045736E-1  
 4.207051762940735E9    -6.254340551048080E-1   3.321301459347309E-1  
 4.207801950487622E9    -6.232505091412510E-1   3.331711634021402E-1  
 4.208552138034509E9    -6.211236827003220E-1   3.337438779716790E-1  
