#  HZ   S   RI   R     50.0 
! Rohde & Schwarz ZVL13 2Ports - Version 3.31 - 1303.6509k13 SN: 101088
! Date: 2023-03-03 14:44:32
! Data & Calibration Information:
! Trc2:S21(TOSM)
! 
! 
! 
 4.000000000000000E9    -7.171484330650727E-1   1.265466911782927E-2  
 4.000750187546887E9    -7.146366520179643E-1   1.369782499074969E-2  
 4.001500375093773E9    -7.139043250431409E-1   1.368535372782444E-2  
 4.002250562640660E9    -7.118987710423275E-1   1.661258944015908E-2  
 4.003000750187547E9    -7.106807437192433E-1   1.498302509292793E-2  
 4.003750937734434E9    -7.087108330083067E-1   1.506698602185235E-2  
 4.004501125281320E9    -7.074554368151145E-1   1.510497990846178E-2  
 4.005251312828207E9    -7.062068130502549E-1   1.512496734665066E-2  
 4.006001500375094E9    -7.052255007701747E-1   1.432651399068014E-2  
 4.006751687921980E9    -7.035019957875046E-1   1.394557755611567E-2  
 4.007501875468867E9    -7.022613004870461E-1   1.459332763591622E-2  
 4.008252063015754E9    -7.014060759089423E-1   1.429646865655473E-2  
 4.009002250562641E9    -7.002059745592930E-1   1.324497297816657E-2  
 4.009752438109528E9    -7.000489331545621E-1   1.251625108302833E-2  
 4.010502625656414E9    -6.986617593126869E-1   1.221343329550419E-2  
 4.011252813203301E9    -6.984370053851178E-1   1.132545385715625E-2  
 4.012003000750187E9    -6.975091188509326E-1   1.121781673721279E-2  
 4.012753188297074E9    -6.975122529362253E-1   1.042271428616026E-2  
 4.013503375843961E9    -6.972886938332807E-1   1.071457456464654E-2  
 4.014253563390848E9    -6.980108199235244E-1   8.650167642175743E-3  
 4.015003750937735E9    -6.976116025374632E-1   8.205329954758305E-3  
 4.015753938484621E9    -6.988699461556579E-1   7.361770016084465E-3  
 4.016504126031508E9    -6.991238541224543E-1   7.237113937904727E-3  
 4.017254313578394E9    -6.999086042362942E-1   6.244889787555377E-3  
 4.018004501125281E9    -7.002651799535586E-1   5.727316316220935E-3  
 4.018754688672168E9    -7.015220759341416E-1   5.474406625795593E-3  
 4.019504876219055E9    -7.033893421439674E-1   5.317510754567345E-3  
 4.020255063765942E9    -7.041255886573569E-1   5.783898981980968E-3  
 4.021005251312828E9    -7.055056902344434E-1   5.620368508140226E-3  
 4.021755438859715E9    -7.075507133117434E-1   5.131048386634011E-3  
 4.022505626406601E9    -7.090284571024885E-1   6.627626255556060E-3  
 4.023255813953488E9    -7.102813240761104E-1   7.770773331451012E-3  
 4.024006001500375E9    -7.132530106332551E-1   8.550682176935486E-3  
 4.024756189047262E9    -7.140041772969706E-1   9.570696925793499E-3  
 4.025506376594149E9    -7.158163748642633E-1   1.015153649288250E-2  
 4.026256564141035E9    -7.173816660171571E-1   1.166312532634843E-2  
 4.027006751687922E9    -7.196791414069451E-1   1.262521759948379E-2  
 4.027756939234809E9    -7.217394687314408E-1   1.491623865034085E-2  
 4.028507126781695E9    -7.229508636655971E-1   1.725171902972705E-2  
 4.029257314328582E9    -7.246634548070607E-1   1.886449716874816E-2  
 4.030007501875469E9    -7.255839703256896E-1   2.187558470858652E-2  
 4.030757689422356E9    -7.267019072716501E-1   2.446184256979076E-2  
 4.031507876969242E9    -7.286443337203377E-1   2.681088097171893E-2  
 4.032258064516129E9    -7.292553357742471E-1   2.911958717459328E-2  
 4.033008252063016E9    -7.303389273429980E-1   3.333319341510897E-2  
 4.033758439609902E9    -7.315872704478698E-1   3.373516342736707E-2  
 4.034508627156789E9    -7.315675294373777E-1   3.632375275110948E-2  
 4.035258814703676E9    -7.322876876855660E-1   4.198871845768077E-2  
 4.036009002250563E9    -7.331045467565249E-1   4.290968762619876E-2  
 4.036759189797450E9    -7.327567992443286E-1   4.776176148247201E-2  
 4.037509377344336E9    -7.333879172149772E-1   5.347123090282563E-2  
 4.038259564891223E9    -7.325674827572516E-1   5.486549516935930E-2  
 4.039009752438109E9    -7.320888976260787E-1   5.696983113810923E-2  
 4.039759939984996E9    -7.317265518974022E-1   6.003396495277078E-2  
 4.040510127531883E9    -7.318436991788089E-1   6.210883699097089E-2  
 4.041260315078770E9    -7.302853924666191E-1   6.524486709138218E-2  
 4.042010502625657E9    -7.295677714756254E-1   6.767186546926689E-2  
 4.042760690172543E9    -7.279922266649209E-1   7.099674113921707E-2  
 4.043510877719430E9    -7.276448281296352E-1   7.367928059393707E-2  
 4.044261065266316E9    -7.266028537596789E-1   7.606493851485609E-2  
 4.045011252813203E9    -7.245930007490338E-1   7.903988428453197E-2  
 4.045761440360090E9    -7.236822719919845E-1   8.018255065157240E-2  
 4.046511627906977E9    -7.222283981452308E-1   8.309852834129358E-2  
 4.047261815453864E9    -7.207068456029177E-1   8.422977261619746E-2  
 4.048012003000750E9    -7.193263448919851E-1   8.582882485569864E-2  
 4.048762190547637E9    -7.171926718110987E-1   8.815352397476627E-2  
 4.049512378094523E9    -7.150732682635641E-1   9.228953536932186E-2  
 4.050262565641410E9    -7.139512758470414E-1   9.194477565490242E-2  
 4.051012753188297E9    -7.130741816573011E-1   9.332649258153977E-2  
 4.051762940735184E9    -7.111201390317967E-1   9.361473526618876E-2  
 4.052513128282071E9    -7.092882570366410E-1   9.486430829359174E-2  
 4.053263315828957E9    -7.077135843493958E-1   9.575049321918580E-2  
 4.054013503375844E9    -7.064907279592102E-1   9.707494217515331E-2  
 4.054763690922730E9    -7.046072804807887E-1   9.886345953773304E-2  
 4.055513878469617E9    -7.037258170307313E-1   9.854614768659278E-2  
 4.056264066016504E9    -7.018089274611934E-1   9.890808252729622E-2  
 4.057014253563391E9    -7.000939977898927E-1   9.857891742898776E-2  
 4.057764441110278E9    -6.990523787183829E-1   9.965053774279450E-2  
 4.058514628657164E9    -6.983652244147929E-1   9.952416135284693E-2  
 4.059264816204051E9    -6.970691639235733E-1   1.000169610550880E-1  
 4.060015003750938E9    -6.962522554400026E-1   9.980611066914415E-2  
 4.060765191297824E9    -6.943879792371653E-1   1.000430746819340E-1  
 4.061515378844711E9    -6.935681347426513E-1   1.001832560676760E-1  
 4.062265566391598E9    -6.942722457182524E-1   9.888545006026980E-2  
 4.063015753938485E9    -6.926949702855699E-1   9.856706684726718E-2  
 4.063765941485371E9    -6.921558627305566E-1   9.876381699533239E-2  
 4.064516129032258E9    -6.919427242748459E-1   9.869200022316887E-2  
 4.065266316579145E9    -6.913643616475824E-1   9.845529521500085E-2  
 4.066016504126031E9    -6.907635626618942E-1   9.825262828668305E-2  
 4.066766691672918E9    -6.911447685419105E-1   9.801616714954661E-2  
 4.067516879219805E9    -6.915942902642918E-1   9.795092670543067E-2  
 4.068267066766692E9    -6.914200613180446E-1   9.786731936822352E-2  
 4.069017254313579E9    -6.919454845060248E-1   9.635595762905473E-2  
 4.069767441860465E9    -6.922776517860285E-1   9.635520571063180E-2  
 4.070517629407352E9    -6.927647802396312E-1   9.651476330117151E-2  
 4.071267816954238E9    -6.937874681010888E-1   9.678505929358050E-2  
 4.072018004501125E9    -6.946404791697910E-1   9.606867337653098E-2  
 4.072768192048012E9    -6.953179978612157E-1   9.710955783883549E-2  
 4.073518379594899E9    -6.961072827516027E-1   9.665153784811864E-2  
 4.074268567141786E9    -6.975291665938201E-1   9.743031365074516E-2  
 4.075018754688672E9    -6.986307770680325E-1   9.766372621661507E-2  
 4.075768942235559E9    -6.999717682883073E-1   9.868109015443199E-2  
 4.076519129782445E9    -7.009905513463330E-1   9.901959507610163E-2  
 4.077269317329332E9    -7.024985546158673E-1   1.002725497186761E-1  
 4.078019504876219E9    -7.031508940069515E-1   1.011144954537444E-1  
 4.078769692423106E9    -7.043376958699386E-1   1.019851575388855E-1  
 4.079519879969993E9    -7.057189402610209E-1   1.041972634080585E-1  
 4.080270067516879E9    -7.065824741785498E-1   1.059223226849300E-1  
 4.081020255063766E9    -7.082471985211561E-1   1.070612522251617E-1  
 4.081770442610652E9    -7.083202982908757E-1   1.094053665786268E-1  
 4.082520630157539E9    -7.098162486552643E-1   1.121521661962025E-1  
 4.083270817704426E9    -7.111490831596073E-1   1.139729511300814E-1  
 4.084021005251313E9    -7.109071256221045E-1   1.159010552983884E-1  
 4.084771192798200E9    -7.130080951460632E-1   1.179318325912909E-1  
 4.085521380345086E9    -7.124811070431538E-1   1.207404824325536E-1  
 4.086271567891973E9    -7.124585658079710E-1   1.227234263271414E-1  
 4.087021755438860E9    -7.131555679456219E-1   1.251749592082533E-1  
 4.087771942985746E9    -7.134815959716422E-1   1.281161855811973E-1  
 4.088522130532633E9    -7.137336302690250E-1   1.302694382728833E-1  
 4.089272318079520E9    -7.128942336161267E-1   1.331910032581693E-1  
 4.090022505626407E9    -7.133754401010840E-1   1.364338233969810E-1  
 4.090772693173293E9    -7.125599369986941E-1   1.388790808119782E-1  
 4.091522880720180E9    -7.118315931152226E-1   1.423145838756985E-1  
 4.092273068267067E9    -7.111730654748500E-1   1.441493411380157E-1  
 4.093023255813953E9    -7.092834554719179E-1   1.471666796415564E-1  
 4.093773443360840E9    -7.089985060705741E-1   1.493473904432087E-1  
 4.094523630907727E9    -7.080653902102529E-1   1.520829328282405E-1  
 4.095273818454614E9    -7.068205603479657E-1   1.544824908237047E-1  
 4.096024006001500E9    -7.055630648042072E-1   1.567056402317370E-1  
 4.096774193548387E9    -7.040611538825519E-1   1.586140667984655E-1  
 4.097524381095274E9    -7.022090243472761E-1   1.608185029507875E-1  
 4.098274568642160E9    -7.010664830176995E-1   1.631707620188594E-1  
 4.099024756189047E9    -6.989229942043186E-1   1.645531514300667E-1  
 4.099774943735934E9    -6.977579169439224E-1   1.658008703116547E-1  
 4.100525131282821E9    -6.953600610179486E-1   1.676876630664793E-1  
 4.101275318829708E9    -6.945280351800278E-1   1.691491334076671E-1  
 4.102025506376594E9    -6.925974592367389E-1   1.707522975425708E-1  
 4.102775693923481E9    -6.911654104663997E-1   1.720720240550424E-1  
 4.103525881470367E9    -6.893623026893837E-1   1.734082211515781E-1  
 4.104276069017254E9    -6.881656833976880E-1   1.734824985182528E-1  
 4.105026256564141E9    -6.850042628891940E-1   1.746227801639637E-1  
 4.105776444111028E9    -6.849476687876850E-1   1.757057117108357E-1  
 4.106526631657915E9    -6.828677696848540E-1   1.768227736770978E-1  
 4.107276819204801E9    -6.816272079508650E-1   1.770921771350710E-1  
 4.108027006751688E9    -6.798373918914854E-1   1.779010760341152E-1  
 4.108777194298574E9    -6.786499652590714E-1   1.791790457843625E-1  
 4.109527381845461E9    -6.767762956719414E-1   1.787432631468059E-1  
 4.110277569392348E9    -6.752572482952700E-1   1.786532623806958E-1  
 4.111027756939235E9    -6.751810248956904E-1   1.792310966768892E-1  
 4.111777944486122E9    -6.741284158663879E-1   1.796998783234465E-1  
 4.112528132033008E9    -6.728437669337195E-1   1.790820860054761E-1  
 4.113278319579895E9    -6.719806498128634E-1   1.800140609364666E-1  
 4.114028507126782E9    -6.705867732374279E-1   1.798104502687097E-1  
 4.114778694673668E9    -6.705592654062416E-1   1.790971139186289E-1  
 4.115528882220555E9    -6.697176013893007E-1   1.789665586012809E-1  
 4.116279069767442E9    -6.702080795724706E-1   1.795218924223547E-1  
 4.117029257314329E9    -6.694519247923432E-1   1.775275734492055E-1  
 4.117779444861215E9    -6.694070654944149E-1   1.786437789284379E-1  
 4.118529632408102E9    -6.689972981436458E-1   1.791735987606537E-1  
 4.119279819954989E9    -6.697489959210818E-1   1.774541222045904E-1  
 4.120030007501875E9    -6.698495561600041E-1   1.784569243405024E-1  
 4.120780195048762E9    -6.691402425213981E-1   1.803459433404508E-1  
 4.121530382595649E9    -6.703006430264337E-1   1.795599271734669E-1  
 4.122280570142536E9    -6.710093047728970E-1   1.791160295751485E-1  
 4.123030757689422E9    -6.722289889136119E-1   1.785288136119867E-1  
 4.123780945236309E9    -6.729087064620416E-1   1.784495318294702E-1  
 4.124531132783196E9    -6.737525318189668E-1   1.792202472902899E-1  
 4.125281320330082E9    -6.745950993737820E-1   1.801414667783765E-1  
 4.126031507876969E9    -6.751878744204706E-1   1.806176711457082E-1  
 4.126781695423856E9    -6.764476439457834E-1   1.806977937254269E-1  
 4.127531882970743E9    -6.772969601854433E-1   1.821456120931235E-1  
 4.128282070517630E9    -6.789474450993718E-1   1.829649829580808E-1  
 4.129032258064516E9    -6.794658214979559E-1   1.851319590674525E-1  
 4.129782445611403E9    -6.809185663858174E-1   1.840854883741335E-1  
 4.130532633158289E9    -6.821068896039385E-1   1.865690447168623E-1  
 4.131282820705176E9    -6.829670434355328E-1   1.877687298626234E-1  
 4.132033008252063E9    -6.841808963289522E-1   1.899942657892477E-1  
 4.132783195798950E9    -6.847025888433789E-1   1.922509984246855E-1  
 4.133533383345837E9    -6.858864676373238E-1   1.943183818861409E-1  
 4.134283570892723E9    -6.869285758922615E-1   1.952226857736329E-1  
 4.135033758439610E9    -6.880801645515362E-1   1.970608674078683E-1  
 4.135783945986496E9    -6.884600176144679E-1   1.996311049669176E-1  
 4.136534133533383E9    -6.891545118814205E-1   2.016964863367777E-1  
 4.137284321080270E9    -6.895154756196994E-1   2.032691932195213E-1  
 4.138034508627157E9    -6.889409135860105E-1   2.064481952697485E-1  
 4.138784696174044E9    -6.890697439249762E-1   2.087283125857984E-1  
 4.139534883720930E9    -6.886482039366084E-1   2.126397260372699E-1  
 4.140285071267817E9    -6.894342304962932E-1   2.137603463673699E-1  
 4.141035258814704E9    -6.889887006364582E-1   2.163524084624113E-1  
 4.141785446361590E9    -6.889474667625744E-1   2.182546367266825E-1  
 4.142535633908477E9    -6.878626554398871E-1   2.220479740257398E-1  
 4.143285821455364E9    -6.865563357399019E-1   2.248817871230094E-1  
 4.144036009002251E9    -6.861063795865150E-1   2.267929308674829E-1  
 4.144786196549137E9    -6.849914801295849E-1   2.297601815890412E-1  
 4.145536384096024E9    -6.832077681976405E-1   2.317382674660786E-1  
 4.146286571642911E9    -6.823275939387091E-1   2.335318305684320E-1  
 4.147036759189797E9    -6.811974683408347E-1   2.369030818263230E-1  
 4.147786946736684E9    -6.787597863428134E-1   2.387482982685332E-1  
 4.148537134283571E9    -6.778783203841334E-1   2.406366488562838E-1  
 4.149287321830458E9    -6.754154022547814E-1   2.429385723477087E-1  
 4.150037509377344E9    -6.730695632692439E-1   2.440456365775770E-1  
 4.150787696924231E9    -6.714630964885466E-1   2.457760504990065E-1  
 4.151537884471118E9    -6.701917391692233E-1   2.473547925545150E-1  
 4.152288072018004E9    -6.676716318170946E-1   2.490370060530429E-1  
 4.153038259564891E9    -6.657847735373602E-1   2.501808398156121E-1  
 4.153788447111778E9    -6.633835782451215E-1   2.511011761517799E-1  
 4.154538634658665E9    -6.614475597900938E-1   2.524369360002796E-1  
 4.155288822205551E9    -6.596458612465304E-1   2.526199487709316E-1  
 4.156039009752438E9    -6.578587902500359E-1   2.542164007876407E-1  
 4.156789197299325E9    -6.555931125956145E-1   2.560418361516521E-1  
 4.157539384846211E9    -6.542722786718236E-1   2.556580736682544E-1  
 4.158289572393098E9    -6.520558629217718E-1   2.568929057379689E-1  
 4.159039759939985E9    -6.499929766054067E-1   2.569232463953208E-1  
 4.159789947486872E9    -6.479675536360764E-1   2.576126171600167E-1  
 4.160540135033759E9    -6.464828497671905E-1   2.569366249876167E-1  
 4.161290322580645E9    -6.448845686691338E-1   2.573869907343184E-1  
 4.162040510127532E9    -6.428005990162130E-1   2.568460028075721E-1  
 4.162790697674418E9    -6.412117318102848E-1   2.569771256433094E-1  
 4.163540885221305E9    -6.406100405584705E-1   2.571178014995911E-1  
 4.164291072768192E9    -6.388337513273097E-1   2.565280575229300E-1  
 4.165041260315079E9    -6.380822292635999E-1   2.564311205700211E-1  
 4.165791447861966E9    -6.364730051013133E-1   2.555810870916590E-1  
 4.166541635408852E9    -6.350841878543623E-1   2.555233197111806E-1  
 4.167291822955739E9    -6.344130327702808E-1   2.550797487979096E-1  
 4.168042010502626E9    -6.344803249795593E-1   2.552229742576914E-1  
 4.168792198049512E9    -6.337897230486250E-1   2.550631730384450E-1  
 4.169542385596399E9    -6.330347030522455E-1   2.544746996928424E-1  
 4.170292573143286E9    -6.333680600799064E-1   2.535110617792201E-1  
 4.171042760690173E9    -6.331586379537377E-1   2.528862878068666E-1  
 4.171792948237059E9    -6.328387388583407E-1   2.529978655015928E-1  
 4.172543135783946E9    -6.334167682645318E-1   2.517006397549471E-1  
 4.173293323330833E9    -6.334100258578903E-1   2.519846742360218E-1  
 4.174043510877719E9    -6.345246592332193E-1   2.515467495809775E-1  
 4.174793698424606E9    -6.347169621877504E-1   2.511260225390420E-1  
 4.175543885971493E9    -6.347675924064293E-1   2.525649324398935E-1  
 4.176294073518380E9    -6.359527773148505E-1   2.519636616232140E-1  
 4.177044261065266E9    -6.376330564328802E-1   2.519616443789466E-1  
 4.177794448612153E9    -6.377922654750409E-1   2.522565435431546E-1  
 4.178544636159040E9    -6.392660561334955E-1   2.532952913823829E-1  
 4.179294823705926E9    -6.404368278642110E-1   2.537290083126051E-1  
 4.180045011252813E9    -6.412397255613596E-1   2.551392680583123E-1  
 4.180795198799700E9    -6.412737299601481E-1   2.554227253869106E-1  
 4.181545386346587E9    -6.436885622510344E-1   2.559674590773403E-1  
 4.182295573893473E9    -6.450870116274357E-1   2.575964194558885E-1  
 4.183045761440360E9    -6.469699480737190E-1   2.586088569089068E-1  
 4.183795948987247E9    -6.473400673418208E-1   2.597092748970761E-1  
 4.184546136534133E9    -6.490061112637622E-1   2.621402833363791E-1  
 4.185296324081020E9    -6.487748655249914E-1   2.638606388686740E-1  
 4.186046511627907E9    -6.505368030858243E-1   2.662314062680416E-1  
 4.186796699174794E9    -6.517905226074385E-1   2.682874838180158E-1  
 4.187546886721681E9    -6.532233728796214E-1   2.705434509636346E-1  
 4.188297074268567E9    -6.532964131514291E-1   2.723537453565498E-1  
 4.189047261815454E9    -6.539477502913584E-1   2.749177956742329E-1  
 4.189797449362341E9    -6.545291951192526E-1   2.783653621566510E-1  
 4.190547636909227E9    -6.549537220892644E-1   2.807666696610938E-1  
 4.191297824456114E9    -6.549478079959941E-1   2.824136042292494E-1  
 4.192048012003001E9    -6.553164221704724E-1   2.854952950478941E-1  
 4.192798199549888E9    -6.548827090075279E-1   2.879277606086206E-1  
 4.193548387096774E9    -6.552748511103510E-1   2.913259810368444E-1  
 4.194298574643661E9    -6.547190519450260E-1   2.942487662615907E-1  
 4.195048762190548E9    -6.542760431206568E-1   2.963576076422065E-1  
 4.195798949737434E9    -6.536690731946283E-1   2.995422376380723E-1  
 4.196549137284321E9    -6.522773726150127E-1   3.022858072197052E-1  
 4.197299324831208E9    -6.519548684149913E-1   3.052090949925801E-1  
 4.198049512378095E9    -6.498703246151234E-1   3.082966735835859E-1  
 4.198799699924981E9    -6.493631459676974E-1   3.101052133692451E-1  
 4.199549887471868E9    -6.473216951165300E-1   3.133846521887106E-1  
 4.200300075018755E9    -6.455352071386245E-1   3.140144461176246E-1  
 4.201050262565641E9    -6.430992927927841E-1   3.184046101629039E-1  
 4.201800450112528E9    -6.414944224549080E-1   3.205533772747796E-1  
 4.202550637659415E9    -6.404520588809413E-1   3.208863222129076E-1  
 4.203300825206302E9    -6.380661743142141E-1   3.228089644031608E-1  
 4.204051012753188E9    -6.364216032741621E-1   3.241229914889020E-1  
 4.204801200300075E9    -6.338236370303926E-1   3.268222495150205E-1  
 4.205551387846962E9    -6.318515618644187E-1   3.286081774642701E-1  
 4.206301575393848E9    -6.296809700071616E-1   3.288446400787014E-1  
 4.207051762940735E9    -6.264450897604209E-1   3.305882807098218E-1  
 4.207801950487622E9    -6.242243443794617E-1   3.315248132650060E-1  
 4.208552138034509E9    -6.221567816589571E-1   3.319278542635602E-1  
