#  HZ   S   RI   R     50.0 
! Rohde & Schwarz ZVL13 2Ports - Version 3.31 - 1303.6509k13 SN: 101088
! Date: 2023-03-03 14:43:12
! Data & Calibration Information:
! Trc2:S21(TOSM)
! 
! 
! 
 4.000000000000000E9    -7.170363327686034E-1   1.561197391739115E-2  
 4.000750187546887E9    -7.144717833734100E-1   1.619982994487509E-2  
 4.001500375093773E9    -7.138563991510889E-1   1.597878579581157E-2  
 4.002250562640660E9    -7.117702944319149E-1   1.876569164488465E-2  
 4.003000750187547E9    -7.103539140250279E-1   1.737278805598617E-2  
 4.003750937734434E9    -7.084133811031904E-1   1.761011943742633E-2  
 4.004501125281320E9    -7.071200046444511E-1   1.730562062002719E-2  
 4.005251312828207E9    -7.061887773470419E-1   1.732379255276174E-2  
 4.006001500375094E9    -7.050494681429624E-1   1.720351645182819E-2  
 4.006751687921980E9    -7.033327422886024E-1   1.626249526273460E-2  
 4.007501875468867E9    -7.023227156869510E-1   1.673204134199768E-2  
 4.008252063015754E9    -7.013969198415792E-1   1.693893224764615E-2  
 4.009002250562641E9    -7.001475734842243E-1   1.569686219850555E-2  
 4.009752438109528E9    -6.997178064016932E-1   1.498127280091867E-2  
 4.010502625656414E9    -6.985636704052558E-1   1.471285192463547E-2  
 4.011252813203301E9    -6.982645884601655E-1   1.410643344400451E-2  
 4.012003000750187E9    -6.972107574540982E-1   1.351762239085511E-2  
 4.012753188297074E9    -6.972766800129285E-1   1.286016863342375E-2  
 4.013503375843961E9    -6.971530726349070E-1   1.278790485020727E-2  
 4.014253563390848E9    -6.976160801307197E-1   1.089567281650380E-2  
 4.015003750937735E9    -6.974371183276501E-1   1.028243857985363E-2  
 4.015753938484621E9    -6.987292304054753E-1   1.030484678959474E-2  
 4.016504126031508E9    -6.990412841722902E-1   9.568076810706410E-3  
 4.017254313578394E9    -6.999107546956407E-1   8.657665426703171E-3  
 4.018004501125281E9    -7.003320646766278E-1   8.520367435272784E-3  
 4.018754688672168E9    -7.013290880132862E-1   7.928126955963673E-3  
 4.019504876219055E9    -7.032238586047349E-1   7.464588493900375E-3  
 4.020255063765942E9    -7.042234659168655E-1   8.200788088003173E-3  
 4.021005251312828E9    -7.053986565359285E-1   8.092032105196267E-3  
 4.021755438859715E9    -7.074459925367828E-1   7.920295707974584E-3  
 4.022505626406601E9    -7.088545524189326E-1   9.165807059779764E-3  
 4.023255813953488E9    -7.102030774084245E-1   1.000549215869978E-2  
 4.024006001500375E9    -7.131727131606265E-1   1.099556482285261E-2  
 4.024756189047262E9    -7.139803900452225E-1   1.198418116169051E-2  
 4.025506376594149E9    -7.157827449579155E-1   1.269819885548204E-2  
 4.026256564141035E9    -7.171400042710895E-1   1.389342879941687E-2  
 4.027006751687922E9    -7.196353376264641E-1   1.504389572096989E-2  
 4.027756939234809E9    -7.214779628319152E-1   1.765207745321095E-2  
 4.028507126781695E9    -7.228205383529835E-1   1.991640154682100E-2  
 4.029257314328582E9    -7.245735155213022E-1   2.136754247136414E-2  
 4.030007501875469E9    -7.254547407088318E-1   2.450566276889295E-2  
 4.030757689422356E9    -7.265745503048547E-1   2.679744413010776E-2  
 4.031507876969242E9    -7.283937114303911E-1   2.969013919122517E-2  
 4.032258064516129E9    -7.291327017399261E-1   3.160637968815864E-2  
 4.033008252063016E9    -7.301435114597752E-1   3.583233924619853E-2  
 4.033758439609902E9    -7.312778061218024E-1   3.631772009208800E-2  
 4.034508627156789E9    -7.313075161786836E-1   3.932732703424990E-2  
 4.035258814703676E9    -7.321111399599214E-1   4.428814185783268E-2  
 4.036009002250563E9    -7.330145211909704E-1   4.552377773039044E-2  
 4.036759189797450E9    -7.326226734985291E-1   5.000614493526519E-2  
 4.037509377344336E9    -7.331277052062289E-1   5.594279549755157E-2  
 4.038259564891223E9    -7.323664908685195E-1   5.752202554568649E-2  
 4.039009752438109E9    -7.317827883158229E-1   5.965654488466680E-2  
 4.039759939984996E9    -7.314256067407797E-1   6.277372909374535E-2  
 4.040510127531883E9    -7.313905250674017E-1   6.496302987784147E-2  
 4.041260315078770E9    -7.300742149888869E-1   6.775225212946535E-2  
 4.042010502625657E9    -7.292858841934256E-1   7.076064598709347E-2  
 4.042760690172543E9    -7.275825485334565E-1   7.374903257489204E-2  
 4.043510877719430E9    -7.271618964939932E-1   7.628456224948167E-2  
 4.044261065266316E9    -7.260542538856832E-1   7.879120447859170E-2  
 4.045011252813203E9    -7.243563345273126E-1   8.153418285474182E-2  
 4.045761440360090E9    -7.234190520163386E-1   8.286721484437584E-2  
 4.046511627906977E9    -7.218241314341481E-1   8.542865774333477E-2  
 4.047261815453864E9    -7.202825634823163E-1   8.631691674292087E-2  
 4.048012003000750E9    -7.187839109030553E-1   8.847545280754567E-2  
 4.048762190547637E9    -7.166500764639096E-1   9.080893805548551E-2  
 4.049512378094523E9    -7.146349152047595E-1   9.459252426251771E-2  
 4.050262565641410E9    -7.134579972359479E-1   9.485256298705935E-2  
 4.051012753188297E9    -7.126705358953754E-1   9.592172088772059E-2  
 4.051762940735184E9    -7.106045269482613E-1   9.575007474049926E-2  
 4.052513128282071E9    -7.088410607007484E-1   9.744175724536183E-2  
 4.053263315828957E9    -7.074318454963205E-1   9.818537358194590E-2  
 4.054013503375844E9    -7.059613404314797E-1   9.925867792665960E-2  
 4.054763690922730E9    -7.041016833739956E-1   1.013223684877157E-1  
 4.055513878469617E9    -7.031587049520341E-1   1.013312174133957E-1  
 4.056264066016504E9    -7.012999325715944E-1   1.013364225797355E-1  
 4.057014253563391E9    -6.995966307086424E-1   1.007152618966997E-1  
 4.057764441110278E9    -6.986114421989647E-1   1.018870124563575E-1  
 4.058514628657164E9    -6.979339531727238E-1   1.020913370423019E-1  
 4.059264816204051E9    -6.966021323690654E-1   1.022635443031788E-1  
 4.060015003750938E9    -6.958170385975016E-1   1.023986830957234E-1  
 4.060765191297824E9    -6.940993446174057E-1   1.025161963000894E-1  
 4.061515378844711E9    -6.932133111427051E-1   1.022783598303795E-1  
 4.062265566391598E9    -6.937422856211523E-1   1.013995981767774E-1  
 4.063015753938485E9    -6.923269243515768E-1   1.013116846628487E-1  
 4.063765941485371E9    -6.917149568170699E-1   1.012387017868459E-1  
 4.064516129032258E9    -6.914999958832105E-1   1.009596265897155E-1  
 4.065266316579145E9    -6.910136982193920E-1   1.007257033608854E-1  
 4.066016504126031E9    -6.902727420781768E-1   1.006493438273668E-1  
 4.066766691672918E9    -6.909218436178563E-1   1.005846337705851E-1  
 4.067516879219805E9    -6.912238820441967E-1   1.004163826055825E-1  
 4.068267066766692E9    -6.909206743756327E-1   1.001397105865181E-1  
 4.069017254313579E9    -6.915825568113877E-1   9.863575292378665E-2  
 4.069767441860465E9    -6.919072387445862E-1   9.887493305206301E-2  
 4.070517629407352E9    -6.924896883225393E-1   9.873067470416427E-2  
 4.071267816954238E9    -6.934239561983403E-1   9.928985990285877E-2  
 4.072018004501125E9    -6.943290781657875E-1   9.862453259900214E-2  
 4.072768192048012E9    -6.949762741614969E-1   9.952071333900095E-2  
 4.073518379594899E9    -6.957714365391609E-1   9.893210486918690E-2  
 4.074268567141786E9    -6.973658932565614E-1   9.967007448822263E-2  
 4.075018754688672E9    -6.983631138705490E-1   1.002327131845057E-1  
 4.075768942235559E9    -6.995319226862976E-1   1.011371377311647E-1  
 4.076519129782445E9    -7.007187038618459E-1   1.015834272310138E-1  
 4.077269317329332E9    -7.022049266862805E-1   1.027918500944972E-1  
 4.078019504876219E9    -7.027797524096383E-1   1.033108688600362E-1  
 4.078769692423106E9    -7.037645510777930E-1   1.045748229980469E-1  
 4.079519879969993E9    -7.053623122217186E-1   1.065257722169161E-1  
 4.080270067516879E9    -7.062855787467542E-1   1.081735373795033E-1  
 4.081020255063766E9    -7.078996817831226E-1   1.097226922892034E-1  
 4.081770442610652E9    -7.080554110788011E-1   1.119176547706127E-1  
 4.082520630157539E9    -7.094418305154935E-1   1.145160783335567E-1  
 4.083270817704426E9    -7.107298807995689E-1   1.165259285964072E-1  
 4.084021005251313E9    -7.106515019193904E-1   1.178918737351895E-1  
 4.084771192798200E9    -7.123237895889063E-1   1.206097611978650E-1  
 4.085521380345086E9    -7.121381895913806E-1   1.231869387269020E-1  
 4.086271567891973E9    -7.120110217076998E-1   1.251453948393465E-1  
 4.087021755438860E9    -7.126961384576109E-1   1.277509243503213E-1  
 4.087771942985746E9    -7.129432209620553E-1   1.306184763431549E-1  
 4.088522130532633E9    -7.132799332301291E-1   1.331541537910700E-1  
 4.089272318079520E9    -7.123287949233622E-1   1.357370053485036E-1  
 4.090022505626407E9    -7.129815637732058E-1   1.389360146522523E-1  
 4.090772693173293E9    -7.122024387466756E-1   1.413525445267558E-1  
 4.091522880720180E9    -7.112372597948649E-1   1.449521169260145E-1  
 4.092273068267067E9    -7.105767342387075E-1   1.464622600838542E-1  
 4.093023255813953E9    -7.086100875032311E-1   1.498260888636112E-1  
 4.093773443360840E9    -7.084802804209260E-1   1.517798440352083E-1  
 4.094523630907727E9    -7.073390967962373E-1   1.544952251136303E-1  
 4.095273818454614E9    -7.061111325628271E-1   1.567692898452283E-1  
 4.096024006001500E9    -7.046174879992485E-1   1.593119956821203E-1  
 4.096774193548387E9    -7.034501484718834E-1   1.611385419860483E-1  
 4.097524381095274E9    -7.012526495951739E-1   1.633942281529308E-1  
 4.098274568642160E9    -7.003733473243906E-1   1.656631627440453E-1  
 4.099024756189047E9    -6.983327793090606E-1   1.670342168256641E-1  
 4.099774943735934E9    -6.971043690692803E-1   1.680968431681395E-1  
 4.100525131282821E9    -6.946921287602492E-1   1.702489017486572E-1  
 4.101275318829708E9    -6.938923325103185E-1   1.717069570094347E-1  
 4.102025506376594E9    -6.916729126263121E-1   1.733825337544084E-1  
 4.102775693923481E9    -6.902107841368091E-1   1.745301339849830E-1  
 4.103525881470367E9    -6.886077357267816E-1   1.760429159507156E-1  
 4.104276069017254E9    -6.875591729468752E-1   1.759979281082750E-1  
 4.105026256564141E9    -6.842460718863908E-1   1.768893836006522E-1  
 4.105776444111028E9    -6.843761518872384E-1   1.781653904005885E-1  
 4.106526631657915E9    -6.823752947756363E-1   1.791452202901244E-1  
 4.107276819204801E9    -6.808933908089322E-1   1.795482430547476E-1  
 4.108027006751688E9    -6.789586894621403E-1   1.804751343652606E-1  
 4.108777194298574E9    -6.777854774919634E-1   1.814911604151130E-1  
 4.109527381845461E9    -6.761225267269706E-1   1.813243982300162E-1  
 4.110277569392348E9    -6.745629933637464E-1   1.810419014915824E-1  
 4.111027756939235E9    -6.743539271967691E-1   1.818145968765020E-1  
 4.111777944486122E9    -6.736812450714653E-1   1.820588052466512E-1  
 4.112528132033008E9    -6.720048933605204E-1   1.815157853782177E-1  
 4.113278319579895E9    -6.712761603649153E-1   1.824289570480585E-1  
 4.114028507126782E9    -6.698894397165972E-1   1.821641005307436E-1  
 4.114778694673668E9    -6.698693056391966E-1   1.815111831039191E-1  
 4.115528882220555E9    -6.691025339948323E-1   1.813211526244879E-1  
 4.116279069767442E9    -6.695565967773373E-1   1.818803999900818E-1  
 4.117029257314329E9    -6.686292591612290E-1   1.798387295886874E-1  
 4.117779444861215E9    -6.688614234981025E-1   1.809358552783728E-1  
 4.118529632408102E9    -6.683914529504385E-1   1.814872113451362E-1  
 4.119279819954989E9    -6.690797575888277E-1   1.797467353001237E-1  
 4.120030007501875E9    -6.692046298556790E-1   1.810393581718207E-1  
 4.120780195048762E9    -6.684645787299971E-1   1.828469429910183E-1  
 4.121530382595649E9    -6.696142974490175E-1   1.818800720795989E-1  
 4.122280570142536E9    -6.702580470228592E-1   1.815938901513815E-1  
 4.123030757689422E9    -6.713054494139767E-1   1.809568889707327E-1  
 4.123780945236309E9    -6.723039226567749E-1   1.809295500621200E-1  
 4.124531132783196E9    -6.729485975906184E-1   1.816750214800239E-1  
 4.125281320330082E9    -6.739299146530895E-1   1.824856817200780E-1  
 4.126031507876969E9    -6.744483163016791E-1   1.833255833312869E-1  
 4.126781695423856E9    -6.759270144090266E-1   1.831657805398107E-1  
 4.127531882970743E9    -6.765889775057545E-1   1.845385555237532E-1  
 4.128282070517630E9    -6.781873844571071E-1   1.856230799913407E-1  
 4.129032258064516E9    -6.790932918923063E-1   1.873131001323462E-1  
 4.129782445611403E9    -6.802140663141028E-1   1.865808281227946E-1  
 4.130532633158289E9    -6.813320555287052E-1   1.889385875299574E-1  
 4.131282820705176E9    -6.821132077255312E-1   1.904985373780132E-1  
 4.132033008252063E9    -6.835160388157214E-1   1.924264438942075E-1  
 4.132783195798950E9    -6.839161454297067E-1   1.945007783219219E-1  
 4.133533383345837E9    -6.850507593629911E-1   1.968708286911249E-1  
 4.134283570892723E9    -6.861549428540369E-1   1.976801798701287E-1  
 4.135033758439610E9    -6.873770039651912E-1   1.995638213291765E-1  
 4.135783945986496E9    -6.876028769480361E-1   2.020617290988565E-1  
 4.136534133533383E9    -6.884446655053250E-1   2.040536825090647E-1  
 4.137284321080270E9    -6.887048727840027E-1   2.058672595307231E-1  
 4.138034508627157E9    -6.879471779323231E-1   2.092499126449227E-1  
 4.138784696174044E9    -6.883179835610087E-1   2.111162816435099E-1  
 4.139534883720930E9    -6.878008982658814E-1   2.151548432245851E-1  
 4.140285071267817E9    -6.888019308828666E-1   2.163580239221454E-1  
 4.141035258814704E9    -6.882189626143691E-1   2.187881014958025E-1  
 4.141785446361590E9    -6.882348515744142E-1   2.205821906149388E-1  
 4.142535633908477E9    -6.869645455075529E-1   2.245229408994318E-1  
 4.143285821455364E9    -6.855305537586300E-1   2.276884654656053E-1  
 4.144036009002251E9    -6.852398390531778E-1   2.292061038479209E-1  
 4.144786196549137E9    -6.839514723981125E-1   2.322955139726401E-1  
 4.145536384096024E9    -6.823366101340161E-1   2.343291189610958E-1  
 4.146286571642911E9    -6.813233996619299E-1   2.361418175429106E-1  
 4.147036759189797E9    -6.803311671673921E-1   2.393797324076296E-1  
 4.147786946736684E9    -6.776773046800304E-1   2.412625808835030E-1  
 4.148537134283571E9    -6.769504668976385E-1   2.431698198899627E-1  
 4.149287321830458E9    -6.743621164084793E-1   2.455243880137802E-1  
 4.150037509377344E9    -6.722665203937039E-1   2.465432990387083E-1  
 4.150787696924231E9    -6.705294881108990E-1   2.481993321970105E-1  
 4.151537884471118E9    -6.692851134823517E-1   2.499090622171760E-1  
 4.152288072018004E9    -6.665853163295800E-1   2.513018283396959E-1  
 4.153038259564891E9    -6.647866767186758E-1   2.525896702140569E-1  
 4.153788447111778E9    -6.624431208168149E-1   2.535617841690779E-1  
 4.154538634658665E9    -6.605009718411509E-1   2.548490869581699E-1  
 4.155288822205551E9    -6.587836709260470E-1   2.548445722490549E-1  
 4.156039009752438E9    -6.569456930643411E-1   2.565345934867859E-1  
 4.156789197299325E9    -6.546321907433740E-1   2.586278649568558E-1  
 4.157539384846211E9    -6.533524887621089E-1   2.581969596207142E-1  
 4.158289572393098E9    -6.510868098717554E-1   2.591149331301451E-1  
 4.159039759939985E9    -6.489454047420304E-1   2.592093719720841E-1  
 4.159789947486872E9    -6.469454993450958E-1   2.597747441709041E-1  
 4.160540135033759E9    -6.456311604888037E-1   2.594443519234658E-1  
 4.161290322580645E9    -6.439916923710728E-1   2.597457080066205E-1  
 4.162040510127532E9    -6.416454146006609E-1   2.592125033855439E-1  
 4.162790697674418E9    -6.402471814388815E-1   2.592675222098828E-1  
 4.163540885221305E9    -6.396837461063357E-1   2.595873027652503E-1  
 4.164291072768192E9    -6.378904657681779E-1   2.587371596455573E-1  
 4.165041260315079E9    -6.373335927557431E-1   2.586754055768252E-1  
 4.165791447861966E9    -6.354278520417699E-1   2.580215026438236E-1  
 4.166541635408852E9    -6.340678348439224E-1   2.577379824250937E-1  
 4.167291822955739E9    -6.332300429266740E-1   2.572386435389519E-1  
 4.168042010502626E9    -6.332860227105814E-1   2.577715417563916E-1  
 4.168792198049512E9    -6.327358773133646E-1   2.572454055339098E-1  
 4.169542385596399E9    -6.319474488694592E-1   2.569209457188845E-1  
 4.170292573143286E9    -6.323839337833620E-1   2.556987374007702E-1  
 4.171042760690173E9    -6.319411017544822E-1   2.550520463138820E-1  
 4.171792948237059E9    -6.318261756213915E-1   2.551496292948723E-1  
 4.172543135783946E9    -6.325143234025163E-1   2.536324552029371E-1  
 4.173293323330833E9    -6.325940975293926E-1   2.543692097485065E-1  
 4.174043510877719E9    -6.333708672508250E-1   2.539214688211680E-1  
 4.174793698424606E9    -6.337793436213270E-1   2.537519717276096E-1  
 4.175543885971493E9    -6.336968865646586E-1   2.548722191065551E-1  
 4.176294073518380E9    -6.351235811094239E-1   2.541430176943541E-1  
 4.177044261065266E9    -6.366183948095636E-1   2.544316667646170E-1  
 4.177794448612153E9    -6.370942789732028E-1   2.546122679203749E-1  
 4.178544636159040E9    -6.384174853813954E-1   2.553573888808489E-1  
 4.179294823705926E9    -6.393273120961447E-1   2.560296143203974E-1  
 4.180045011252813E9    -6.401271293168975E-1   2.575771281152964E-1  
 4.180795198799700E9    -6.403657769545450E-1   2.577301373332740E-1  
 4.181545386346587E9    -6.427961995516021E-1   2.582486349135638E-1  
 4.182295573893473E9    -6.440539971772470E-1   2.598567751079798E-1  
 4.183045761440360E9    -6.459471546658441E-1   2.608213660448790E-1  
 4.183795948987247E9    -6.463716885988893E-1   2.621869568675757E-1  
 4.184546136534133E9    -6.479574098333784E-1   2.642567152678967E-1  
 4.185296324081020E9    -6.478272354172084E-1   2.663409411966801E-1  
 4.186046511627907E9    -6.496709049792268E-1   2.684167943358421E-1  
 4.186796699174794E9    -6.506331653480263E-1   2.706995392948390E-1  
 4.187546886721681E9    -6.522620313828972E-1   2.729486741602420E-1  
 4.188297074268567E9    -6.521895028509953E-1   2.746318039476872E-1  
 4.189047261815454E9    -6.528227559987034E-1   2.772672308653593E-1  
 4.189797449362341E9    -6.532983552695684E-1   2.807364009529352E-1  
 4.190547636909227E9    -6.539736434976949E-1   2.831113128423691E-1  
 4.191297824456114E9    -6.537154557017434E-1   2.847259239792824E-1  
 4.192048012003001E9    -6.543851426814435E-1   2.877277713090182E-1  
 4.192798199549888E9    -6.535383061659237E-1   2.903872780203820E-1  
 4.193548387096774E9    -6.540103791480144E-1   2.938134673863649E-1  
 4.194298574643661E9    -6.535542741355791E-1   2.966610910654068E-1  
 4.195048762190548E9    -6.532131709119078E-1   2.986766219824553E-1  
 4.195798949737434E9    -6.526977362828640E-1   3.018385555624962E-1  
 4.196549137284321E9    -6.512538983106707E-1   3.045900744259359E-1  
 4.197299324831208E9    -6.506673995726330E-1   3.074639891982079E-1  
 4.198049512378095E9    -6.486465120500399E-1   3.105608870923519E-1  
 4.198799699924981E9    -6.482358304228453E-1   3.125381646245719E-1  
 4.199549887471868E9    -6.461369065623208E-1   3.156326323330402E-1  
 4.200300075018755E9    -6.442594159774757E-1   3.165610027015209E-1  
 4.201050262565641E9    -6.421559113381878E-1   3.205194319128991E-1  
 4.201800450112528E9    -6.402698987080439E-1   3.230597370296717E-1  
 4.202550637659415E9    -6.391690242460781E-1   3.230645425677300E-1  
 4.203300825206302E9    -6.368794564579824E-1   3.251660910338164E-1  
 4.204051012753188E9    -6.351553033325668E-1   3.264506443411113E-1  
 4.204801200300075E9    -6.326864470442253E-1   3.290145073950292E-1  
 4.205551387846962E9    -6.306897985467032E-1   3.309141309261322E-1  
 4.206301575393848E9    -6.283081262334798E-1   3.311337432026864E-1  
 4.207051762940735E9    -6.250773098866436E-1   3.327864757716657E-1  
 4.207801950487622E9    -6.229664508732097E-1   3.338331933051347E-1  
 4.208552138034509E9    -6.210375390699480E-1   3.342860760867596E-1  
