#  HZ   S   RI   R     50.0 
! Rohde & Schwarz ZVL13 2Ports - Version 3.31 - 1303.6509k13 SN: 101088
! Date: 2023-03-06 15:05:11
! Data & Calibration Information:
! Trc4:S11(TOSM) Trc2:S21(TOSM) Trc3:S12(TOSM) Trc5:S22(TOSM)
! 
! 
! 
 4.000000000000000E9     3.439661647425965E-3  -1.344775631157239E-1  -9.076791857056723E-1  -3.111621016561986E-1  -9.133542927316465E-1  -2.895177083909512E-1   1.829241204168648E-2  -1.285443916969050E-1  
 4.000750187546887E9     3.068346385145560E-3  -1.335351845335995E-1  -9.070046362723468E-1  -3.118584068715571E-1  -9.131166643415765E-1  -2.920586191117764E-1   2.092540020123124E-2  -1.338204527579289E-1  
 4.001500375093773E9     3.643947225064039E-3  -1.300822836871043E-1  -9.077695269163161E-1  -3.105818586051465E-1  -9.127937219849196E-1  -2.919060329794884E-1   2.121050438098610E-2  -1.365417573770426E-1  
 4.002250562640660E9     1.677318027708679E-3  -1.311429577285864E-1  -9.081961102553000E-1  -3.095831191539764E-1  -9.115330439421702E-1  -2.916013362407685E-1   2.060072697885335E-2  -1.360910894252454E-1  
 4.003000750187547E9     2.840006504906342E-3  -1.295033700207957E-1  -9.109280195070738E-1  -3.079275538921356E-1  -9.118432460494998E-1  -2.898127855360507E-1   1.945613383129239E-2  -1.299625367794099E-1  
 4.003750937734434E9    -2.209769861947280E-4  -1.285232738038687E-1  -9.121631081361140E-1  -3.085282281339169E-1  -9.104771246371113E-1  -2.902267342507840E-1   1.818559036590159E-2  -1.330502349003485E-1  
 4.004501125281320E9     1.983922169427388E-3  -1.263888649027394E-1  -9.142474370768388E-1  -3.069381210505963E-1  -9.123078690027305E-1  -2.900670610964298E-1   1.966795394383371E-2  -1.290513798002012E-1  
 4.005251312828207E9     2.617706244112924E-3  -1.260384266775301E-1  -9.152372332576799E-1  -3.059509536325932E-1  -9.123617590620274E-1  -2.899786668717861E-1   1.738279975485057E-2  -1.313620164902297E-1  
 4.006001500375094E9     9.149451323610266E-4  -1.254052088464789E-1  -9.163582093970810E-1  -3.043880185484887E-1  -9.119005846308178E-1  -2.878479936420918E-1   2.148276770114899E-2  -1.301195467705392E-1  
 4.006751687921980E9     2.520740998152179E-3  -1.242962443372121E-1  -9.169524208971009E-1  -3.024309083521367E-1  -9.116856741574800E-1  -2.876753806769848E-1   2.295120166800916E-2  -1.350478298988927E-1  
 4.007501875468867E9    -1.236062781528744E-3  -1.237612894834565E-1  -9.194674201291483E-1  -3.008015681803226E-1  -9.142302277942538E-1  -2.874220066964627E-1   1.888506357744336E-2  -1.275850516336636E-1  
 4.008252063015754E9    -6.859594082998230E-4  -1.236019194172575E-1  -9.195691349332337E-1  -2.988148200213909E-1  -9.140512447721584E-1  -2.869712481796742E-1   2.279916222579777E-2  -1.338726203850351E-1  
 4.009002250562641E9    -3.376578613184393E-3  -1.252118852621889E-1  -9.204470485788899E-1  -2.982632048130036E-1  -9.133078583114508E-1  -2.866390327513219E-1   2.707785381749273E-2  -1.375065252107239E-1  
 4.009752438109528E9    -3.617160468595103E-3  -1.254373850007349E-1  -9.225882316786728E-1  -2.972512672543526E-1  -9.150964601227087E-1  -2.869099867343903E-1   1.986566451005638E-2  -1.325525021204078E-1  
 4.010502625656414E9    -2.188964827684686E-3  -1.242479200797206E-1  -9.247265882816739E-1  -2.940965230166912E-1  -9.152962219767951E-1  -2.856011364459991E-1   1.891349132917822E-2  -1.369348174754706E-1  
 4.011252813203301E9    -4.215372663922608E-3  -1.239596022294333E-1  -9.268274063836498E-1  -2.927802850306034E-1  -9.166993394895664E-1  -2.855608015060425E-1   1.550123086944223E-2  -1.299130668029721E-1  
 4.012003000750187E9    -5.922988147009165E-3  -1.249633307411063E-1  -9.258323917712477E-1  -2.916261598765850E-1  -9.167010001497642E-1  -2.848321381211281E-1   2.473247694596649E-2  -1.363250015558846E-1  
 4.012753188297074E9    -5.524147973395884E-3  -1.234327658565550E-1  -9.288815412611394E-1  -2.898125600218774E-1  -9.195821505286508E-1  -2.847339152693749E-1   1.566333379223943E-2  -1.378479859335268E-1  
 4.013503375843961E9    -5.875784658361228E-3  -1.230219594188842E-1  -9.299694086051603E-1  -2.876401250064373E-1  -9.193628999418095E-1  -2.840453255772591E-1   1.632589761074633E-2  -1.394326600797827E-1  
 4.014253563390848E9    -6.779605339281262E-3  -1.238613578880021E-1  -9.321401683527691E-1  -2.860425915122032E-1  -9.210155021626186E-1  -2.837996248006821E-1   1.265768496599048E-2  -1.349069697890761E-1  
 4.015003750937735E9    -8.516636714339257E-3  -1.246245667026770E-1  -9.308597530965089E-1  -2.872237629890443E-1  -9.231191637427153E-1  -2.832093257606030E-1   1.459493182133884E-2  -1.343790831118364E-1  
 4.015753938484621E9    -1.074259083997458E-2  -1.228099831501812E-1  -9.351086257699318E-1  -2.802505251765252E-1  -9.237642476560147E-1  -2.839267565608025E-1   9.428401577752085E-3  -1.318753735092190E-1  
 4.016504126031508E9    -1.197525108326227E-2  -1.241665657076655E-1  -9.359798488164739E-1  -2.778875195384026E-1  -9.246436050251901E-1  -2.828285954594612E-1   1.264048821106553E-2  -1.354553159276518E-1  
 4.017254313578394E9    -1.316538458317518E-2  -1.247536707230413E-1  -9.357620601819418E-1  -2.763916837275028E-1  -9.273578991495153E-1  -2.798897138834000E-1   1.321567681524903E-2  -1.336811105556000E-1  
 4.018004501125281E9    -1.471884805057198E-2  -1.225434336395396E-1  -9.373268910691042E-1  -2.756472291052342E-1  -9.278676795097591E-1  -2.802658909857274E-1   1.067853741161525E-2  -1.333148068192208E-1  
 4.018754688672168E9    -1.479656427167356E-2  -1.248163196156958E-1  -9.378400772023572E-1  -2.754194875657559E-1  -9.298998192405032E-1  -2.775937280654907E-1   9.416661479044710E-3  -1.373009923198977E-1  
 4.019504876219055E9    -1.857174413278699E-2  -1.231812841546685E-1  -9.403978211422277E-1  -2.709955154955387E-1  -9.323441926603275E-1  -2.737798502147198E-1   1.183208702970296E-2  -1.385513183690910E-1  
 4.020255063765942E9    -1.568314439896494E-2  -1.234709342907591E-1  -9.402796822004600E-1  -2.654813935458660E-1  -9.345833768921248E-1  -2.730861016511917E-1   5.375753423664719E-3  -1.352543954441081E-1  
 4.021005251312828E9    -1.859834563545883E-2  -1.245724577461429E-1  -9.416937436681426E-1  -2.645584272742272E-1  -9.349754228437401E-1  -2.735985140800476E-1   4.536938687320801E-3  -1.404734993590210E-1  
 4.021755438859715E9    -2.197656261175872E-2  -1.261694802364117E-1  -9.420905469380676E-1  -2.628398436903954E-1  -9.355709586876218E-1  -2.710013777315617E-1   7.042202393058687E-3  -1.356828919802591E-1  
 4.022505626406601E9    -1.950237854011357E-2  -1.268938053601881E-1  -9.420137974309348E-1  -2.597463355958462E-1  -9.378970403202592E-1  -2.687702777981758E-1   9.690711115486918E-3  -1.349160439146300E-1  
 4.023255813953488E9    -2.188652954809368E-2  -1.214999305806499E-1  -9.422410560092087E-1  -2.554486628472805E-1  -9.398885139507373E-1  -2.660451128184795E-1   6.435040013398976E-3  -1.343035747636156E-1  
 4.024006001500375E9    -2.206034996174276E-2  -1.244938143269211E-1  -9.427019351385588E-1  -2.539525851905347E-1  -9.420077845540873E-1  -2.640146297514440E-1   2.019996929098853E-3  -1.319014638499290E-1  
 4.024756189047262E9    -2.122867422737181E-2  -1.253931569977916E-1  -9.425622348752391E-1  -2.526362972557545E-1  -9.426856996205816E-1  -2.618512340188026E-1   5.899249822366983E-3  -1.310179989629305E-1  
 4.025506376594149E9    -2.307517627440393E-2  -1.274750370273819E-1  -9.427211577354498E-1  -2.484649469107390E-1  -9.442647554980627E-1  -2.589008318483829E-1  -6.684689497487855E-4  -1.318197782068637E-1  
 4.026256564141035E9    -2.466680215857924E-2  -1.244007417936174E-1  -9.424836699107476E-1  -2.463899371176958E-1  -9.446074614954052E-1  -2.572196478843689E-1   5.792063266970217E-3  -1.320098364656036E-1  
 4.027006751687922E9    -2.434983037412167E-2  -1.260936885824151E-1  -9.425989963933471E-1  -2.448031794726849E-1  -9.464896778754650E-1  -2.552457244396210E-1   2.216587827366311E-3  -1.350563558189124E-1  
 4.027756939234809E9    -2.430889768525958E-2  -1.273772037373568E-1  -9.416657491208593E-1  -2.442464166432619E-1  -9.468276581676836E-1  -2.536676909029484E-1   2.182983250677353E-3  -1.326945154137993E-1  
 4.028507126781695E9    -2.749060109443963E-2  -1.275716275217445E-1  -9.417673134151793E-1  -2.420900606513024E-1  -9.475389953253633E-1  -2.505532711297274E-1   4.664134397404270E-3  -1.336736722517252E-1  
 4.029257314328582E9    -2.583250311762095E-2  -1.291209239791500E-1  -9.417533875293361E-1  -2.387742588818074E-1  -9.485685990675302E-1  -2.468130376338959E-1   3.297480072127656E-3  -1.332716393218948E-1  
 4.030007501875469E9    -2.489102884382010E-2  -1.293879037018932E-1  -9.426862745913320E-1  -2.345430815517903E-1  -9.498901224181922E-1  -2.436107309162617E-1   9.801527375066146E-4  -1.359990528877050E-1  
 4.030757689422356E9    -2.590542116761209E-2  -1.297836187147526E-1  -9.401536444431498E-1  -2.344312102049589E-1  -9.512289226080927E-1  -2.397565516084433E-1  -2.755598793621175E-3  -1.319769883065301E-1  
 4.031507876969242E9    -2.362175237201154E-2  -1.302628030869392E-1  -9.404172965421787E-1  -2.323349066674710E-1  -9.499448685023717E-1  -2.381688409596682E-1   6.045026447623969E-3  -1.311328598016131E-1  
 4.032258064516129E9    -2.571247556619346E-2  -1.307420928584834E-1  -9.391944733846380E-1  -2.284796309024096E-1  -9.513070466341510E-1  -2.322384593635797E-1  -4.931746183719952E-4  -1.322318958817267E-1  
 4.033008252063016E9    -2.524415356293321E-2  -1.327316547033793E-1  -9.387945865961740E-1  -2.289379579871893E-1  -9.507285076080975E-1  -2.317857136875391E-1   3.155473585275104E-4  -1.338275593767244E-1  
 4.033758439609902E9    -2.525335571169854E-2  -1.352049504329433E-1  -9.390105634854371E-1  -2.269221236258745E-1  -9.498266819320425E-1  -2.314741317331792E-1   3.258625400753770E-4  -1.310691907153173E-1  
 4.034508627156789E9    -2.446720914915205E-2  -1.359220563692686E-1  -9.381538463396553E-1  -2.249084590971470E-1  -9.497197877207089E-1  -2.274791756719351E-1  -1.327470734744566E-3  -1.332390351127661E-1  
 4.035258814703676E9    -2.624079246446491E-2  -1.380300926706239E-1  -9.379191547583319E-1  -2.259503178000450E-1  -9.502293271370013E-1  -2.256779211312533E-1   3.104098299547332E-3  -1.314771029752787E-1  
 4.036009002250563E9    -2.314597174525261E-2  -1.389789255678242E-1  -9.372329455881230E-1  -2.254350344389677E-1  -9.507913544218000E-1  -2.232919573187829E-1   4.843419427052141E-3  -1.347715153979700E-1  
 4.036759189797450E9    -2.461153775826097E-2  -1.377685593232849E-1  -9.377399114842364E-1  -2.200211872905493E-1  -9.497435084713874E-1  -2.213793580979109E-1   1.829613498179242E-3  -1.315137125060881E-1  
 4.037509377344336E9    -2.472036248818040E-2  -1.388853223419292E-1  -9.356488714663154E-1  -2.207700229138136E-1  -9.497564806425668E-1  -2.177962165027857E-1   8.643348880868873E-4  -1.329842045311190E-1  
 4.038259564891223E9    -2.316713608242572E-2  -1.386852875908620E-1  -9.356081618082853E-1  -2.188678656667471E-1  -9.499334674976141E-1  -2.160004643201828E-1  -4.974787484388801E-4  -1.381399940134237E-1  
 4.039009752438109E9    -2.367953556030989E-2  -1.420766349321801E-1  -9.346900500503221E-1  -2.184475880116224E-1  -9.491813508207794E-1  -2.142753565013409E-1   3.859605278586970E-3  -1.328061815775095E-1  
 4.039759939984996E9    -2.210250113345683E-2  -1.424612578761453E-1  -9.348302201758485E-1  -2.179299810677767E-1  -9.488004791564324E-1  -2.110417543798685E-1   3.343291598837823E-3  -1.349853531765860E-1  
 4.040510127531883E9    -2.388621017709374E-2  -1.421957907464460E-1  -9.340819570068183E-1  -2.165256561338901E-1  -9.475492008313965E-1  -2.075321066528559E-1  -2.632973330561072E-3  -1.379639808704541E-1  
 4.041260315078770E9    -2.218314329162240E-2  -1.443672916948300E-1  -9.335629237528069E-1  -2.151701225340367E-1  -9.456835667597345E-1  -2.058339807242155E-1  -3.040807285928168E-3  -1.336356466056189E-1  
 4.042010502625657E9    -2.345793353766203E-2  -1.446346027323672E-1  -9.331692039182600E-1  -2.138300824314356E-1  -9.463495678351900E-1  -2.041537292599678E-1  -1.732050468010130E-3  -1.305367778897559E-1  
 4.042760690172543E9    -2.379811869747937E-2  -1.437260392484517E-1  -9.334752639588452E-1  -2.133501447290182E-1  -9.462274495904284E-1  -2.041470495015383E-1  -3.372423970489763E-3  -1.364918126438107E-1  
 4.043510877719430E9    -2.387089649774135E-2  -1.438690350491418E-1  -9.340991810877570E-1  -2.124164463132620E-1  -9.441186084849635E-1  -2.016271448284388E-1  -2.463825369050028E-4  -1.336736465149942E-1  
 4.044261065266316E9    -2.240929116867483E-2  -1.469306009785272E-1  -9.334047144905164E-1  -2.112397565543652E-1  -9.434178915164944E-1  -1.997718991488219E-1  -1.166705319337780E-3  -1.300760442225939E-1  
 4.045011252813203E9    -2.292223732918501E-2  -1.452482808982062E-1  -9.324505359188278E-1  -2.110706023871899E-1  -9.424913734166807E-1  -1.980655728578568E-1  -2.219972108636284E-3  -1.296918094787932E-1  
 4.045761440360090E9    -2.198184227384627E-2  -1.457021350626116E-1  -9.342446008149055E-1  -2.104722587168217E-1  -9.424037323035667E-1  -1.957792856246234E-1   5.856021874969885E-4  -1.281956100126735E-1  
 4.046511627906977E9    -2.227283222600818E-2  -1.465886280647464E-1  -9.326912210783716E-1  -2.093904973566532E-1  -9.418317190895833E-1  -1.952640058100224E-1  -3.073940894741099E-3  -1.318956296153863E-1  
 4.047261815453864E9    -2.162380136176944E-2  -1.478330587159579E-1  -9.339208921996778E-1  -2.096068849116564E-1  -9.405915269251899E-1  -1.939256853908301E-1  -8.064398606838950E-4  -1.297013738632597E-1  
 4.048012003000750E9    -1.967862671241164E-2  -1.451169832223832E-1  -9.352962197902561E-1  -2.075996052771807E-1  -9.407126818276985E-1  -1.916088077127934E-1   3.999378607841208E-3  -1.305639566979522E-1  
 4.048762190547637E9    -2.059079304337502E-2  -1.474120488725229E-1  -9.341365422413497E-1  -2.082371585220099E-1  -9.383103483787538E-1  -1.923452045619488E-1  -3.819976033875719E-3  -1.296126095860483E-1  
 4.049512378094523E9    -2.252680453099311E-2  -1.462100833260536E-1  -9.345781241822431E-1  -2.056931941658259E-1  -9.380875822061977E-1  -1.902769947648048E-1   2.240955163171748E-3  -1.315149428194197E-1  
 4.050262565641410E9    -2.163146541640162E-2  -1.466755041480870E-1  -9.347669866826034E-1  -2.046000834405423E-1  -9.383208862590150E-1  -1.899152947068215E-1   1.450598239898682E-3  -1.290364320670687E-1  
 4.051012753188297E9    -1.996859199553729E-2  -1.469500332320192E-1  -9.360835927194524E-1  -2.043106264472008E-1  -9.394346933476871E-1  -1.889193510115147E-1   1.467559901793720E-3  -1.284516283170097E-1  
 4.051762940735184E9    -1.677128610573709E-2  -1.434242038150682E-1  -9.384421534612949E-1  -2.020058376938105E-1  -9.387199007642332E-1  -1.877630658745766E-1   2.155209084099624E-3  -1.256994573208734E-1  
 4.052513128282071E9    -1.950352982059121E-2  -1.437980969778254E-1  -9.379045253117954E-1  -2.026310559660197E-1  -9.369963521813993E-1  -1.884931032508612E-1  -3.553983577294276E-3  -1.286904303867397E-1  
 4.053263315828957E9    -1.487172695714981E-2  -1.453380818992996E-1  -9.377663076544941E-1  -2.003516847491265E-1  -9.375912580179149E-1  -1.862576210349798E-1   2.268563346180599E-3  -1.336828082290881E-1  
 4.054013503375844E9    -1.608071542065591E-2  -1.446097288001531E-1  -9.391845021609512E-1  -1.997733709812165E-1  -9.365509527586196E-1  -1.869713852107525E-1  -4.728930530603975E-3  -1.308435859946294E-1  
 4.054763690922730E9    -1.668652263656259E-2  -1.468620017261083E-1  -9.392312179789583E-1  -1.980727483928204E-1  -9.374501317111355E-1  -1.852429159134627E-1   7.624860647265450E-4  -1.295573013782501E-1  
 4.055513878469617E9    -1.509267163183540E-2  -1.435921412725618E-1  -9.403723744497701E-1  -1.978321659266949E-1  -9.378286282622697E-1  -1.839704272598028E-1  -6.747466551023535E-4  -1.290115187100061E-1  
 4.056264066016504E9    -1.350253206677735E-2  -1.417688988682755E-1  -9.421878551303503E-1  -1.948660458922386E-1  -9.374106404900267E-1  -1.841253578364850E-1   2.588348741544906E-3  -1.313694637165160E-1  
 4.057014253563391E9    -1.095302016846836E-2  -1.426713740922432E-1  -9.432357127927269E-1  -1.928292489051819E-1  -9.381277637980816E-1  -1.812936748564243E-1   2.792490590596572E-3  -1.305883407234610E-1  
 4.057764441110278E9    -9.479355005547406E-3  -1.406257741734046E-1  -9.435328496447333E-1  -1.909663682430983E-1  -9.391806433664520E-1  -1.826094225794077E-1  -1.512157548532741E-3  -1.288898490069175E-1  
 4.058514628657164E9    -1.180101424921304E-2  -1.414364587055972E-1  -9.447173457327966E-1  -1.901597059816123E-1  -9.388540020534326E-1  -1.811392512470484E-1   2.070898343867156E-3  -1.281659017794817E-1  
 4.059264816204051E9    -1.097831860557199E-2  -1.397455334317460E-1  -9.458698690513119E-1  -1.898882621675730E-1  -9.402613041156538E-1  -1.801813736259937E-1   2.152631530596409E-3  -1.278519008442774E-1  
 4.060015003750938E9    -9.050085840746762E-3  -1.384459120301203E-1  -9.455566000930329E-1  -1.875940995812417E-1  -9.405000811593820E-1  -1.792963773310185E-1   1.748254892416299E-3  -1.301583471964366E-1  
 4.060765191297824E9    -9.200248115696015E-3  -1.373949553296023E-1  -9.469480564365723E-1  -1.852110045999289E-1  -9.413677176832515E-1  -1.788816660493612E-1  -8.397115653351649E-4  -1.298472112650893E-1  
 4.061515378844711E9    -1.024640352092683E-2  -1.387104859716158E-1  -9.471554525295749E-1  -1.855423864126205E-1  -9.420292938698778E-1  -1.800864939391613E-1   1.365270254704228E-3  -1.319780063020914E-1  
 4.062265566391598E9    -7.906689042225482E-3  -1.363184446500981E-1  -9.494355350233340E-1  -1.819995549023152E-1  -9.429253595291908E-1  -1.785399508029223E-1  -1.874612585743305E-5  -1.299686420944715E-1  
 4.063015753938485E9    -9.418903603218495E-3  -1.345509272996174E-1  -9.505345124595785E-1  -1.789622357189656E-1  -9.440619552293985E-1  -1.769408077299595E-1   3.228666772600264E-3  -1.293629503732308E-1  
 4.063765941485371E9    -1.187215940374881E-2  -1.337916823925605E-1  -9.512507280413276E-1  -1.776434132903815E-1  -9.454066537525028E-1  -1.746449543982744E-1   6.362849546363578E-3  -1.276807294683770E-1  
 4.064516129032258E9    -1.156221024785191E-2  -1.317907787978545E-1  -9.518795563199332E-1  -1.760109910964966E-1  -9.463530891155778E-1  -1.742105602920055E-1   3.811848669545726E-3  -1.311411004249992E-1  
 4.065266316579145E9    -1.094161807652563E-2  -1.316331585560208E-1  -9.530893883790945E-1  -1.739677567929030E-1  -9.473462756609545E-1  -1.724316179752350E-1   5.107340846443549E-3  -1.291977306542204E-1  
 4.066016504126031E9    -7.384162322618068E-3  -1.316113889051126E-1  -9.531885173340704E-1  -1.715321259349585E-1  -9.485755768146340E-1  -1.711452792733908E-1   4.320067378226667E-3  -1.310271094326021E-1  
 4.066766691672918E9    -1.294116420671344E-2  -1.312666411905900E-1  -9.547218628813924E-1  -1.712971434593201E-1  -9.500645281405460E-1  -1.715968831479550E-1  -2.020309450104833E-3  -1.303721301907613E-1  
 4.067516879219805E9    -1.237541034072638E-2  -1.301251884407579E-1  -9.548054197637019E-1  -1.675159018188716E-1  -9.518318043290122E-1  -1.699763212203979E-1   1.434789915452712E-3  -1.295824915419614E-1  
 4.068267066766692E9    -1.078329584468156E-2  -1.266529356071020E-1  -9.557288734335397E-1  -1.650855199247599E-1  -9.520689222535859E-1  -1.685416410416365E-1   1.859472469339380E-3  -1.313909311379981E-1  
 4.069017254313579E9    -1.231975283753127E-2  -1.252692467025026E-1  -9.566904931061511E-1  -1.629713957905769E-1  -9.542377751865001E-1  -1.656434596031905E-1  -2.324321059859358E-4  -1.311904517530760E-1  
 4.069767441860465E9    -1.381102973595262E-2  -1.258534773128939E-1  -9.572922563476163E-1  -1.613429667055607E-1  -9.558543812385232E-1  -1.647589445561171E-1   6.328683586962144E-4  -1.272859089050363E-1  
