#  HZ   S   RI   R     50.0 
! Rohde & Schwarz ZVL13 2Ports - Version 3.31 - 1303.6509k13 SN: 101088
! Date: 2023-03-06 15:06:30
! Data & Calibration Information:
! Trc4:S11(TOSM) Trc2:S21(TOSM) Trc3:S12(TOSM) Trc5:S22(TOSM)
! 
! 
! 
 4.000000000000000E9     3.541049546462694E-3  -1.343260284870744E-1  -9.073908341589974E-1  -3.123900773275801E-1  -9.128463241743773E-1  -2.909877785647711E-1   1.814389448481506E-2  -1.284708066811182E-1  
 4.000750187546887E9     3.875673175496916E-3  -1.329604057025049E-1  -9.065816679804721E-1  -3.137757979571028E-1  -9.128414547239503E-1  -2.938343986138803E-1   2.203416247932209E-2  -1.326242907143153E-1  
 4.001500375093773E9     3.979817256339316E-3  -1.296249777132672E-1  -9.076398310350333E-1  -3.123636231373962E-1  -9.120266469521077E-1  -2.935378387982647E-1   2.137128500559974E-2  -1.359676928620157E-1  
 4.002250562640660E9     1.726483293549522E-3  -1.309396294294759E-1  -9.079529010158418E-1  -3.111492242395430E-1  -9.111927353192778E-1  -2.932725801744695E-1   2.131079505865590E-2  -1.353911683738031E-1  
 4.003000750187547E9     3.663232040839183E-3  -1.290663928631329E-1  -9.101808191322143E-1  -3.099430462182155E-1  -9.113202606204407E-1  -2.912387496692377E-1   2.007816416557226E-2  -1.304735504012740E-1  
 4.003750937734434E9    -2.086731946466663E-4  -1.285244674128178E-1  -9.116177544729955E-1  -3.105579303793775E-1  -9.098116379720879E-1  -2.921964609158546E-1   1.928236344478425E-2  -1.326498065538476E-1  
 4.004501125281320E9     1.520825099991532E-3  -1.264853726695414E-1  -9.138788420881685E-1  -3.081868887241170E-1  -9.120341922849951E-1  -2.918670357338057E-1   2.091168788986085E-2  -1.289225621848862E-1  
 4.005251312828207E9     2.656042956033505E-3  -1.262853564811784E-1  -9.148081052659999E-1  -3.079699482851873E-1  -9.118938719187210E-1  -2.918851807578488E-1   1.734536213799049E-2  -1.303122968947746E-1  
 4.006001500375094E9     9.292162177254579E-4  -1.248485796060091E-1  -9.159422734319294E-1  -3.063241552809770E-1  -9.112617104420662E-1  -2.900397697489299E-1   2.139471204388985E-2  -1.301886703916539E-1  
 4.006751687921980E9     2.253596249258764E-3  -1.244926655776952E-1  -9.166305119699263E-1  -3.041509097418297E-1  -9.113634937498567E-1  -2.891926980694453E-1   2.353241632401264E-2  -1.348512667952375E-1  
 4.007501875468867E9    -1.005519635618326E-3  -1.237587098017440E-1  -9.193371741329866E-1  -3.024454339204189E-1  -9.138143361315650E-1  -2.890663863066522E-1   1.891415147369890E-2  -1.264664617694894E-1  
 4.008252063015754E9    -4.056093472153084E-5  -1.238463697301334E-1  -9.191963230390037E-1  -3.007634590443027E-1  -9.135549133066615E-1  -2.884958635861103E-1   2.250826782204421E-2  -1.334761044843219E-1  
 4.009002250562641E9    -3.018926193084405E-3  -1.253137983490061E-1  -9.201308336800579E-1  -3.001009584129522E-1  -9.128334964390243E-1  -2.883523118686137E-1   2.691371687000190E-2  -1.369205967740676E-1  
 4.009752438109528E9    -3.343373744103928E-3  -1.248829090357095E-1  -9.221549659954836E-1  -2.989864363126380E-1  -9.146438963886125E-1  -2.884754484545535E-1   2.020652402531743E-2  -1.320050933282359E-1  
 4.010502625656414E9    -2.235489678298049E-3  -1.240911218772007E-1  -9.242605342820358E-1  -2.963342004869591E-1  -9.147763141830445E-1  -2.877587112520471E-1   1.823247868573253E-2  -1.362272306633289E-1  
 4.011252813203301E9    -4.048139195371096E-3  -1.242101196132542E-1  -9.263271264106914E-1  -2.944656551737391E-1  -9.159194397563124E-1  -2.869588854002894E-1   1.649759688195246E-2  -1.294629254952945E-1  
 4.012003000750187E9    -5.833597974976242E-3  -1.245867373307757E-1  -9.256201561006183E-1  -2.935105532389890E-1  -9.161848543610893E-1  -2.869123098247723E-1   2.500347350299911E-2  -1.357674302099577E-1  
 4.012753188297074E9    -5.105533502978327E-3  -1.230262639984798E-1  -9.282688742296036E-1  -2.919126389290193E-1  -9.190782830551983E-1  -2.866489204814253E-1   1.545439467044840E-2  -1.376651010734650E-1  
 4.013503375843961E9    -5.456489135524006E-3  -1.228609232865718E-1  -9.299446863825616E-1  -2.893476980600926E-1  -9.189022952331247E-1  -2.858239776695050E-1   1.640010932367925E-2  -1.388253975295039E-1  
 4.014253563390848E9    -7.037924299421978E-3  -1.241430273473328E-1  -9.318244859053753E-1  -2.876409623606643E-1  -9.203478074722788E-1  -2.855621917087402E-1   1.291639809427722E-2  -1.345899593549275E-1  
 4.015003750937735E9    -8.159055854890589E-3  -1.246073605198567E-1  -9.305792427702437E-1  -2.891349336756672E-1  -9.222320386828942E-1  -2.853082318648627E-1   1.473851023589758E-2  -1.342468527569785E-1  
 4.015753938484621E9    -1.099464250663065E-2  -1.225284840321456E-1  -9.345663547956824E-1  -2.825175096034473E-1  -9.234726226493375E-1  -2.856904363752124E-1   9.786644812143161E-3  -1.316781067369719E-1  
 4.016504126031508E9    -1.179650769238311E-2  -1.243864586115459E-1  -9.357227808725482E-1  -2.799140218611709E-1  -9.239887463137427E-1  -2.849903331765034E-1   1.324857868945016E-2  -1.360546743448760E-1  
 4.017254313578394E9    -1.273512099849793E-2  -1.245846267891694E-1  -9.353412185633955E-1  -2.784714429933451E-1  -9.264759850780966E-1  -2.814924381108397E-1   1.388221783194414E-2  -1.343834924865751E-1  
 4.018004501125281E9    -1.445530617742037E-2  -1.228166336908984E-1  -9.369920295719245E-1  -2.771980421749064E-1  -9.272787574546718E-1  -2.819402395768195E-1   1.148436285950069E-2  -1.334108569694231E-1  
 4.018754688672168E9    -1.459933311277659E-2  -1.246963956405657E-1  -9.378184829404385E-1  -2.766716794743364E-1  -9.296302428762512E-1  -2.790732860243987E-1   9.200369621765092E-3  -1.375966237055331E-1  
 4.019504876219055E9    -1.840462654391880E-2  -1.227020183224409E-1  -9.398712136617826E-1  -2.730592535998280E-1  -9.319445052342799E-1  -2.752050616539650E-1   1.147140248897128E-2  -1.384564158929261E-1  
 4.020255063765942E9    -1.559345654479217E-2  -1.229840268047556E-1  -9.397863560714626E-1  -2.675858008049565E-1  -9.337933245717187E-1  -2.753066465976755E-1   6.076734659476021E-3  -1.350250174142135E-1  
 4.021005251312828E9    -1.807894901841410E-2  -1.244515940773009E-1  -9.412761425691791E-1  -2.669979009440853E-1  -9.343201599412063E-1  -2.756273576001498E-1   4.408171895052424E-3  -1.413393049218387E-1  
 4.021755438859715E9    -2.101966068734348E-2  -1.263818988168615E-1  -9.417211513590278E-1  -2.643417914240862E-1  -9.350793164467377E-1  -2.725287009885415E-1   6.747105362980214E-3  -1.345727260028365E-1  
 4.022505626406601E9    -1.915898478149632E-2  -1.268616065136821E-1  -9.418169774175452E-1  -2.622002952368502E-1  -9.373945141842608E-1  -2.706114852768258E-1   9.790009646447344E-3  -1.358976987308427E-1  
 4.023255813953488E9    -2.199359440906695E-2  -1.219821110780513E-1  -9.420788582108122E-1  -2.573125415068520E-1  -9.394254200482940E-1  -2.683009001519328E-1   5.987089250796652E-3  -1.342172583341133E-1  
 4.024006001500375E9    -2.159679591538872E-2  -1.246920918346962E-1  -9.420527316879691E-1  -2.561884777302681E-1  -9.411915447026962E-1  -2.659715179624050E-1   2.750287128006671E-3  -1.321086613905048E-1  
 4.024756189047262E9    -2.084405123523245E-2  -1.253735702614853E-1  -9.422401297342063E-1  -2.539857195597072E-1  -9.422376253427739E-1  -2.630518008139693E-1   5.162260760610177E-3  -1.302252563748333E-1  
 4.025506376594149E9    -2.301561586750468E-2  -1.273279989518194E-1  -9.422541960437280E-1  -2.504382327558079E-1  -9.439571893503008E-1  -2.605747050960187E-1  -6.175316550364046E-4  -1.310629965284932E-1  
 4.026256564141035E9    -2.482877247230269E-2  -1.245645315688784E-1  -9.420388693762836E-1  -2.486632673335497E-1  -9.441451857795753E-1  -2.592100715259325E-1   6.616528868124196E-3  -1.311794898755190E-1  
 4.027006751687922E9    -2.397659697329301E-2  -1.259435491638944E-1  -9.425702453702072E-1  -2.463496956546419E-1  -9.463425960300381E-1  -2.569207067321673E-1   1.645535787724939E-3  -1.344911960987495E-1  
 4.027756939234809E9    -2.405405025688204E-2  -1.273779863080224E-1  -9.414663755877192E-1  -2.464292588401885E-1  -9.464166729516192E-1  -2.556839726989664E-1   2.264697127223777E-3  -1.323989616006289E-1  
 4.028507126781695E9    -2.709231755126121E-2  -1.276389493413896E-1  -9.415496341713694E-1  -2.438361751282566E-1  -9.469283015414396E-1  -2.531912805748983E-1   5.235620128441343E-3  -1.338918905184813E-1  
 4.029257314328582E9    -2.558478595345049E-2  -1.292099698665608E-1  -9.414735436109992E-1  -2.403075666681808E-1  -9.481503029666413E-1  -2.484478701684215E-1   3.912721127043252E-3  -1.327685180818191E-1  
 4.030007501875469E9    -2.456421942973584E-2  -1.294555773211361E-1  -9.424217961744066E-1  -2.366527127810228E-1  -9.493853693807350E-1  -2.451487696580988E-1   1.752393693280613E-3  -1.355044376622760E-1  
 4.030757689422356E9    -2.564925644908474E-2  -1.294511487664015E-1  -9.398239453960433E-1  -2.369498468801522E-1  -9.508099610156080E-1  -2.420934980230819E-1  -2.708720400944891E-3  -1.328791434301457E-1  
 4.031507876969242E9    -2.344230755929891E-2  -1.300251169119897E-1  -9.404457435245039E-1  -2.341551086518753E-1  -9.495822730009816E-1  -2.399359713815994E-1   5.928979341525127E-3  -1.307266408339050E-1  
 4.032258064516129E9    -2.522296982979067E-2  -1.307821054022495E-1  -9.391558104676721E-1  -2.305509491824248E-1  -9.510570649233682E-1  -2.337721829677093E-1   2.630188624677775E-4  -1.309702392280929E-1  
 4.033008252063016E9    -2.494249058833467E-2  -1.326872204744834E-1  -9.384144913664918E-1  -2.306951096896570E-1  -9.504305402865660E-1  -2.338455623067899E-1   1.011667021180372E-3  -1.343970065964830E-1  
 4.033758439609902E9    -2.481203414231795E-2  -1.353056056187446E-1  -9.389618288730568E-1  -2.284800690098011E-1  -9.496049244707865E-1  -2.325600196542997E-1   1.039474285636810E-3  -1.313054528482875E-1  
 4.034508627156789E9    -2.429073563268634E-2  -1.355961327178922E-1  -9.378826454327162E-1  -2.269296711416046E-1  -9.495066149765272E-1  -2.296503069988453E-1  -9.670114609370802E-4  -1.339552412278488E-1  
 4.035258814703676E9    -2.637295650800877E-2  -1.377468319164155E-1  -9.373217162180992E-1  -2.278778473431699E-1  -9.497948552006617E-1  -2.274146570526779E-1   3.656546382076629E-3  -1.316582562161973E-1  
 4.036009002250563E9    -2.296388748213718E-2  -1.386962859890095E-1  -9.371861656665433E-1  -2.271533318294160E-1  -9.503757411093809E-1  -2.257258568348677E-1   5.241005854636219E-3  -1.352912571609971E-1  
 4.036759189797450E9    -2.473835878709627E-2  -1.374586905581646E-1  -9.377104829379018E-1  -2.215715549968377E-1  -9.494477939024419E-1  -2.234087633534906E-1   2.590226773790044E-3  -1.313649006140066E-1  
 4.037509377344336E9    -2.420299839796933E-2  -1.384720671211111E-1  -9.355944897152895E-1  -2.221209964071896E-1  -9.491283847907421E-1  -2.198867534467938E-1   1.324410905340601E-3  -1.325398762461749E-1  
 4.038259564891223E9    -2.307410572882121E-2  -1.382587765896726E-1  -9.353367648928527E-1  -2.209037015765276E-1  -9.494065495627906E-1  -2.180339380532421E-1   4.813686337701919E-4  -1.371863374039644E-1  
 4.039009752438109E9    -2.320116203734135E-2  -1.416994485805826E-1  -9.344766015462417E-1  -2.203352562198784E-1  -9.485269762355197E-1  -2.165728314987151E-1   4.456880909875755E-3  -1.320583538686264E-1  
 4.039759939984996E9    -2.154761073412067E-2  -1.426089396748927E-1  -9.345906413088556E-1  -2.197339237757271E-1  -9.483591200993874E-1  -2.127063873975909E-1   3.553763059751362E-3  -1.351819155837239E-1  
 4.040510127531883E9    -2.337088278306131E-2  -1.419222648955829E-1  -9.340318615753929E-1  -2.183563508340512E-1  -9.471664715081891E-1  -2.094869255311775E-1  -1.553672383939984E-3  -1.374392471409111E-1  
 4.041260315078770E9    -2.161190180086214E-2  -1.443935550078990E-1  -9.333000528078934E-1  -2.172834790459195E-1  -9.455455658172033E-1  -2.078113760101985E-1  -3.121552024775210E-3  -1.333232459075402E-1  
 4.042010502625657E9    -2.305166345839546E-2  -1.445923298456066E-1  -9.328612968930798E-1  -2.155870459116571E-1  -9.462555955278237E-1  -2.063294704909919E-1  -8.247026754435552E-4  -1.302641708024162E-1  
 4.042760690172543E9    -2.329386813426294E-2  -1.438218570285750E-1  -9.337368359039120E-1  -2.146975254198089E-1  -9.458981679690669E-1  -2.060579328364125E-1  -2.288786142778397E-3  -1.361022188115141E-1  
 4.043510877719430E9    -2.339069310072390E-2  -1.436171129599403E-1  -9.340026960126577E-1  -2.140850548279275E-1  -9.441752093996282E-1  -2.028610857751038E-1  -8.071459851455014E-5  -1.341542124136111E-1  
 4.044261065266316E9    -2.196294730179480E-2  -1.467850731714046E-1  -9.329679287677237E-1  -2.137600060504934E-1  -9.432719755142316E-1  -2.016947432409912E-1  -8.477166030303088E-4  -1.302021793926707E-1  
 4.045011252813203E9    -2.306825940753725E-2  -1.450720535167838E-1  -9.321893289634929E-1  -2.129964110211677E-1  -9.420548428290760E-1  -2.001158029244762E-1  -1.415354132326386E-3  -1.293870542116650E-1  
 4.045761440360090E9    -2.187216934498294E-2  -1.453082337215426E-1  -9.339552544638254E-1  -2.127239619984281E-1  -9.424720770018856E-1  -1.979118031153712E-1   1.848813801628839E-3  -1.284120312568668E-1  
 4.046511627906977E9    -2.155995872914077E-2  -1.463314720869161E-1  -9.323307896695634E-1  -2.113206767115210E-1  -9.417270138032964E-1  -1.969163401782916E-1  -3.250081400735730E-3  -1.319660083007355E-1  
 4.047261815453864E9    -2.149956698633106E-2  -1.478874392204957E-1  -9.337569832303010E-1  -2.116872689073935E-1  -9.402465009719097E-1  -1.957669862823779E-1  -2.025946627205693E-4  -1.296875504936468E-1  
 4.048012003000750E9    -1.914609994723728E-2  -1.451251166516891E-1  -9.351512241332463E-1  -2.094010148124931E-1  -9.402624961045595E-1  -1.937854862294382E-1   4.253727700458202E-3  -1.299148012980146E-1  
 4.048762190547637E9    -2.027863915572717E-2  -1.471340135740066E-1  -9.341551616370246E-1  -2.093798892607018E-1  -9.381244231234355E-1  -1.937705782089237E-1  -3.432271142979997E-3  -1.289820118076085E-1  
 4.049512378094523E9    -2.168982286749268E-2  -1.460616089719968E-1  -9.342067490062306E-1  -2.074553869254828E-1  -9.376106044169945E-1  -1.918577444083055E-1   3.333553986800495E-3  -1.315784875327937E-1  
 4.050262565641410E9    -2.117364901636499E-2  -1.468950592178497E-1  -9.348919681258827E-1  -2.063829426719804E-1  -9.380069390264662E-1  -1.915637644518721E-1   1.424624382016735E-3  -1.287909237467176E-1  
 4.051012753188297E9    -2.016833149547482E-2  -1.466282643982492E-1  -9.362222368253290E-1  -2.055372521586464E-1  -9.389951926849771E-1  -1.907022800957471E-1   1.728851573982405E-3  -1.281951206020693E-1  
 4.051762940735184E9    -1.659765031272817E-2  -1.433440779313881E-1  -9.381180872197191E-1  -2.038320725614838E-1  -9.382302438089074E-1  -1.894107734222442E-1   2.343527750170354E-3  -1.258323620514877E-1  
 4.052513128282071E9    -1.932115480769854E-2  -1.439509697319177E-1  -9.378016931399316E-1  -2.040813806792134E-1  -9.364832243465215E-1  -1.902120038097602E-1  -3.660512269891948E-3  -1.282215357115369E-1  
 4.053263315828957E9    -1.477217694722938E-2  -1.451566689751676E-1  -9.378711052126121E-1  -2.018381295541146E-1  -9.373024455666386E-1  -1.884652602922796E-1   3.003820841283003E-3  -1.330703756525551E-1  
 4.054013503375844E9    -1.605210690001115E-2  -1.440770494940434E-1  -9.388002822370887E-1  -2.013289131116106E-1  -9.363158944721035E-1  -1.887125194423744E-1  -3.612148559828527E-3  -1.308465997443664E-1  
 4.054763690922730E9    -1.607484633705629E-2  -1.465497678725815E-1  -9.388712379341120E-1  -2.000997547315105E-1  -9.369902644021050E-1  -1.873932263970320E-1   1.533789277269167E-3  -1.291056572993839E-1  
 4.055513878469617E9    -1.437431876523873E-2  -1.433854412784124E-1  -9.404010322321403E-1  -2.000192823455384E-1  -9.374016401761198E-1  -1.861548898576703E-1  -2.678591032841399E-4  -1.286824651330392E-1  
 4.056264066016504E9    -1.356660447597532E-2  -1.414634931293523E-1  -9.417531307465459E-1  -1.969311789393398E-1  -9.368789687822358E-1  -1.859212708240845E-1   2.918797963937713E-3  -1.314457690538715E-1  
 4.057014253563391E9    -1.073539491015351E-2  -1.421850170237861E-1  -9.425307262049701E-1  -1.951120469747919E-1  -9.378465144344307E-1  -1.835238180984226E-1   3.164039131302602E-3  -1.307008068891817E-1  
 4.057764441110278E9    -9.371889490416740E-3  -1.404021925525439E-1  -9.430796662741613E-1  -1.925926953202415E-1  -9.388204651989730E-1  -1.842012849526692E-1  -9.462105942672642E-4  -1.290816132260049E-1  
 4.058514628657164E9    -1.088504821063696E-2  -1.414481377382295E-1  -9.443819909253849E-1  -1.929485673641865E-1  -9.381448627270675E-1  -1.826204687800324E-1   1.941434536853515E-3  -1.286930972969399E-1  
 4.059264816204051E9    -1.066676088106004E-2  -1.394746823850163E-1  -9.455336090273978E-1  -1.913320110614533E-1  -9.400237361312511E-1  -1.819320993285201E-1   2.676007931771601E-3  -1.274948307038281E-1  
 4.060015003750938E9    -8.605268874374097E-3  -1.386017324819873E-1  -9.453162526633093E-1  -1.894781398864692E-1  -9.399991811270235E-1  -1.812519917664207E-1   2.183083662936396E-3  -1.296055657848945E-1  
 4.060765191297824E9    -9.039735953787605E-3  -1.375407147593771E-1  -9.468226921767440E-1  -1.865399122624308E-1  -9.410049569325635E-1  -1.809436672894072E-1  -1.656247544398276E-4  -1.297446944368290E-1  
 4.061515378844711E9    -1.073281326434746E-2  -1.380759950955154E-1  -9.469957907094911E-1  -1.868736214662342E-1  -9.418120317182330E-1  -1.811125389703553E-1   1.586705450074968E-3  -1.316975712240742E-1  
 4.062265566391598E9    -8.036537194211256E-3  -1.360156025494530E-1  -9.489753660200293E-1  -1.840528089620915E-1  -9.423086484758462E-1  -1.799649226224726E-1   3.152724675544081E-4  -1.306761993019767E-1  
 4.063015753938485E9    -8.821208508711374E-3  -1.343475337055426E-1  -9.504099509838309E-1  -1.817404120639887E-1  -9.436378412712067E-1  -1.790771467133823E-1   3.145215127089227E-3  -1.290260665838682E-1  
 4.063765941485371E9    -1.124171563797742E-2  -1.334434415920563E-1  -9.509574754417359E-1  -1.798296680230126E-1  -9.451123181624876E-1  -1.763239770293673E-1   6.889820022349134E-3  -1.272997100152682E-1  
 4.064516129032258E9    -1.100095139515750E-2  -1.314273032736711E-1  -9.514259089292046E-1  -1.779062567471024E-1  -9.460772737747161E-1  -1.759968241497709E-1   4.944815796061324E-3  -1.310977118713364E-1  
 4.065266316579145E9    -1.013092408370625E-2  -1.313911040751581E-1  -9.527762387170820E-1  -1.760587790041377E-1  -9.469476175471887E-1  -1.742937501690371E-1   5.275522025061862E-3  -1.291166260490937E-1  
 4.066016504126031E9    -7.182539897099835E-3  -1.317538899755760E-1  -9.529124960455994E-1  -1.734561055174099E-1  -9.482645406624325E-1  -1.731839919314656E-1   4.585642990757398E-3  -1.310271787429865E-1  
 4.066766691672918E9    -1.256779964676397E-2  -1.312085776881189E-1  -9.547559058919701E-1  -1.729564135497552E-1  -9.496497231621681E-1  -1.728937179487445E-1  -1.032346672470633E-3  -1.303791066218208E-1  
 4.067516879219805E9    -1.181291165039223E-2  -1.299392599734486E-1  -9.549256376480440E-1  -1.694120310858331E-1  -9.514127930050692E-1  -1.716937006265307E-1   6.212390909781152E-4  -1.292140830483452E-1  
 4.068267066766692E9    -1.108338118151637E-2  -1.274166795743669E-1  -9.555284356360722E-1  -1.669554717025170E-1  -9.518686830659623E-1  -1.707143550448250E-1   2.192667828261187E-3  -1.312418178002591E-1  
 4.069017254313579E9    -1.176969478145650E-2  -1.250864957678181E-1  -9.566967566747314E-1  -1.647439361711885E-1  -9.538442653957273E-1  -1.678969940519003E-1   2.577758027241733E-4  -1.311388019323043E-1  
 4.069767441860465E9    -1.353138196797767E-2  -1.262577784518665E-1  -9.572398500281238E-1  -1.630516171273363E-1  -9.553091549033954E-1  -1.667624231420010E-1   8.038917824676309E-4  -1.267854784625834E-1  
