#  HZ   S   RI   R     50.0 
! Rohde & Schwarz ZVL13 2Ports - Version 3.31 - 1303.6509k13 SN: 101088
! Date: 2023-03-06 15:02:40
! Data & Calibration Information:
! Trc4:S11(TOSM) Trc2:S21(TOSM) Trc3:S12(TOSM) Trc5:S22(TOSM)
! 
! 
! 
 4.000000000000000E9     3.876222264632397E-3  -1.361781446207627E-1  -9.066067715289762E-1  -3.140833820437916E-1  -9.118712332480123E-1  -2.919979354147658E-1   1.697643764553074E-2  -1.301451150937413E-1  
 4.000750187546887E9     3.583960389597587E-3  -1.351033974971485E-1  -9.058231017963353E-1  -3.149884749664593E-1  -9.118350638337515E-1  -2.944777823019243E-1   2.032074933874945E-2  -1.352584066316523E-1  
 4.001500375093773E9     4.279275234949599E-3  -1.314456531612405E-1  -9.066062202720278E-1  -3.136813347373391E-1  -9.111988716155203E-1  -2.945360208690063E-1   2.059785532191085E-2  -1.381775168016309E-1  
 4.002250562640660E9     1.925312928954356E-3  -1.328931729563434E-1  -9.071682229462361E-1  -3.123108411357988E-1  -9.102505273701758E-1  -2.941034769394603E-1   2.013670322381899E-2  -1.378113546777637E-1  
 4.003000750187547E9     4.095833307735381E-3  -1.311265861574226E-1  -9.093835196242711E-1  -3.113953160931353E-1  -9.103375785665013E-1  -2.925022407357319E-1   1.953109716514053E-2  -1.327212664985351E-1  
 4.003750937734434E9     4.234286277393133E-4  -1.297661233142615E-1  -9.109281797785516E-1  -3.120991115645278E-1  -9.091415327584030E-1  -2.928634244770128E-1   1.792468988298269E-2  -1.344479786513864E-1  
 4.004501125281320E9     2.089443712681323E-3  -1.283183840924111E-1  -9.129634192429156E-1  -3.099226550101552E-1  -9.109475049203568E-1  -2.926296090610470E-1   1.953957423238846E-2  -1.317578214694036E-1  
 4.005251312828207E9     2.898506184647343E-3  -1.280535837628663E-1  -9.141998685029513E-1  -3.092610725462786E-1  -9.108715528866160E-1  -2.928773705002228E-1   1.638378800227498E-2  -1.334373011900379E-1  
 4.006001500375094E9     1.338820255572450E-3  -1.266498679744467E-1  -9.152888976172672E-1  -3.075584025221930E-1  -9.103812672116884E-1  -2.909618087676452E-1   2.131569214592979E-2  -1.319034368642165E-1  
 4.006751687921980E9     2.604511758824687E-3  -1.262757323131842E-1  -9.160760449002241E-1  -3.053001290376253E-1  -9.102167311407471E-1  -2.902145594348622E-1   2.298271027090520E-2  -1.372085268313181E-1  
 4.007501875468867E9    -9.320056750400627E-4  -1.253097211984325E-1  -9.183395484601918E-1  -3.037351264283673E-1  -9.130916405396944E-1  -2.899446377362287E-1   1.897621583400730E-2  -1.293184080588333E-1  
 4.008252063015754E9    -3.237996222314361E-4  -1.250575856461304E-1  -9.180645747155677E-1  -3.021673236347139E-1  -9.126147702468860E-1  -2.893594372345129E-1   2.301364673769001E-2  -1.365865741695151E-1  
 4.009002250562641E9    -2.925881709863949E-3  -1.266890576846117E-1  -9.194237427181063E-1  -3.011039823353258E-1  -9.120348697504508E-1  -2.893956680061609E-1   2.685334566777355E-2  -1.390407644284011E-1  
 4.009752438109528E9    -3.221554812877598E-3  -1.265750318828717E-1  -9.214636284177638E-1  -3.004498225486847E-1  -9.138110474311866E-1  -2.892726818923206E-1   1.992312259448244E-2  -1.346602495802591E-1  
 4.010502625656414E9    -2.378855604358897E-3  -1.254912092056217E-1  -9.236627544972940E-1  -2.973235009748939E-1  -9.140026701627352E-1  -2.885414858784166E-1   1.916727082609356E-2  -1.389250952523584E-1  
 4.011252813203301E9    -4.244727230917647E-3  -1.256896102825949E-1  -9.258232985108441E-1  -2.957841804909066E-1  -9.153662799735169E-1  -2.884135406199179E-1   1.622934206709803E-2  -1.315231514126125E-1  
 4.012003000750187E9    -5.880377437999400E-3  -1.267059211463163E-1  -9.246476732353984E-1  -2.946241677296201E-1  -9.152464890551897E-1  -2.881052668719558E-1   2.532838253272832E-2  -1.387378445312943E-1  
 4.012753188297074E9    -5.630860685215317E-3  -1.250676241785065E-1  -9.274110587005261E-1  -2.930910641430536E-1  -9.183532431315041E-1  -2.878221542746220E-1   1.599330625165111E-2  -1.403995721772471E-1  
 4.013503375843961E9    -5.991640319677425E-3  -1.246445288106237E-1  -9.289739328109524E-1  -2.904787145080079E-1  -9.182541209439499E-1  -2.868276655168686E-1   1.748691222861324E-2  -1.410662329464124E-1  
 4.014253563390848E9    -7.175733033442861E-3  -1.255807598805953E-1  -9.310413592974522E-1  -2.889198407369095E-1  -9.194234406396156E-1  -2.866339792797641E-1   1.418437312243160E-2  -1.372892392432829E-1  
 4.015003750937735E9    -8.512234069525258E-3  -1.261584546721245E-1  -9.298327228693086E-1  -2.900752073420710E-1  -9.215332988008753E-1  -2.859893227536652E-1   1.625571047480572E-2  -1.363035341165138E-1  
 4.015753938484621E9    -1.094604626571043E-2  -1.245114420980398E-1  -9.339336633380321E-1  -2.835106192500788E-1  -9.226069120095728E-1  -2.865262301632173E-1   1.062278926267360E-2  -1.343694829423998E-1  
 4.016504126031508E9    -1.212805286031524E-2  -1.258759951670591E-1  -9.350829602208455E-1  -2.807240482297457E-1  -9.236042263780149E-1  -2.858120447261972E-1   1.412287192066088E-2  -1.374451415433963E-1  
 4.017254313578394E9    -1.383257272099794E-2  -1.259226192289427E-1  -9.346423079002850E-1  -2.799079751548330E-1  -9.262192067068800E-1  -2.824774863314960E-1   1.463948293755094E-2  -1.358914413253143E-1  
 4.018004501125281E9    -1.481892104394295E-2  -1.240994890773763E-1  -9.362325997822555E-1  -2.785042010722161E-1  -9.265624800118770E-1  -2.833232958379767E-1   1.244641741412437E-2  -1.356692435059917E-1  
 4.018754688672168E9    -1.538956929873360E-2  -1.263065977886420E-1  -9.368864462837844E-1  -2.785343290686989E-1  -9.289086173988541E-1  -2.800164682721960E-1   1.051390591242908E-2  -1.401281540724401E-1  
 4.019504876219055E9    -1.901387219284675E-2  -1.244536651135680E-1  -9.393493268438155E-1  -2.739599480948440E-1  -9.314000390165863E-1  -2.767824023261065E-1   1.262506701211846E-2  -1.408182275746140E-1  
 4.020255063765942E9    -1.633883342746585E-2  -1.243295086222732E-1  -9.391057846384772E-1  -2.689850721486643E-1  -9.333286713103182E-1  -2.762495605333606E-1   7.520386958924227E-3  -1.370264354840894E-1  
 4.021005251312828E9    -1.908505806078201E-2  -1.254592828669040E-1  -9.407907242197622E-1  -2.677716027011052E-1  -9.339496848670884E-1  -2.769016527372405E-1   5.520707771970746E-3  -1.429277825165085E-1  
 4.021755438859715E9    -2.194438750017557E-2  -1.271195982285021E-1  -9.412999308622283E-1  -2.653035032144427E-1  -9.346811850287937E-1  -2.736503462203261E-1   8.205369646409760E-3  -1.368528494735390E-1  
 4.022505626406601E9    -1.995645656274595E-2  -1.281234201900008E-1  -9.410716524252721E-1  -2.631794995047823E-1  -9.366896809880750E-1  -2.718482893929821E-1   1.145141359106878E-2  -1.373870772834746E-1  
 4.023255813953488E9    -2.214305286890295E-2  -1.230068183881488E-1  -9.411886427790289E-1  -2.585436614303270E-1  -9.387390685850019E-1  -2.692987134528700E-1   7.965021924766261E-3  -1.360435773289808E-1  
 4.024006001500375E9    -2.270836860452077E-2  -1.255131624020487E-1  -9.414180920253641E-1  -2.575241786043925E-1  -9.404559720500039E-1  -2.670983990355835E-1   4.694512089599756E-3  -1.332812579233970E-1  
 4.024756189047262E9    -2.136730368334672E-2  -1.262322322180466E-1  -9.415628274561838E-1  -2.549014243955320E-1  -9.414621849608788E-1  -2.640187019384490E-1   7.633394256067408E-3  -1.316992984259390E-1  
 4.025506376594149E9    -2.398969924582768E-2  -1.282015150596635E-1  -9.417012610548059E-1  -2.514489562803919E-1  -9.432237186717210E-1  -2.616565560643074E-1   1.533112763695457E-3  -1.320912323086829E-1  
 4.026256564141035E9    -2.554345773985573E-2  -1.253109183217679E-1  -9.415437128903617E-1  -2.495405824360562E-1  -9.436346182441519E-1  -2.602509419774717E-1   7.829311458167928E-3  -1.329521236019380E-1  
 4.027006751687922E9    -2.484233262148543E-2  -1.266532020131082E-1  -9.419378621624381E-1  -2.474327551948430E-1  -9.456306020824380E-1  -2.578603824910796E-1   3.960206848731582E-3  -1.358878470852821E-1  
 4.027756939234809E9    -2.502252220531397E-2  -1.281016987307959E-1  -9.407695401080211E-1  -2.473028542860424E-1  -9.460038260558067E-1  -2.566597650514385E-1   3.941445784506929E-3  -1.328978138070383E-1  
 4.028507126781695E9    -2.795926226444365E-2  -1.283571741585702E-1  -9.412103316843941E-1  -2.445835759834993E-1  -9.464312849760187E-1  -2.542756510829629E-1   6.235214773276617E-3  -1.345959224861830E-1  
 4.029257314328582E9    -2.676195445453695E-2  -1.300223843325264E-1  -9.407733002647106E-1  -2.417334905846034E-1  -9.474429397987118E-1  -2.496704750576575E-1   5.774041497495801E-3  -1.340079750499256E-1  
 4.030007501875469E9    -2.536939076103638E-2  -1.302402673078085E-1  -9.417409037984404E-1  -2.375442628917776E-1  -9.488014016321047E-1  -2.464509376510539E-1   3.246531619586882E-3  -1.362587882712666E-1  
 4.030757689422356E9    -2.694627945347525E-2  -1.302604105182499E-1  -9.392174933500619E-1  -2.380196036638642E-1  -9.500413845658046E-1  -2.430789341032239E-1  -2.874265053989151E-4  -1.331175543045480E-1  
 4.031507876969242E9    -2.449749898196903E-2  -1.311662069902171E-1  -9.399620483060470E-1  -2.353059643150748E-1  -9.491099745515109E-1  -2.413946708821095E-1   7.330286638974740E-3  -1.323141181357030E-1  
 4.032258064516129E9    -2.638246932751973E-2  -1.313818086301146E-1  -9.384324018190157E-1  -2.313170408940590E-1  -9.505164473244644E-1  -2.344828228853033E-1   1.508490381080019E-3  -1.317246899959936E-1  
 4.033008252063016E9    -2.580752068299844E-2  -1.330469902535455E-1  -9.380358948237016E-1  -2.313567373614893E-1  -9.498921356180231E-1  -2.344918523953299E-1   2.203640497571331E-3  -1.343763495335715E-1  
 4.033758439609902E9    -2.599107132597728E-2  -1.361202904575087E-1  -9.384094216250227E-1  -2.302758123884112E-1  -9.489518311303709E-1  -2.343596228944022E-1   2.358040348490297E-3  -1.315365957604270E-1  
 4.034508627156789E9    -2.477278928574606E-2  -1.362110326955008E-1  -9.373056160574539E-1  -2.277806487059534E-1  -9.484656221278629E-1  -2.311356581657355E-1   1.919514355824831E-4  -1.331613337623527E-1  
 4.035258814703676E9    -2.697003709138938E-2  -1.383242280624793E-1  -9.371803684029677E-1  -2.284964511604715E-1  -9.494702244983186E-1  -2.283109636359237E-1   4.264066829291393E-3  -1.321373771747592E-1  
 4.036009002250563E9    -2.347825310389108E-2  -1.392411901017166E-1  -9.364578915260894E-1  -2.281073609723638E-1  -9.497717223433919E-1  -2.257074118047132E-1   5.628340808601800E-3  -1.346812692318005E-1  
 4.036759189797450E9    -2.511167675168228E-2  -1.380570858764339E-1  -9.367883897340059E-1  -2.231674387896240E-1  -9.487372060507257E-1  -2.242469193870682E-1   3.216054583189862E-3  -1.310415125393153E-1  
 4.037509377344336E9    -2.511603195269204E-2  -1.391776439200921E-1  -9.347849490625303E-1  -2.236369959360695E-1  -9.484934005180206E-1  -2.210511358376661E-1   2.019380751688258E-3  -1.326938820145262E-1  
 4.038259564891223E9    -2.393319307475236E-2  -1.389163463680471E-1  -9.348020156421122E-1  -2.218076696697599E-1  -9.489777062887934E-1  -2.186991082238263E-1   1.041990907340788E-3  -1.377247186588536E-1  
 4.039009752438109E9    -2.376519668510736E-2  -1.423522593148393E-1  -9.340627213090806E-1  -2.211290246211024E-1  -9.479833636960422E-1  -2.172439765112307E-1   4.954237888152295E-3  -1.317977254017577E-1  
 4.039759939984996E9    -2.213395593652439E-2  -1.437276112650586E-1  -9.342050328526397E-1  -2.206840489192525E-1  -9.475796949149770E-1  -2.132756160479247E-1   3.934817097137597E-3  -1.339739483448515E-1  
 4.040510127531883E9    -2.403754603555013E-2  -1.430223355184144E-1  -9.334730939677443E-1  -2.194295838543351E-1  -9.466663548584741E-1  -2.110355082982554E-1  -8.444995744958505E-4  -1.382076028164760E-1  
 4.041260315078770E9    -2.200404733541174E-2  -1.452169400821608E-1  -9.327459145833918E-1  -2.178371121053057E-1  -9.446708889378922E-1  -2.090403110984952E-1  -2.971110777520742E-3  -1.334999048103399E-1  
 4.042010502625657E9    -2.327556430566558E-2  -1.448019170019651E-1  -9.322217919356874E-1  -2.165835463332895E-1  -9.454851189136387E-1  -2.074432581344211E-1  -1.311747018800375E-3  -1.304127212319122E-1  
 4.042760690172543E9    -2.384092579979460E-2  -1.442621881360157E-1  -9.331861911729125E-1  -2.159379526037999E-1  -9.454385041512673E-1  -2.067175557195844E-1  -2.676482521234020E-3  -1.359418011619527E-1  
 4.043510877719430E9    -2.399295328482910E-2  -1.436055258732510E-1  -9.333242753223596E-1  -2.155165359635669E-1  -9.433246211989877E-1  -2.045686837215506E-1  -1.881589273764304E-4  -1.339097784101709E-1  
 4.044261065266316E9    -2.259762111363209E-2  -1.471871052375432E-1  -9.323817248990471E-1  -2.140134436390670E-1  -9.425042667547547E-1  -2.024833032154992E-1  -1.326450154697464E-3  -1.305039184830459E-1  
 4.045011252813203E9    -2.312327585899262E-2  -1.460074998335609E-1  -9.317407741884574E-1  -2.137126013839817E-1  -9.415470024775022E-1  -2.004838161966738E-1  -2.518505077819967E-3  -1.290557685386542E-1  
 4.045761440360090E9    -2.219104101496753E-2  -1.456451291060461E-1  -9.333523318224035E-1  -2.138948887562524E-1  -9.416680353088227E-1  -1.989665691555566E-1   6.225046769991346E-4  -1.279547375642037E-1  
 4.046511627906977E9    -2.202727342928516E-2  -1.471530844058909E-1  -9.316347348218286E-1  -2.124940897717811E-1  -9.408101234371638E-1  -1.985310237792085E-1  -3.855867704326553E-3  -1.316277443635346E-1  
 4.047261815453864E9    -2.138146306907628E-2  -1.484838008402030E-1  -9.332000570585380E-1  -2.128190631214245E-1  -9.397561964768065E-1  -1.969551733557725E-1  -1.183986229364876E-3  -1.293971131712569E-1  
 4.048012003000750E9    -1.948863086201186E-2  -1.461991885445587E-1  -9.346860601726484E-1  -2.105663045636538E-1  -9.396473671718423E-1  -1.941228675020095E-1   3.126372942780631E-3  -1.300204674783810E-1  
 4.048762190547637E9    -2.010629118864848E-2  -1.483495853987069E-1  -9.335068302576673E-1  -2.108326009912591E-1  -9.375656188791192E-1  -1.945525441417288E-1  -4.780596177594598E-3  -1.289877267327309E-1  
 4.049512378094523E9    -2.194763986554729E-2  -1.472194816502854E-1  -9.337046678239710E-1  -2.089426953414509E-1  -9.370428704163684E-1  -1.922080330085165E-1   1.375284585385159E-3  -1.315443046202101E-1  
 4.050262565641410E9    -2.121344425276593E-2  -1.482094521383885E-1  -9.343047755407965E-1  -2.075839005602855E-1  -9.372862185501375E-1  -1.925946626517974E-1   8.794549751135409E-4  -1.290025852997201E-1  
 4.051012753188297E9    -2.020122988532275E-2  -1.477853018502587E-1  -9.356595004762314E-1  -2.062927313865290E-1  -9.383368419655672E-1  -1.916441914450698E-1   8.143812300704436E-7  -1.285005751333566E-1  
 4.051762940735184E9    -1.660243096085006E-2  -1.441973233283875E-1  -9.376716018190553E-1  -2.041626857349131E-1  -9.377853208442715E-1  -1.900965116119563E-1   9.543023562646892E-4  -1.261221121763505E-1  
 4.052513128282071E9    -1.914264326186013E-2  -1.454397166703689E-1  -9.371216893930618E-1  -2.062633539826902E-1  -9.356286565230390E-1  -1.917199005771613E-1  -4.416134679662340E-3  -1.282662999492595E-1  
 4.053263315828957E9    -1.420511799512439E-2  -1.464319746896086E-1  -9.372560084802784E-1  -2.030583741998913E-1  -9.366550103013208E-1  -1.892356016964278E-1   1.495292988072330E-3  -1.340352891035122E-1  
 4.054013503375844E9    -1.551399585641484E-2  -1.452979775200001E-1  -9.383389949941163E-1  -2.025535849899482E-1  -9.355712212798318E-1  -1.903484019962640E-1  -5.944876420369918E-3  -1.312370183283006E-1  
 4.054763690922730E9    -1.612348435671785E-2  -1.480826054068971E-1  -9.384160279969066E-1  -2.009767335061200E-1  -9.365675632159833E-1  -1.882123837496506E-1   6.558703497539833E-4  -1.295928750547341E-1  
 4.055513878469617E9    -1.428622310176145E-2  -1.450144935004548E-1  -9.396509559170990E-1  -2.007932400411663E-1  -9.366860183317967E-1  -1.867906747911287E-1  -2.073281666323454E-3  -1.300390421918239E-1  
 4.056264066016504E9    -1.288720369464851E-2  -1.431649009238216E-1  -9.415547491144363E-1  -1.980121679063462E-1  -9.363630563724572E-1  -1.866191716504847E-1   9.544083719408650E-4  -1.325844795041433E-1  
 4.057014253563391E9    -1.039657468937330E-2  -1.438038740582373E-1  -9.424865145625752E-1  -1.961423482221990E-1  -9.373177640947789E-1  -1.848788862141322E-1   1.588098856483032E-3  -1.309769167216976E-1  
 4.057764441110278E9    -8.936812718000812E-3  -1.413920885204175E-1  -9.425767423253457E-1  -1.942319528787578E-1  -9.379924297697355E-1  -1.854261769685503E-1  -3.020608660114207E-3  -1.307142394883168E-1  
 4.058514628657164E9    -1.110267420600680E-2  -1.427831255422031E-1  -9.437823384346504E-1  -1.940668781704669E-1  -9.379260053946732E-1  -1.834692432864094E-1   3.152573876924672E-4  -1.294491993596594E-1  
 4.059264816204051E9    -1.027589835708251E-2  -1.408893352499083E-1  -9.452070549887628E-1  -1.922012580812386E-1  -9.394136804999504E-1  -1.826781744294541E-1   1.169563254105551E-3  -1.285458363960568E-1  
 4.060015003750938E9    -8.370261623620489E-3  -1.401957758459749E-1  -9.446692555331863E-1  -1.905273812214256E-1  -9.391838318063206E-1  -1.823471694160678E-1   1.111201971134192E-4  -1.312846539387381E-1  
 4.060765191297824E9    -8.799388125576138E-3  -1.391864111438460E-1  -9.465202627204563E-1  -1.878975444096798E-1  -9.405798230112206E-1  -1.821420970586518E-1  -2.557430790256192E-3  -1.304384999288929E-1  
 4.061515378844711E9    -1.019935296719670E-2  -1.401264901503475E-1  -9.464014906809828E-1  -1.887570640278103E-1  -9.411480250106604E-1  -1.827120365348114E-1   1.863672997836018E-4  -1.333323824930786E-1  
 4.062265566391598E9    -7.784543830064526E-3  -1.377046675199011E-1  -9.485857947998198E-1  -1.851742628718624E-1  -9.419359217846008E-1  -1.814306240571590E-1  -1.074859511315108E-3  -1.313774625543229E-1  
 4.063015753938485E9    -8.654377799894048E-3  -1.362613502555356E-1  -9.500088629320183E-1  -1.827517737021277E-1  -9.430042903792938E-1  -1.799432982956850E-1   1.037004796470539E-3  -1.306108332651580E-1  
 4.063765941485371E9    -1.121398242818198E-2  -1.354874151611779E-1  -9.505809048347240E-1  -1.809762668239257E-1  -9.445820494885194E-1  -1.772016329745504E-1   4.927236227793893E-3  -1.289828365910319E-1  
 4.064516129032258E9    -1.061295753375906E-2  -1.335390946286867E-1  -9.513560393458749E-1  -1.788659606114087E-1  -9.454383115299769E-1  -1.769405356748119E-1   2.956273122283702E-3  -1.321361025229848E-1  
 4.065266316579145E9    -1.017886049554158E-2  -1.332857570115458E-1  -9.524520881193114E-1  -1.770341882325952E-1  -9.465186476863080E-1  -1.752789181096036E-1   3.743276644075425E-3  -1.306290991894985E-1  
 4.066016504126031E9    -7.080400609231654E-3  -1.334996940103413E-1  -9.525462393569919E-1  -1.743909869617646E-1  -9.477885860027384E-1  -1.741303340756140E-1   3.076027717630236E-3  -1.331052614924391E-1  
 4.066766691672918E9    -1.280181717571702E-2  -1.329045588467279E-1  -9.542369294474220E-1  -1.742989741186251E-1  -9.492669204667652E-1  -1.739863540456978E-1  -2.307086905085895E-3  -1.325987189661352E-1  
 4.067516879219805E9    -1.192563719078488E-2  -1.318427299839835E-1  -9.545669872714727E-1  -1.704938374052681E-1  -9.510238681324011E-1  -1.730247049184419E-1  -7.732974262150674E-4  -1.310681485439955E-1  
 4.068267066766692E9    -1.105599155752507E-2  -1.290681175355734E-1  -9.552496485512456E-1  -1.685084005671201E-1  -9.512256139870960E-1  -1.715566929877996E-1   6.963761846430985E-4  -1.339626123833695E-1  
 4.069017254313579E9    -1.178354815296339E-2  -1.270486366232964E-1  -9.562321442975041E-1  -1.658527654859092E-1  -9.532540933579231E-1  -1.689594128075876E-1  -1.218333480982320E-3  -1.337253341566029E-1  
 4.069767441860465E9    -1.366382602527460E-2  -1.281713482558668E-1  -9.567890215013033E-1  -1.640313326408575E-1  -9.548406522476916E-1  -1.678020916421009E-1  -2.057310214296634E-4  -1.303425556876242E-1  
