#  HZ   S   RI   R     50.0 
! Rohde & Schwarz ZVL13 2Ports - Version 3.31 - 1303.6509k13 SN: 101088
! Date: 2023-03-06 15:03:56
! Data & Calibration Information:
! Trc4:S11(TOSM) Trc2:S21(TOSM) Trc3:S12(TOSM) Trc5:S22(TOSM)
! 
! 
! 
 4.000000000000000E9     4.087362158570904E-3  -1.352080263165010E-1  -9.066461957124102E-1  -3.137001384473742E-1  -9.121423708830201E-1  -2.916275372301043E-1   1.674545916502643E-2  -1.295791819474662E-1  
 4.000750187546887E9     3.580917456289753E-3  -1.339816754121063E-1  -9.060924891426559E-1  -3.141080724945665E-1  -9.124761266872523E-1  -2.940768240785600E-1   2.066631989858114E-2  -1.341865369413938E-1  
 4.001500375093773E9     3.904979503210402E-3  -1.306140501749955E-1  -9.068601663161094E-1  -3.131395538883508E-1  -9.118660362829879E-1  -2.935460930757225E-1   2.104757089138218E-2  -1.377456148627279E-1  
 4.002250562640660E9     1.835713894519417E-3  -1.321360581314274E-1  -9.072131269534345E-1  -3.116604602611066E-1  -9.105657033042141E-1  -2.932472341381610E-1   2.057420261842758E-2  -1.373796125925598E-1  
 4.003000750187547E9     3.882202430423816E-3  -1.303153200100173E-1  -9.098312653147411E-1  -3.110345538119972E-1  -9.106641437288461E-1  -2.918777770321370E-1   1.841639841673896E-2  -1.317840084092662E-1  
 4.003750937734434E9     2.383896505943558E-4  -1.292254915527854E-1  -9.114274671988213E-1  -3.105951119047404E-1  -9.093605856439840E-1  -2.925353630260826E-1   1.822283588880860E-2  -1.341037196974227E-1  
 4.004501125281320E9     1.722758536623064E-3  -1.274448734214461E-1  -9.134734809422854E-1  -3.088046620242895E-1  -9.115016680742880E-1  -2.919312285907865E-1   1.963466638332234E-2  -1.300859377013745E-1  
 4.005251312828207E9     2.770291412976222E-3  -1.269949221525893E-1  -9.142242786160701E-1  -3.086809678065480E-1  -9.114691123949793E-1  -2.921173053048851E-1   1.715883142217528E-2  -1.331562424456861E-1  
 4.006001500375094E9     9.482457985098954E-4  -1.258911183683202E-1  -9.152658951580395E-1  -3.067336747807265E-1  -9.106253256788508E-1  -2.905341304333807E-1   2.165658577113040E-2  -1.319683805900527E-1  
 4.006751687921980E9     2.107845202109777E-3  -1.257130308713953E-1  -9.161723017952542E-1  -3.047405483921171E-1  -9.109781642726670E-1  -2.897474688260556E-1   2.295429211059026E-2  -1.360298586956611E-1  
 4.007501875468867E9    -8.445348821157096E-4  -1.246264811542575E-1  -9.184679182091406E-1  -3.031408672942521E-1  -9.132482203076746E-1  -2.893757859034241E-1   1.905703066140227E-2  -1.287204808459353E-1  
 4.008252063015754E9    -2.318258063426483E-4  -1.247563405737512E-1  -9.188543467753146E-1  -3.011084048260451E-1  -9.130114541108154E-1  -2.891736006525458E-1   2.252652000421286E-2  -1.351522199140871E-1  
 4.009002250562641E9    -3.021145050721011E-3  -1.262693992338998E-1  -9.195436521487399E-1  -3.004678460366130E-1  -9.122820121158451E-1  -2.890247929961384E-1   2.657302133759857E-2  -1.387974643053989E-1  
 4.009752438109528E9    -3.051909126176965E-3  -1.261234426956231E-1  -9.219469792305080E-1  -2.995586512800157E-1  -9.141300424129468E-1  -2.893025320350528E-1   1.996052181822062E-2  -1.337710357678753E-1  
 4.010502625656414E9    -2.023274506692193E-3  -1.247419656873213E-1  -9.239351671761624E-1  -2.968483966684938E-1  -9.144198220782627E-1  -2.880065446316302E-1   1.886869974490442E-2  -1.381168401333634E-1  
 4.011252813203301E9    -4.208355887059122E-3  -1.247290583316240E-1  -9.260506286421042E-1  -2.952883790635765E-1  -9.157077277347180E-1  -2.874236560605764E-1   1.641210042854026E-2  -1.318995474866030E-1  
 4.012003000750187E9    -5.665412753257902E-3  -1.257715974302227E-1  -9.251536823377321E-1  -2.941593871978225E-1  -9.154831457052652E-1  -2.874066438153983E-1   2.471069016081282E-2  -1.384236215245110E-1  
 4.012753188297074E9    -5.438658657629509E-3  -1.238315082727223E-1  -9.276936032312729E-1  -2.925906487872302E-1  -9.188519946694671E-1  -2.871914609394670E-1   1.603811003207323E-2  -1.392585704565530E-1  
 4.013503375843961E9    -5.852309898809065E-3  -1.238993642864666E-1  -9.291358162460236E-1  -2.901780532658696E-1  -9.185386318263111E-1  -2.863293546126485E-1   1.716808815355692E-2  -1.403426658247051E-1  
 4.014253563390848E9    -6.998137037401087E-3  -1.247079393353806E-1  -9.314424923246150E-1  -2.882322718122006E-1  -9.199370149205172E-1  -2.858967137089671E-1   1.344072836020123E-2  -1.372691555634121E-1  
 4.015003750937735E9    -8.302694348067978E-3  -1.249680636322155E-1  -9.301101829721898E-1  -2.895030534791352E-1  -9.221825076760550E-1  -2.851417645471395E-1   1.560820430260804E-2  -1.354394413822343E-1  
 4.015753938484621E9    -1.111947671403270E-2  -1.236546065737512E-1  -9.342359137226137E-1  -2.827331447029711E-1  -9.230212177867069E-1  -2.861284527091981E-1   1.079686060313974E-2  -1.330446761878154E-1  
 4.016504126031508E9    -1.181776037715282E-2  -1.253493292849949E-1  -9.354348908312139E-1  -2.801603341653943E-1  -9.236778645274366E-1  -2.853194890087248E-1   1.375771048231516E-2  -1.374650009407047E-1  
 4.017254313578394E9    -1.299854407995381E-2  -1.252942150484113E-1  -9.349886976615297E-1  -2.792217198188901E-1  -9.261652389053811E-1  -2.818565612423420E-1   1.458396906040423E-2  -1.355525957426703E-1  
 4.018004501125281E9    -1.443835663091392E-2  -1.234448324432491E-1  -9.363330495899955E-1  -2.782210636756718E-1  -9.270381725443805E-1  -2.827366550289990E-1   1.247990297606308E-2  -1.343232594976838E-1  
 4.018754688672168E9    -1.496080307016615E-2  -1.256271198999777E-1  -9.370712505154085E-1  -2.777168658432961E-1  -9.288706613482941E-1  -2.799341714891493E-1   1.075410245808121E-2  -1.395377832085195E-1  
 4.019504876219055E9    -1.856690774222836E-2  -1.237716646642826E-1  -9.395783274499427E-1  -2.729298523280322E-1  -9.315988947604363E-1  -2.758763654411436E-1   1.302188922042213E-2  -1.396261001986459E-1  
 4.020255063765942E9    -1.618212300323882E-2  -1.236190497174594E-1  -9.393199906390196E-1  -2.680790803062320E-1  -9.336074262603166E-1  -2.754004857703150E-1   7.202851322678848E-3  -1.363853886513594E-1  
 4.021005251312828E9    -1.870522832569294E-2  -1.248478916427674E-1  -9.410347252564932E-1  -2.671869963695407E-1  -9.340014789455533E-1  -2.760245562687814E-1   5.661052627445665E-3  -1.424587901382716E-1  
 4.021755438859715E9    -2.171697667534650E-2  -1.267404898680594E-1  -9.415831789196745E-1  -2.646337575165927E-1  -9.347246502827391E-1  -2.730433733868600E-1   8.444534534033855E-3  -1.364223738499295E-1  
 4.022505626406601E9    -1.987309989557416E-2  -1.269435708693345E-1  -9.412987999895512E-1  -2.625585583906174E-1  -9.369450804434364E-1  -2.713863508557082E-1   1.115467786303908E-2  -1.367138531247382E-1  
 4.023255813953488E9    -2.223770215488970E-2  -1.221526327918197E-1  -9.415998166383980E-1  -2.578792935146689E-1  -9.390401682020522E-1  -2.686097114290000E-1   7.501861629210877E-3  -1.350502067636343E-1  
 4.024006001500375E9    -2.234312744086423E-2  -1.251724610275787E-1  -9.418255714627184E-1  -2.567571236258448E-1  -9.408497669437783E-1  -2.660149124926031E-1   4.290630019583506E-3  -1.325269809901345E-1  
 4.024756189047262E9    -2.115108587433026E-2  -1.254479862534898E-1  -9.418280096712102E-1  -2.546402751913965E-1  -9.417667533446446E-1  -2.634797660616934E-1   7.153191111032385E-3  -1.307579146117077E-1  
 4.025506376594149E9    -2.318205145428517E-2  -1.277167650400638E-1  -9.421208116985689E-1  -2.506721150316597E-1  -9.437017392503078E-1  -2.611484261089861E-1   7.643556255480654E-4  -1.327005452690989E-1  
 4.026256564141035E9    -2.519768781290390E-2  -1.246923466980308E-1  -9.417521229744759E-1  -2.489758847021759E-1  -9.440509347148032E-1  -2.598808083671331E-1   7.599763041053435E-3  -1.320120632611700E-1  
 4.027006751687922E9    -2.454434240572714E-2  -1.260975087484467E-1  -9.420953545320391E-1  -2.466450300836415E-1  -9.460593945715710E-1  -2.569775953699053E-1   2.452841100005842E-3  -1.350394688705937E-1  
 4.027756939234809E9    -2.488225620558300E-2  -1.276997051609805E-1  -9.412812212340627E-1  -2.467257521108687E-1  -9.464189867973473E-1  -2.562606581988632E-1   3.500461373248605E-3  -1.324272723581878E-1  
 4.028507126781695E9    -2.789736951225438E-2  -1.276705380039683E-1  -9.412610616314034E-1  -2.441789955522568E-1  -9.467147868873614E-1  -2.534839107904137E-1   5.971900583185258E-3  -1.338237718262612E-1  
 4.029257314328582E9    -2.644587369634025E-2  -1.290903327087829E-1  -9.411186248373136E-1  -2.409090321731568E-1  -9.480249254410422E-1  -2.486689713159651E-1   4.607906257351861E-3  -1.333072273632525E-1  
 4.030007501875469E9    -2.515018311967143E-2  -1.297947939936437E-1  -9.420270627872703E-1  -2.365792501294613E-1  -9.491444336831156E-1  -2.460369961377532E-1   3.365757852694021E-3  -1.356025964364521E-1  
 4.030757689422356E9    -2.605023583856785E-2  -1.294174769763105E-1  -9.395450934807511E-1  -2.370485993857235E-1  -9.504478661294081E-1  -2.421275160751045E-1  -6.674353029027733E-4  -1.324581687921425E-1  
 4.031507876969242E9    -2.421165521017835E-2  -1.304246347173686E-1  -9.400757536390285E-1  -2.346525282900036E-1  -9.491096549751129E-1  -2.401968592983932E-1   7.797742549774237E-3  -1.310225805663159E-1  
 4.032258064516129E9    -2.607529001917876E-2  -1.309100650920522E-1  -9.385989159308742E-1  -2.308652535781414E-1  -9.507870505577045E-1  -2.344108094129116E-1   1.037113835443090E-3  -1.316760248707835E-1  
 4.033008252063016E9    -2.525186904080957E-2  -1.326014445676372E-1  -9.382147011996946E-1  -2.307705727395863E-1  -9.501604717479685E-1  -2.343417271156014E-1   1.305401212955534E-3  -1.341423637049726E-1  
 4.033758439609902E9    -2.547798958315515E-2  -1.350741953184896E-1  -9.384225758632399E-1  -2.287693245964647E-1  -9.492710826359815E-1  -2.335779893578441E-1   1.497017269912132E-3  -1.307545414033681E-1  
 4.034508627156789E9    -2.487822902270034E-2  -1.356628704319925E-1  -9.376976233069112E-1  -2.270891626315863E-1  -9.490752561842355E-1  -2.307012482941449E-1   3.984352267173382E-4  -1.334055886623408E-1  
 4.035258814703676E9    -2.636377833330818E-2  -1.377558634548315E-1  -9.371595120365650E-1  -2.285463144196123E-1  -9.494777870185185E-1  -2.284370017550588E-1   4.457556622079807E-3  -1.316028693434365E-1  
 4.036009002250563E9    -2.342046630805545E-2  -1.389907626962823E-1  -9.366223691005032E-1  -2.275783633053005E-1  -9.500509971953904E-1  -2.260448024626673E-1   5.438872751876479E-3  -1.347921420741758E-1  
 4.036759189797450E9    -2.538389540152811E-2  -1.376202112451073E-1  -9.373132388397460E-1  -2.227316746062637E-1  -9.491012473914773E-1  -2.235671071715951E-1   2.841363652740489E-3  -1.303492390796557E-1  
 4.037509377344336E9    -2.452568896237017E-2  -1.387507456130189E-1  -9.351954301470401E-1  -2.227388073077202E-1  -9.489637783797481E-1  -2.201709792950005E-1   1.805383202708938E-3  -1.320108979380214E-1  
 4.038259564891223E9    -2.331734674074501E-2  -1.382795627147865E-1  -9.351641037978661E-1  -2.213092501842827E-1  -9.490307970130789E-1  -2.182386915509403E-1   1.670930730511799E-3  -1.368673666162789E-1  
 4.039009752438109E9    -2.359125547154620E-2  -1.416728745616993E-1  -9.342558323032151E-1  -2.205022049740404E-1  -9.485452786539548E-1  -2.167361082789153E-1   5.055905245325761E-3  -1.324160725900208E-1  
 4.039759939984996E9    -2.212937459258177E-2  -1.429875422026707E-1  -9.344051672600031E-1  -2.202705229741037E-1  -9.481563176884502E-1  -2.130504139806778E-1   3.637942022728080E-3  -1.344078674859161E-1  
 4.040510127531883E9    -2.339142246453651E-2  -1.426466335578772E-1  -9.336184084445601E-1  -2.185383749607802E-1  -9.471035038844919E-1  -2.102027367227078E-1  -5.649194887060585E-4  -1.375389474127130E-1  
 4.041260315078770E9    -2.198957736354880E-2  -1.445629706518752E-1  -9.330299190362303E-1  -2.179166563440413E-1  -9.451800764924693E-1  -2.082972668433190E-1  -2.451954415326939E-3  -1.324434136758541E-1  
 4.042010502625657E9    -2.372933285342902E-2  -1.447493712340301E-1  -9.325510078806651E-1  -2.159335944935829E-1  -9.457315174468637E-1  -2.072876668370068E-1  -1.323801065536274E-3  -1.293072529248237E-1  
 4.042760690172543E9    -2.329898340795934E-2  -1.440119914662137E-1  -9.333130801162577E-1  -2.148509942850322E-1  -9.458139009056860E-1  -2.059746997266710E-1  -2.903904686038383E-3  -1.356818394307436E-1  
 4.043510877719430E9    -2.328076439474524E-2  -1.432585805904870E-1  -9.334063238173356E-1  -2.149241771013142E-1  -9.439226057651327E-1  -2.036051167978049E-1   5.883215480032960E-4  -1.337977793106024E-1  
 4.044261065266316E9    -2.198153066471219E-2  -1.468163436416304E-1  -9.323900382609238E-1  -2.142827744767517E-1  -9.428176181689377E-1  -2.017383025308550E-1  -1.742693549326156E-3  -1.290888115951746E-1  
 4.045011252813203E9    -2.319384898413718E-2  -1.454817817191528E-1  -9.322361001793672E-1  -2.132576165692359E-1  -9.419103720671962E-1  -2.006412299441845E-1  -1.728087097056181E-3  -1.290600311118698E-1  
 4.045761440360090E9    -2.200612266029232E-2  -1.452358854269150E-1  -9.338902898022223E-1  -2.125888258552552E-1  -9.419738603636332E-1  -1.979253565804214E-1   1.034940777812397E-3  -1.277991423886757E-1  
 4.046511627906977E9    -2.155567182594538E-2  -1.467403014472355E-1  -9.319598356994578E-1  -2.120596801315546E-1  -9.413019584225493E-1  -1.974666934312135E-1  -3.751209423313616E-3  -1.314732371714420E-1  
 4.047261815453864E9    -2.152780499808863E-2  -1.480387523240577E-1  -9.334998796269249E-1  -2.118818627538830E-1  -9.401036859672938E-1  -1.968101706596167E-1  -4.372315823630708E-4  -1.287227958936758E-1  
 4.048012003000750E9    -1.908724674953893E-2  -1.451094747713691E-1  -9.347088512418621E-1  -2.096976532587409E-1  -9.400815719695443E-1  -1.938059449856878E-1   2.997451638357714E-3  -1.294677457121324E-1  
 4.048762190547637E9    -2.038646783720516E-2  -1.479129280624308E-1  -9.340096166210632E-1  -2.097419960582555E-1  -9.378794707659901E-1  -1.941375756358654E-1  -4.023282006818104E-3  -1.293230182404135E-1  
 4.049512378094523E9    -2.193274480694160E-2  -1.464790446391606E-1  -9.340748738295984E-1  -2.077680745729357E-1  -9.374634450804122E-1  -1.919875876279027E-1   1.893968102874817E-3  -1.313168996598128E-1  
 4.050262565641410E9    -2.107160474459641E-2  -1.477059739541106E-1  -9.344539031266466E-1  -2.072091338753700E-1  -9.380816426404304E-1  -1.914667559990436E-1   1.212108438176118E-3  -1.282472883487571E-1  
 4.051012753188297E9    -1.938930431367644E-2  -1.469121596167631E-1  -9.354991780462386E-1  -2.070840023324192E-1  -9.388123989054761E-1  -1.913005441429466E-1   4.155734524119835E-4  -1.280305916843613E-1  
 4.051762940735184E9    -1.592196148699242E-2  -1.438626236971678E-1  -9.378507007147592E-1  -2.046652951246948E-1  -9.378027361673408E-1  -1.904738510928750E-1   1.084327318026699E-3  -1.251923414724248E-1  
 4.052513128282071E9    -1.873921449330449E-2  -1.444956852209231E-1  -9.376018158926626E-1  -2.051051126196981E-1  -9.364338594341733E-1  -1.909426363585443E-1  -3.610037266373344E-3  -1.278314081480874E-1  
 4.053263315828957E9    -1.445207591381576E-2  -1.454854838245429E-1  -9.373498734752865E-1  -2.025165296979994E-1  -9.371454807471874E-1  -1.887880375513584E-1   2.358978265558487E-3  -1.327028498860846E-1  
 4.054013503375844E9    -1.541693640880753E-2  -1.450538097828140E-1  -9.390246799062081E-1  -2.015039484416694E-1  -9.359781108114492E-1  -1.889382853701115E-1  -5.525727079179372E-3  -1.301753604564518E-1  
 4.054763690922730E9    -1.585055565346312E-2  -1.469915134612872E-1  -9.386888570615470E-1  -2.004741130140275E-1  -9.369239444718605E-1  -1.872784807628244E-1   1.621368429377180E-4  -1.293592898515520E-1  
 4.055513878469617E9    -1.426417460017000E-2  -1.438645157024802E-1  -9.399910390581366E-1  -2.001093720101864E-1  -9.372431866596610E-1  -1.863509820305109E-1  -1.462952951473833E-3  -1.288829339422817E-1  
 4.056264066016504E9    -1.271904153178539E-2  -1.420531658076582E-1  -9.417852391477261E-1  -1.973501478475035E-1  -9.367938907702426E-1  -1.863144519410581E-1   2.098895547157678E-3  -1.313906668040887E-1  
 4.057014253563391E9    -1.071649340344686E-2  -1.429495570340524E-1  -9.425510956230290E-1  -1.953321620256455E-1  -9.373569178445643E-1  -1.839634255761803E-1   1.853623074873496E-3  -1.304117041472278E-1  
 4.057764441110278E9    -9.090281959666872E-3  -1.410280405507002E-1  -9.430003983720210E-1  -1.933937878497690E-1  -9.385583452666866E-1  -1.847243851471543E-1  -2.693762826074381E-3  -1.291394160778616E-1  
 4.058514628657164E9    -1.114843762731739E-2  -1.415004326788259E-1  -9.440080313426664E-1  -1.931656592766643E-1  -9.383143859494778E-1  -1.826516186186672E-1   1.179978497487391E-3  -1.284782341258946E-1  
 4.059264816204051E9    -1.069312622813042E-2  -1.404637736720913E-1  -9.454530720546154E-1  -1.918060891119093E-1  -9.398527560761449E-1  -1.821685887430311E-1   8.577335480056500E-4  -1.277803259506508E-1  
 4.060015003750938E9    -8.477000789254905E-3  -1.394042057304814E-1  -9.449914266608011E-1  -1.901808376665414E-1  -9.395262067839736E-1  -1.816565629567951E-1   7.109733970745439E-4  -1.313863165579210E-1  
 4.060765191297824E9    -8.517800932627636E-3  -1.385430398017569E-1  -9.465173930612275E-1  -1.872828585758060E-1  -9.404934972717985E-1  -1.815923616420329E-1  -2.260764909077785E-3  -1.297661502048088E-1  
 4.061515378844711E9    -1.057703216468078E-2  -1.393464989788353E-1  -9.467289453919019E-1  -1.878582242174149E-1  -9.415623473875104E-1  -1.815403729368151E-1   1.097430410039634E-4  -1.327777736431902E-1  
 4.062265566391598E9    -7.756152480786668E-3  -1.371620421298208E-1  -9.486419130743270E-1  -1.843026800198704E-1  -9.423274495262627E-1  -1.804702374829651E-1  -5.227511743155630E-4  -1.314446013632661E-1  
 4.063015753938485E9    -8.650641421759968E-3  -1.353521459176848E-1  -9.501903315673880E-1  -1.821181713239104E-1  -9.434329465805487E-1  -1.794991269405931E-1   1.936058699920715E-3  -1.298230337438083E-1  
 4.063765941485371E9    -1.124186982801743E-2  -1.347302068762636E-1  -9.507483297037678E-1  -1.802760817870796E-1  -9.452308605449862E-1  -1.766980241001994E-1   5.149783906021389E-3  -1.285832488582394E-1  
 4.064516129032258E9    -1.087223540822417E-2  -1.323652981515948E-1  -9.516457446758424E-1  -1.782065815831572E-1  -9.458712927757518E-1  -1.766412499199063E-1   3.175832554306894E-3  -1.319215215665185E-1  
 4.065266316579145E9    -1.019835755442456E-2  -1.326120154832182E-1  -9.526551719676746E-1  -1.766707603110224E-1  -9.467248566780164E-1  -1.747567265197635E-1   4.420385021186669E-3  -1.299141237495499E-1  
 4.066016504126031E9    -7.100835439402611E-3  -1.325622885331740E-1  -9.526836454000290E-1  -1.738672158471048E-1  -9.478295484534420E-1  -1.737886500691176E-1   3.578487613721053E-3  -1.322001916797285E-1  
 4.066766691672918E9    -1.248956906943582E-2  -1.325476582104612E-1  -9.543000080924382E-1  -1.734386699007303E-1  -9.493594303975589E-1  -1.734025242575556E-1  -1.831389009860924E-3  -1.315997080029767E-1  
 4.067516879219805E9    -1.190215811683145E-2  -1.308440728510549E-1  -9.543712929080591E-1  -1.698294502801150E-1  -9.508814720147110E-1  -1.722780820926279E-1   4.136360004842610E-4  -1.310773034328338E-1  
 4.068267066766692E9    -1.091852844428551E-2  -1.280087385732269E-1  -9.554470177736496E-1  -1.675934098132254E-1  -9.516919514689790E-1  -1.709366124386937E-1   1.276914116041095E-3  -1.326803975398093E-1  
 4.069017254313579E9    -1.178065788940061E-2  -1.265283748613909E-1  -9.562988811734725E-1  -1.651537668562085E-1  -9.535866195863043E-1  -1.683520125802457E-1  -8.878526880176287E-4  -1.320707542860932E-1  
 4.069767441860465E9    -1.380553313065320E-2  -1.275990010301352E-1  -9.570198305872142E-1  -1.633638781285882E-1  -9.551607360499814E-1  -1.673128736036271E-1  -6.537378984813257E-4  -1.290210009379769E-1  
