#  HZ   S   RI   R     50.0 
! Rohde & Schwarz ZVL13 2Ports - Version 3.31 - 1303.6509k13 SN: 101088
! Date: 2023-03-06 14:57:42
! Data & Calibration Information:
! Trc4:S11(TOSM) Trc2:S21(TOSM) Trc3:S12(TOSM) Trc5:S22(TOSM)
! 
! 
! 
 4.000000000000000E9     8.922396610490978E-3  -1.337320976085426E-1  -8.971234783131882E-1  -3.349616896569730E-1  -9.036797980473493E-1  -3.132680303394795E-1   1.982981080748142E-2  -1.270207485736546E-1  
 4.000750187546887E9     8.482958859624339E-3  -1.327500656175879E-1  -8.964724292274610E-1  -3.355242232412101E-1  -9.036220677000085E-1  -3.154145260274410E-1   2.356096125002950E-2  -1.323703937698841E-1  
 4.001500375093773E9     8.911392066068948E-3  -1.290787335809146E-1  -8.971106187752115E-1  -3.341220201313497E-1  -9.028359744082225E-1  -3.151468488395215E-1   2.327034245170653E-2  -1.361341922970812E-1  
 4.002250562640660E9     6.177718326495960E-3  -1.305990190385303E-1  -8.977769455833767E-1  -3.327917075842620E-1  -9.016795108190431E-1  -3.143401722311974E-1   2.245381350573152E-2  -1.358173216671303E-1  
 4.003000750187547E9     8.822750642010943E-3  -1.283060995170542E-1  -8.999236541764695E-1  -3.323593629270792E-1  -9.017937291903133E-1  -3.132169898241758E-1   2.103489544522017E-2  -1.308903128850781E-1  
 4.003750937734434E9     4.913469854556023E-3  -1.277196637348881E-1  -9.015582710980086E-1  -3.327329556643964E-1  -9.002818179034151E-1  -3.139584905683995E-1   2.072401816397905E-2  -1.321886343215848E-1  
 4.004501125281320E9     6.386597741488367E-3  -1.253995964127873E-1  -9.037403105153861E-1  -3.305270483940840E-1  -9.021428906760489E-1  -3.132865896552801E-1   2.207431272193790E-2  -1.287969339542868E-1  
 4.005251312828207E9     7.321540470281616E-3  -1.249733624074450E-1  -9.043242615936533E-1  -3.300691172569990E-1  -9.023655113193181E-1  -3.134394890129567E-1   2.011284016519786E-2  -1.309409902570043E-1  
 4.006001500375094E9     5.586647142469882E-3  -1.241423921307159E-1  -9.056003461613003E-1  -3.283483230739832E-1  -9.016282863432937E-1  -3.117705494791270E-1   2.391253422945738E-2  -1.294575649937737E-1  
 4.006751687921980E9     6.455624832864850E-3  -1.233939931317485E-1  -9.065069517188614E-1  -3.261547819823027E-1  -9.016740802358136E-1  -3.111382456868887E-1   2.602949539180845E-2  -1.349207872374340E-1  
 4.007501875468867E9     3.204709808004554E-3  -1.223241787828476E-1  -9.088526711557601E-1  -3.246170262336731E-1  -9.040353927281157E-1  -3.106730904281140E-1   2.202656850442290E-2  -1.264687347553147E-1  
 4.008252063015754E9     3.645999827026390E-3  -1.220638572850371E-1  -9.088399852153040E-1  -3.231290453761817E-1  -9.037404682362201E-1  -3.104233995079995E-1   2.594690928906203E-2  -1.340645000067996E-1  
 4.009002250562641E9     7.110569779622896E-4  -1.236691462425764E-1  -9.098819443852051E-1  -3.222774400413038E-1  -9.032881705938791E-1  -3.100875819951297E-1   3.087324812933804E-2  -1.363659849436153E-1  
 4.009752438109528E9     6.807508906062141E-4  -1.232598598388508E-1  -9.117256824257398E-1  -3.214485972881318E-1  -9.049308262439249E-1  -3.100867983460426E-1   2.387680500783026E-2  -1.319872994667483E-1  
 4.010502625656414E9     1.746495655941544E-3  -1.221159035776732E-1  -9.140779134608562E-1  -3.186647277742625E-1  -9.052339664767413E-1  -3.092703636944293E-1   2.309793890565634E-2  -1.361817561041449E-1  
 4.011252813203301E9    -3.855988190298377E-4  -1.221789106094873E-1  -9.161757565937911E-1  -3.173658518493175E-1  -9.063538479736828E-1  -3.090673007786274E-1   2.059811543058604E-2  -1.293039579357764E-1  
 4.012003000750187E9    -2.201774772105274E-3  -1.230225764104365E-1  -9.153619525230438E-1  -3.159647996127606E-1  -9.062518119589759E-1  -3.082920077264310E-1   2.922622746415437E-2  -1.356660042479913E-1  
 4.012753188297074E9    -2.121833311300725E-3  -1.214022828041641E-1  -9.182353376940474E-1  -3.146134420990944E-1  -9.094687685095411E-1  -3.087793002992869E-1   2.007099548298866E-2  -1.374116694585770E-1  
 4.013503375843961E9    -2.344571851909859E-3  -1.211741656970442E-1  -9.194913933649312E-1  -3.125110067784787E-1  -9.089270086716443E-1  -3.078906950116157E-1   2.234619753342122E-2  -1.383333303923502E-1  
 4.014253563390848E9    -4.003908437909559E-3  -1.219926932105652E-1  -9.217360142372987E-1  -3.107715384334326E-1  -9.102229012635315E-1  -3.076434194654227E-1   1.797733760047704E-2  -1.347469144651144E-1  
 4.015003750937735E9    -5.471495025372135E-3  -1.226989960070182E-1  -9.207837405282511E-1  -3.117827833801508E-1  -9.123512679319203E-1  -3.071817605912686E-1   1.996262290775776E-2  -1.338856189821826E-1  
 4.015753938484621E9    -7.743429153878242E-3  -1.209573833556508E-1  -9.248841191022853E-1  -3.052131134033203E-1  -9.134017193404584E-1  -3.077300684928894E-1   1.520171130541713E-2  -1.314857080240605E-1  
 4.016504126031508E9    -8.930617432389409E-3  -1.223226139710255E-1  -9.258881024563628E-1  -3.033623466849327E-1  -9.138299332716461E-1  -3.072519691467285E-1   1.918404611349106E-2  -1.359119789770878E-1  
 4.017254313578394E9    -1.080592941772193E-2  -1.228904559742611E-1  -9.255537368320488E-1  -3.020953060328961E-1  -9.167699765999641E-1  -3.042454341471195E-1   2.001192984692753E-2  -1.341151148313856E-1  
 4.018004501125281E9    -1.222892958158627E-2  -1.206253482158180E-1  -9.273015707286152E-1  -3.007188696831465E-1  -9.171826398053773E-1  -3.045382494300605E-1   1.751045608446002E-2  -1.323486621689068E-1  
 4.018754688672168E9    -1.241533449357376E-2  -1.223745249333274E-1  -9.279499714743736E-1  -3.007313478320837E-1  -9.195270513942141E-1  -3.014411165773869E-1   1.563339495267719E-2  -1.368191642241937E-1  
 4.019504876219055E9    -1.646779571678490E-2  -1.211396115409922E-1  -9.302827563740961E-1  -2.967345122158528E-1  -9.219396472171662E-1  -2.985373928159477E-1   1.860297150481493E-2  -1.382195373478426E-1  
 4.020255063765942E9    -1.371576433423907E-2  -1.207792595798801E-1  -9.303619861576050E-1  -2.912913357436657E-1  -9.240859962495369E-1  -2.977239136546851E-1   1.256860602162779E-2  -1.354061845876272E-1  
 4.021005251312828E9    -1.662540865950287E-2  -1.221302910497549E-1  -9.321951585987461E-1  -2.900531725943089E-1  -9.244020721634568E-1  -2.986056467801334E-1   1.128837279463187E-2  -1.405093477434704E-1  
 4.021755438859715E9    -1.972882932499051E-2  -1.241836405922553E-1  -9.325545083915914E-1  -2.881543346554042E-1  -9.252513290896617E-1  -2.955908181518316E-1   1.399125524330885E-2  -1.347330786158145E-1  
 4.022505626406601E9    -1.780163554772734E-2  -1.248167789752940E-1  -9.327216188842119E-1  -2.857616529554129E-1  -9.272179693034043E-1  -2.944954465657473E-1   1.658158135470003E-2  -1.353494292249405E-1  
 4.023255813953488E9    -2.065898051373660E-2  -1.200288409659147E-1  -9.331985720787598E-1  -2.806240110963583E-1  -9.294559001256888E-1  -2.919504361480475E-1   1.302805908601731E-2  -1.339827859457396E-1  
 4.024006001500375E9    -2.072222108002753E-2  -1.231665480098167E-1  -9.332202216776153E-1  -2.801619865447284E-1  -9.313384104797410E-1  -2.892778511255980E-1   9.659918910451237E-3  -1.313715623477017E-1  
 4.024756189047262E9    -1.961574270781130E-2  -1.233405204411614E-1  -9.333775366997681E-1  -2.779170333653689E-1  -9.324880706854916E-1  -2.867112529844046E-1   1.304198917662725E-2  -1.295690315917973E-1  
 4.025506376594149E9    -2.217469659764320E-2  -1.255527679598897E-1  -9.337121112113130E-1  -2.742849618107081E-1  -9.341437921822350E-1  -2.841119560033082E-1   6.245752516901120E-3  -1.301397600752878E-1  
 4.026256564141035E9    -2.363444695230574E-2  -1.223033781718978E-1  -9.337429618458042E-1  -2.721160641163588E-1  -9.349121660457251E-1  -2.823982376515866E-1   1.287241393225268E-2  -1.298788111351099E-1  
 4.027006751687922E9    -2.323637451864779E-2  -1.237517079125591E-1  -9.341310092757331E-1  -2.702625306665897E-1  -9.369422453473688E-1  -2.801744060039521E-1   8.731227677967400E-3  -1.330855634106772E-1  
 4.027756939234809E9    -2.352838911451400E-2  -1.256128780885147E-1  -9.330338466449919E-1  -2.698701464682818E-1  -9.371191543886920E-1  -2.800043829172850E-1   9.269636394688861E-3  -1.315536243239052E-1  
 4.028507126781695E9    -2.637999733202160E-2  -1.257906497582812E-1  -9.333614127245418E-1  -2.671597717612982E-1  -9.379329806385394E-1  -2.775643058896065E-1   1.120857982710004E-2  -1.325326843408590E-1  
 4.029257314328582E9    -2.508602407425643E-2  -1.274434437345998E-1  -9.332860386113919E-1  -2.639182860255241E-1  -9.391043574601157E-1  -2.724356628179551E-1   1.107550042960793E-2  -1.309426489310152E-1  
 4.030007501875469E9    -2.421832240540535E-2  -1.279605842476232E-1  -9.342088319856916E-1  -2.604467310965061E-1  -9.402467789633392E-1  -2.693686054855585E-1   8.922213987819850E-3  -1.329069201647147E-1  
 4.030757689422356E9    -2.516627222709358E-2  -1.277553519065640E-1  -9.317800869124585E-1  -2.604315019577742E-1  -9.420809646113449E-1  -2.661996571630240E-1   4.409971037926153E-3  -1.309440085501420E-1  
 4.031507876969242E9    -2.289095605053008E-2  -1.285118915081616E-1  -9.322673916050888E-1  -2.579817829817535E-1  -9.406603670142452E-1  -2.639462075233460E-1   1.350418001776562E-2  -1.286430118044118E-1  
 4.032258064516129E9    -2.486871376186609E-2  -1.290007640089607E-1  -9.311523380002303E-1  -2.540592953979969E-1  -9.425024784956185E-1  -2.578493628859521E-1   6.647372603602709E-3  -1.293630906529807E-1  
 4.033008252063016E9    -2.420484651941806E-2  -1.313534225066596E-1  -9.308345541123900E-1  -2.539852440536022E-1  -9.419197594490925E-1  -2.580846479833126E-1   7.304179990431294E-3  -1.316846842958533E-1  
 4.033758439609902E9    -2.435517517682166E-2  -1.335100958216896E-1  -9.312492539210512E-1  -2.522394784718753E-1  -9.406770752355607E-1  -2.574960071444513E-1   6.966055693989621E-3  -1.282260321570979E-1  
 4.034508627156789E9    -2.296173812542111E-2  -1.341920572978741E-1  -9.301416728095561E-1  -2.499218593388796E-1  -9.409016536603909E-1  -2.543426481336356E-1   5.631433774344623E-3  -1.308516714015346E-1  
 4.035258814703676E9    -2.518093764334918E-2  -1.366360729245822E-1  -9.300247066009373E-1  -2.509328782558441E-1  -9.415801327710344E-1  -2.518287154674530E-1   9.913628684217111E-3  -1.296294592206566E-1  
 4.036009002250563E9    -2.188406052477659E-2  -1.376136186891243E-1  -9.294366750366317E-1  -2.503948133215309E-1  -9.421649382058325E-1  -2.494882180571556E-1   1.093943286743015E-2  -1.313016841967197E-1  
 4.036759189797450E9    -2.354372986741364E-2  -1.361874480114097E-1  -9.300534353315183E-1  -2.451921163231135E-1  -9.412669259240442E-1  -2.477008156374098E-1   8.885748563660312E-3  -1.285963517214572E-1  
 4.037509377344336E9    -2.316597327925265E-2  -1.375785676878942E-1  -9.278706949736463E-1  -2.458509894758463E-1  -9.412441610359887E-1  -2.437096970185637E-1   7.059759390354157E-3  -1.295110092756757E-1  
 4.038259564891223E9    -2.190113512836397E-2  -1.373897630535391E-1  -9.278021505504442E-1  -2.438600867226720E-1  -9.415528878132150E-1  -2.418688792601228E-1   5.506955077592284E-3  -1.348069211051219E-1  
 4.039009752438109E9    -2.185108340624720E-2  -1.408770922634445E-1  -9.272719650572577E-1  -2.431090656757355E-1  -9.408835615275267E-1  -2.402872969359160E-1   9.552916346956045E-3  -1.291339935163010E-1  
 4.039759939984996E9    -2.022652224190533E-2  -1.417293848766414E-1  -9.270786646550839E-1  -2.429609438851476E-1  -9.405859906668737E-1  -2.372041486695409E-1   9.135298947431149E-3  -1.314079057303285E-1  
 4.040510127531883E9    -2.179819215089083E-2  -1.412740416627019E-1  -9.268488864382424E-1  -2.411956952720881E-1  -9.398391182296428E-1  -2.338234040498734E-1   4.402442525792867E-3  -1.353429258931184E-1  
 4.041260315078770E9    -1.967766619399190E-2  -1.438227844550050E-1  -9.257626531778407E-1  -2.401591167762876E-1  -9.380997174674617E-1  -2.318649963766337E-1   2.133098970877472E-3  -1.309236211337952E-1  
 4.042010502625657E9    -2.102676433101296E-2  -1.444881807437010E-1  -9.255586742413655E-1  -2.384106239855290E-1  -9.388671345753170E-1  -2.299088549777866E-1   2.782205924927257E-3  -1.267977514767707E-1  
 4.042760690172543E9    -2.131050439756364E-2  -1.432851061362865E-1  -9.261692418784722E-1  -2.377841639831662E-1  -9.384960149628557E-1  -2.295457418292761E-1   1.330412875321054E-3  -1.333461111347531E-1  
 4.043510877719430E9    -2.114300442878157E-2  -1.431874849631251E-1  -9.265117060076142E-1  -2.373273917347193E-1  -9.367745814797320E-1  -2.267040479168296E-1   5.057751232199370E-3  -1.313349429894775E-1  
 4.044261065266316E9    -1.943798000793905E-2  -1.464504759414667E-1  -9.256094082438134E-1  -2.362826334193349E-1  -9.356300777554332E-1  -2.247479611605406E-1   3.150176796718734E-3  -1.269251455620772E-1  
 4.045011252813203E9    -2.037898194529117E-2  -1.452843715364830E-1  -9.249268697132175E-1  -2.357720466405153E-1  -9.350884746793002E-1  -2.235650871813298E-1   2.048368908930570E-3  -1.269110804837486E-1  
 4.045761440360090E9    -1.903136697821320E-2  -1.455258150691529E-1  -9.264984750679615E-1  -2.356711111634970E-1  -9.350830067299493E-1  -2.215631484925748E-1   4.507282166299411E-3  -1.253080210469081E-1  
 4.046511627906977E9    -1.870239357035608E-2  -1.467247348824725E-1  -9.250047518352519E-1  -2.338609105303884E-1  -9.343456032556099E-1  -2.205636852234602E-1  -4.781613477680365E-5  -1.293565025637791E-1  
 4.047261815453864E9    -1.818154121283442E-2  -1.476410335995884E-1  -9.262777534191659E-1  -2.343971999019385E-1  -9.333118083697285E-1  -2.192207494676114E-1   2.265656744159060E-3  -1.268570296034163E-1  
 4.048012003000750E9    -1.611790616288782E-2  -1.451259917600078E-1  -9.275986437147958E-1  -2.325658509418369E-1  -9.332833691061969E-1  -2.168415495574474E-1   6.308824997209014E-3  -1.272566303919503E-1  
 4.048762190547637E9    -1.675763578880578E-2  -1.478611105689160E-1  -9.267570817834104E-1  -2.324414317220449E-1  -9.312504525042608E-1  -2.167909533053637E-1  -8.913845762173880E-4  -1.270392114750975E-1  
 4.049512378094523E9    -1.823939313925803E-2  -1.461797573314456E-1  -9.266740930036782E-1  -2.308305466249586E-1  -9.305512614542663E-1  -2.152397912532092E-1   5.059309997200035E-3  -1.283364449824151E-1  
 4.050262565641410E9    -1.725697751818225E-2  -1.476672646764680E-1  -9.270807507618649E-1  -2.294956299364567E-1  -9.306803067331024E-1  -2.147510957881808E-1   3.668464637012221E-3  -1.268634129010863E-1  
 4.051012753188297E9    -1.614513899488375E-2  -1.473796865195101E-1  -9.285842070558872E-1  -2.290091316401959E-1  -9.316854168591467E-1  -2.140747353270650E-1   3.835854416573420E-3  -1.263311145612873E-1  
 4.051762940735184E9    -1.217010320378468E-2  -1.438472719097214E-1  -9.305135239173221E-1  -2.270531922653318E-1  -9.312938803083937E-1  -2.127787807717919E-1   4.192248487658800E-3  -1.233337006487936E-1  
 4.052513128282071E9    -1.501257720813156E-2  -1.448238772629985E-1  -9.302357050068155E-1  -2.273752262994647E-1  -9.293118427364819E-1  -2.131063307866455E-1  -1.065369359146280E-3  -1.264020882579667E-1  
 4.053263315828957E9    -1.037701336452738E-2  -1.457836751518336E-1  -9.304186719486457E-1  -2.250076712369919E-1  -9.299176688045735E-1  -2.110422830492258E-1   5.137813767045737E-3  -1.309052708839756E-1  
 4.054013503375844E9    -1.166516259815544E-2  -1.449337513898312E-1  -9.314290690611367E-1  -2.243851593405009E-1  -9.290780633936990E-1  -2.117900489419699E-1  -2.478088643599768E-3  -1.286076325856399E-1  
 4.054763690922730E9    -1.191416553333402E-2  -1.473660452892329E-1  -9.316889921306681E-1  -2.225804462164641E-1  -9.300493143920438E-1  -2.095525831878186E-1   3.279582621995360E-3  -1.272534108960870E-1  
 4.055513878469617E9    -9.348120876401663E-3  -1.438629235038148E-1  -9.328538143515279E-1  -2.231526420101524E-1  -9.300649212310752E-1  -2.091570622280240E-1   8.321861984790307E-4  -1.268531056612977E-1  
 4.056264066016504E9    -8.726326552731917E-3  -1.417284620368679E-1  -9.344579931518977E-1  -2.198841798633337E-1  -9.295710706500164E-1  -2.088345305815340E-1   4.403504619980231E-3  -1.299903964492295E-1  
 4.057014253563391E9    -5.736939712101596E-3  -1.428358728319824E-1  -9.352936291147442E-1  -2.183098848342896E-1  -9.305286579826321E-1  -2.065636885970831E-1   4.196763536799699E-3  -1.289342169702164E-1  
 4.057764441110278E9    -4.231675554881805E-3  -1.408410161366425E-1  -9.358339608672907E-1  -2.157890608102084E-1  -9.311524596925882E-1  -2.073168741792441E-1  -8.027464913786391E-4  -1.285070670867638E-1  
 4.058514628657164E9    -6.389066571881996E-3  -1.417216138641579E-1  -9.368583271516934E-1  -2.158574264273048E-1  -9.310551371720064E-1  -2.055722285330296E-1   3.711272112792359E-3  -1.266728785735712E-1  
 4.059264816204051E9    -5.560833739722149E-3  -1.402303256497993E-1  -9.383067793831648E-1  -2.147256744116545E-1  -9.323801530119317E-1  -2.052995233967900E-1   4.182956594973803E-3  -1.267689829896598E-1  
 4.060015003750938E9    -3.242745043546894E-3  -1.390241245444313E-1  -9.381947176069309E-1  -2.127422194600106E-1  -9.324143105187991E-1  -2.045476682960987E-1   2.901023135182914E-3  -1.286848348525838E-1  
 4.060765191297824E9    -3.277032201527618E-3  -1.377250514502479E-1  -9.396599626149587E-1  -2.103725050687791E-1  -9.334484967947645E-1  -2.042272533118725E-1   8.161962429367122E-4  -1.286569991713754E-1  
 4.061515378844711E9    -4.907290326012300E-3  -1.383511934565812E-1  -9.395677205202849E-1  -2.108518640488387E-1  -9.341977911750194E-1  -2.042361104235053E-1   2.527263130678330E-3  -1.310209259588016E-1  
 4.062265566391598E9    -2.792763629858383E-3  -1.361274369139917E-1  -9.417786820320981E-1  -2.080654381573200E-1  -9.349417449185495E-1  -2.036614103615284E-1   1.536195368308108E-3  -1.296948999964936E-1  
 4.063015753938485E9    -3.298999902326613E-3  -1.346629997331198E-1  -9.430720535244701E-1  -2.053252151414753E-1  -9.359508565352052E-1  -2.019331924378872E-1   4.891822658828460E-3  -1.287357495415726E-1  
 4.063765941485371E9    -6.130956357717515E-3  -1.337532086120098E-1  -9.435625686087472E-1  -2.037892572745681E-1  -9.378712443039622E-1  -1.991242119804025E-1   8.860949584841729E-3  -1.273382073656726E-1  
 4.064516129032258E9    -5.396855440689252E-3  -1.315840378562268E-1  -9.446101648312585E-1  -2.018178746804595E-1  -9.382711656231604E-1  -1.998002944454551E-1   6.016867222404109E-3  -1.303587702868158E-1  
 4.065266316579145E9    -4.909647042560392E-3  -1.316714203592584E-1  -9.458821435097240E-1  -1.997809937804937E-1  -9.394944263511950E-1  -1.981730649411678E-1   6.969699050858618E-3  -1.285380884415181E-1  
 4.066016504126031E9    -1.994849250942935E-3  -1.319054339107708E-1  -9.457538565822540E-1  -1.971766451299191E-1  -9.405449167558726E-1  -1.970354554921389E-1   6.254537142952905E-3  -1.310635491818225E-1  
 4.066766691672918E9    -7.391499164793641E-3  -1.313371374772253E-1  -9.476485399124454E-1  -1.966143181830645E-1  -9.420003995504391E-1  -1.972741087764502E-1   5.536042262960110E-4  -1.309312601506993E-1  
 4.067516879219805E9    -6.567301010200755E-3  -1.299912589424494E-1  -9.477974426735651E-1  -1.933018625929952E-1  -9.438054098755012E-1  -1.961518156006933E-1   2.979724722902756E-3  -1.289849615278935E-1  
 4.068267066766692E9    -5.451068438962102E-3  -1.268514240193091E-1  -9.486681884051320E-1  -1.916745329454542E-1  -9.443868344235440E-1  -1.945863182514906E-1   4.005949909042102E-3  -1.315925334294777E-1  
 4.069017254313579E9    -6.487509954208510E-3  -1.247585822232471E-1  -9.495144498935437E-1  -1.891008594378829E-1  -9.463697199184662E-1  -1.917492765322328E-1   2.805327051936184E-3  -1.316799988992920E-1  
 4.069767441860465E9    -7.804709062119948E-3  -1.259856433206110E-1  -9.503712206474164E-1  -1.875579524174333E-1  -9.477651896989401E-1  -1.907573848038912E-1   3.663227524212562E-3  -1.278596247741614E-1  
