#  HZ   S   RI   R     50.0 
! Rohde & Schwarz ZVL13 2Ports - Version 3.31 - 1303.6509k13 SN: 101088
! Date: 2023-03-06 15:09:53
! Data & Calibration Information:
! Trc4:S11(TOSM) Trc2:S21(TOSM) Trc3:S12(TOSM) Trc5:S22(TOSM)
! 
! 
! 
 4.000000000000000E9     4.647337966598571E-3  -1.336836936816515E-1  -9.048185480784334E-1  -3.192630106210708E-1  -9.108275668274145E-1  -2.977338865399361E-1   1.938938954845071E-2  -1.281073463863401E-1  
 4.000750187546887E9     4.153666112106294E-3  -1.325105463569851E-1  -9.043688755921792E-1  -3.200882691144943E-1  -9.109999518547047E-1  -2.997937664389611E-1   2.265613937750459E-2  -1.328045417152730E-1  
 4.001500375093773E9     4.181213055271656E-3  -1.292438559554187E-1  -9.054017289188547E-1  -3.178749501705170E-1  -9.102239793907645E-1  -2.996682924032211E-1   2.261316349729895E-2  -1.359981637836664E-1  
 4.002250562640660E9     2.146767337690108E-3  -1.308538720159713E-1  -9.056246612115750E-1  -3.169996297359467E-1  -9.093685428112377E-1  -2.988029992580414E-1   2.266649022698403E-2  -1.355077267019039E-1  
 4.003000750187547E9     4.592343701515347E-3  -1.288384223149406E-1  -9.079654782180471E-1  -3.165809285640717E-1  -9.093872944303058E-1  -2.978688418865204E-1   2.089435238391161E-2  -1.298980893022049E-1  
 4.003750937734434E9     9.742380930401853E-4  -1.281384900944018E-1  -9.096961982341444E-1  -3.163762748241425E-1  -9.078376040321216E-1  -2.984501674771309E-1   2.082449976354838E-2  -1.319854307041646E-1  
 4.004501125281320E9     2.466704306425527E-3  -1.255908808660630E-1  -9.115141186097739E-1  -3.144122096896171E-1  -9.101056812614552E-1  -2.976352727413177E-1   2.143614977598191E-2  -1.286958314227802E-1  
 4.005251312828207E9     3.618996415752918E-3  -1.258362821301833E-1  -9.123661961873429E-1  -3.139277371764183E-1  -9.101227112695205E-1  -2.977578034996987E-1   1.868675960227847E-2  -1.303306544006448E-1  
 4.006001500375094E9     1.699636956618633E-3  -1.246613538412517E-1  -9.135353020131161E-1  -3.121449732780457E-1  -9.093621501035157E-1  -2.958641165494918E-1   2.317946141585708E-2  -1.296596869396953E-1  
 4.006751687921980E9     2.948622710537166E-3  -1.244137530378311E-1  -9.145388303188915E-1  -3.103249508142472E-1  -9.094163345088221E-1  -2.950035461783409E-1   2.418452525511385E-2  -1.337758063915037E-1  
 4.007501875468867E9    -4.430361705635734E-4  -1.229812598296121E-1  -9.170913455640636E-1  -3.088367137312889E-1  -9.118445714158588E-1  -2.951488244533538E-1   1.990215685218573E-2  -1.265078671756849E-1  
 4.008252063015754E9     4.290426895022392E-4  -1.232193612822945E-1  -9.174151448427593E-1  -3.065975916385651E-1  -9.118265067278808E-1  -2.947642815113068E-1   2.415076747536659E-2  -1.327487728739002E-1  
 4.009002250562641E9    -2.705656216712669E-3  -1.246711616430280E-1  -9.179295121984654E-1  -3.063608202338219E-1  -9.109434061761010E-1  -2.943218350410462E-1   2.732396878302098E-2  -1.361805133886172E-1  
 4.009752438109528E9    -2.689976913388819E-3  -1.245297800605723E-1  -9.197732371085589E-1  -3.055372500419617E-1  -9.128480093090481E-1  -2.943265885114670E-1   2.123478358611465E-2  -1.322817373296416E-1  
 4.010502625656414E9    -1.724352022283711E-3  -1.233355977470191E-1  -9.219844512443509E-1  -3.023619541525842E-1  -9.127423852136658E-1  -2.937573668360711E-1   1.947361933067441E-2  -1.362746734011571E-1  
 4.011252813203301E9    -3.151588619221002E-3  -1.237271221744587E-1  -9.244019163312565E-1  -3.008728903532028E-1  -9.139485832431461E-1  -2.933847525715829E-1   1.714497264474631E-2  -1.288230764956035E-1  
 4.012003000750187E9    -4.925337699241937E-3  -1.245346685031437E-1  -9.234735896984258E-1  -2.996500992774963E-1  -9.143232656750030E-1  -2.925596830248833E-1   2.631838092580438E-2  -1.357934889520150E-1  
 4.012753188297074E9    -4.612173668574543E-3  -1.229045761344239E-1  -9.259320124251457E-1  -2.981911399960518E-1  -9.170827752344538E-1  -2.932858765125275E-1   1.647389722056687E-2  -1.369744996413573E-1  
 4.013503375843961E9    -4.960205974057316E-3  -1.227510818240111E-1  -9.272051347863511E-1  -2.955970925092698E-1  -9.170138524996838E-1  -2.916218426823616E-1   1.824128413572907E-2  -1.383236863911802E-1  
 4.014253563390848E9    -6.144087957218290E-3  -1.239139351642039E-1  -9.298485659831842E-1  -2.940829312801361E-1  -9.184441470043148E-1  -2.917584896087647E-1   1.359668446704745E-2  -1.331685276416046E-1  
 4.015003750937735E9    -7.169561614282429E-3  -1.245732924768822E-1  -9.284710122736954E-1  -2.954868865013123E-1  -9.201474624921840E-1  -2.915591529011727E-1   1.629553960636258E-2  -1.335055356264241E-1  
 4.015753938484621E9    -9.936992041766643E-3  -1.225626474273443E-1  -9.328671106216463E-1  -2.882974338531494E-1  -9.214922974616476E-1  -2.914265307784081E-1   1.033950114622713E-2  -1.311119340009722E-1  
 4.016504126031508E9    -1.097974319010973E-2  -1.240869545097930E-1  -9.338035744601720E-1  -2.860294908285141E-1  -9.220775551205257E-1  -2.908950090408325E-1   1.392081905156374E-2  -1.357359329190428E-1  
 4.017254313578394E9    -1.210471587255597E-2  -1.248705564279333E-1  -9.330365676035541E-1  -2.853330549597741E-1  -9.244860795574212E-1  -2.882651165127755E-1   1.443065861240029E-2  -1.332467459078869E-1  
 4.018004501125281E9    -1.343717536889017E-2  -1.228257777209623E-1  -9.348130431456233E-1  -2.839892214536667E-1  -9.252221879305234E-1  -2.886357304453850E-1   1.230723216198385E-2  -1.326432713761282E-1  
 4.018754688672168E9    -1.360203947871923E-2  -1.249831963697172E-1  -9.356739332134357E-1  -2.830268889665604E-1  -9.274127395097140E-1  -2.858956858515740E-1   1.023863714188337E-2  -1.372994146731704E-1  
 4.019504876219055E9    -1.767135972157121E-2  -1.229424927581378E-1  -9.382540448695552E-1  -2.790972128510475E-1  -9.298300572882968E-1  -2.822805958986283E-1   1.220137420110405E-2  -1.383378196942066E-1  
 4.020255063765942E9    -1.471452919766307E-2  -1.231685218645498E-1  -9.377711735748866E-1  -2.745072674751282E-1  -9.316963981971851E-1  -2.818402135372162E-1   7.442295211367310E-3  -1.352862650528457E-1  
 4.021005251312828E9    -1.701490918174386E-2  -1.245115733363540E-1  -9.393717276152687E-1  -2.730471357703209E-1  -9.323242838377848E-1  -2.824615550041199E-1   5.312460006680340E-3  -1.412567987469804E-1  
 4.021755438859715E9    -2.058046633377672E-2  -1.263359637658962E-1  -9.398373937852916E-1  -2.710368263721467E-1  -9.331911421182791E-1  -2.794054323434831E-1   7.395649966783823E-3  -1.346103752831203E-1  
 4.022505626406601E9    -1.808974366635084E-2  -1.269949164425233E-1  -9.397727631955466E-1  -2.679099664092065E-1  -9.354314462537348E-1  -2.766617372632027E-1   1.042840738780797E-2  -1.351649225306622E-1  
 4.023255813953488E9    -2.055803542956710E-2  -1.218168659778781E-1  -9.401402890447530E-1  -2.642563885450363E-1  -9.376139899696514E-1  -2.747256082296372E-1   6.676570116542280E-3  -1.344496702594127E-1  
 4.024006001500375E9    -2.104384634643793E-2  -1.249555262556257E-1  -9.401841797236474E-1  -2.632852298021317E-1  -9.390362753188690E-1  -2.726696795225144E-1   4.815774590242654E-3  -1.316348066737934E-1  
 4.024756189047262E9    -1.955661222338677E-2  -1.257292884272472E-1  -9.401993903055733E-1  -2.607656845450402E-1  -9.401543863527315E-1  -2.696611094474792E-1   6.809948896989227E-3  -1.300544316017999E-1  
 4.025506376594149E9    -2.130636163055897E-2  -1.274428022995726E-1  -9.408312447650683E-1  -2.563960108160973E-1  -9.421140965504992E-1  -2.671641764044762E-1  -2.147597818111535E-4  -1.312189803649627E-1  
 4.026256564141035E9    -2.384498091414572E-2  -1.252383742871018E-1  -9.404810910135589E-1  -2.555728399753571E-1  -9.419927083851608E-1  -2.661268997192383E-1   7.400146848522127E-3  -1.307228510411126E-1  
 4.027006751687922E9    -2.273842763155699E-2  -1.259710145297052E-1  -9.410329875848166E-1  -2.523626117408276E-1  -9.444297923952570E-1  -2.632862606644630E-1   2.698690864490344E-3  -1.341061192047310E-1  
 4.027756939234809E9    -2.306025547906756E-2  -1.273675501417836E-1  -9.397929297624503E-1  -2.527200931310654E-1  -9.445039094295799E-1  -2.621540480852128E-1   3.742704323958606E-3  -1.324121380563157E-1  
 4.028507126781695E9    -2.638290163129568E-2  -1.277336573077661E-1  -9.397734022522079E-1  -2.508999174833298E-1  -9.451442573670703E-1  -2.602822989225387E-1   5.832684561610221E-3  -1.339337227477334E-1  
 4.029257314328582E9    -2.437192972749472E-2  -1.295284214066796E-1  -9.398572813136765E-1  -2.470554453134537E-1  -9.463375327203981E-1  -2.546960723400116E-1   4.816984257195144E-3  -1.322243653623738E-1  
 4.030007501875469E9    -2.321607073768974E-2  -1.299358787942716E-1  -9.408576075047519E-1  -2.429236094653607E-1  -9.475852034960719E-1  -2.521126213669777E-1   2.726031699567103E-3  -1.356694790543634E-1  
 4.030757689422356E9    -2.466580700129271E-2  -1.296097476482996E-1  -9.379566751411728E-1  -2.438036169111729E-1  -9.491068633225301E-1  -2.483808985352516E-1  -1.680975324416068E-3  -1.320726479931135E-1  
 4.031507876969242E9    -2.243774397298694E-2  -1.304701846399355E-1  -9.387293038138039E-1  -2.405492241680622E-1  -9.479367296359981E-1  -2.470842577517033E-1   7.278888486325742E-3  -1.311762706299877E-1  
 4.032258064516129E9    -2.423936208710074E-2  -1.306897406391274E-1  -9.374917421635010E-1  -2.361793169379235E-1  -9.494894304650410E-1  -2.404798091948033E-1   9.542768372921273E-4  -1.314085860801258E-1  
 4.033008252063016E9    -2.403720390051604E-2  -1.331735976876053E-1  -9.369774832621659E-1  -2.376267211139203E-1  -9.488813775708802E-1  -2.402679491043091E-1   1.629494666703977E-3  -1.345635093365068E-1  
 4.033758439609902E9    -2.414442984387279E-2  -1.357825225086425E-1  -9.372695254595049E-1  -2.354208315908909E-1  -9.477542661389997E-1  -2.400268191099167E-1   2.143441592925229E-3  -1.306408344877791E-1  
 4.034508627156789E9    -2.283410597592592E-2  -1.360860649692163E-1  -9.362590482039239E-1  -2.334316925704479E-1  -9.477387500083626E-1  -2.366099521517754E-1  -9.929011321219149E-6  -1.333914516749220E-1  
 4.035258814703676E9    -2.505887664854527E-2  -1.377906293482775E-1  -9.361047224925614E-1  -2.341785915195942E-1  -9.485064224556247E-1  -2.341575129330158E-1   4.058327292441391E-3  -1.321335787796414E-1  
 4.036009002250563E9    -2.187912344932556E-2  -1.389669359474602E-1  -9.353766063165752E-1  -2.345161347091198E-1  -9.489185721808121E-1  -2.315603670477867E-1   5.709701892919839E-3  -1.345340742573965E-1  
 4.036759189797450E9    -2.327640561386943E-2  -1.380056766960021E-1  -9.360000814593712E-1  -2.290377362072468E-1  -9.478165982889213E-1  -2.302372413873673E-1   2.896622440312058E-3  -1.316553309537868E-1  
 4.037509377344336E9    -2.327117186039687E-2  -1.384532122963656E-1  -9.338700949358489E-1  -2.291127160191536E-1  -9.472905582641331E-1  -2.255643293261528E-1   2.315970712006675E-3  -1.312379502561027E-1  
 4.038259564891223E9    -2.176934905350209E-2  -1.387751081406635E-1  -9.338956796075638E-1  -2.272822533547879E-1  -9.480734912293165E-1  -2.241478224098683E-1   1.132343999570367E-3  -1.378055742817237E-1  
 4.039009752438109E9    -2.163071343675256E-2  -1.419481697510776E-1  -9.328235883594432E-1  -2.268303254246712E-1  -9.474075981213300E-1  -2.229081536829472E-1   5.377184026874603E-3  -1.327421022374266E-1  
 4.039759939984996E9    -2.041664207354188E-2  -1.428033685966791E-1  -9.332349018066325E-1  -2.264458552002907E-1  -9.469409977722232E-1  -2.196280565857887E-1   4.639202915132046E-3  -1.341006018734564E-1  
 4.040510127531883E9    -2.211524946615100E-2  -1.420852619129825E-1  -9.324552243613959E-1  -2.247929409146309E-1  -9.460848419143983E-1  -2.163347904384136E-1   3.872557439171942E-4  -1.376212696446131E-1  
 4.041260315078770E9    -2.003069814294577E-2  -1.447617263632431E-1  -9.317461666485669E-1  -2.234237526357174E-1  -9.444668871429390E-1  -2.144557930529118E-1  -1.720819841866615E-3  -1.343264968014349E-1  
 4.042010502625657E9    -2.157337306067348E-2  -1.443698674454183E-1  -9.313848955168537E-1  -2.218999798595905E-1  -9.449661484302948E-1  -2.129551160335541E-1  -1.841347273148131E-4  -1.303688384598292E-1  
 4.042760690172543E9    -2.169505722820759E-2  -1.439414453382007E-1  -9.321510781932749E-1  -2.215967966616154E-1  -9.444737076579109E-1  -2.123837065696717E-1  -1.799635753559415E-3  -1.358876822432720E-1  
 4.043510877719430E9    -2.191600514575839E-2  -1.437073137711809E-1  -9.323498537987848E-1  -2.211674827337265E-1  -9.427827697112773E-1  -2.098013147711754E-1   9.648486638616307E-4  -1.336557395975969E-1  
 4.044261065266316E9    -2.046731747686863E-2  -1.466810664880791E-1  -9.313614469829590E-1  -2.196841682493687E-1  -9.419374585615056E-1  -2.080250032246113E-1  -6.548766414925923E-4  -1.304446583910937E-1  
 4.045011252813203E9    -2.174891263246536E-2  -1.452992266462252E-1  -9.309918968041848E-1  -2.190838274359703E-1  -9.409483591941055E-1  -2.063467696309090E-1  -1.203578549029771E-3  -1.296642959005827E-1  
 4.045761440360090E9    -2.079614970833063E-2  -1.450985876026435E-1  -9.327634244541530E-1  -2.188937656581402E-1  -9.411105237633477E-1  -2.041679082810879E-1   2.032695067391615E-3  -1.280219970824824E-1  
 4.046511627906977E9    -2.029527509585023E-2  -1.465207900588761E-1  -9.308777004272756E-1  -2.178985694050789E-1  -9.402355621097240E-1  -2.037150914967061E-1  -2.171346490213182E-3  -1.318716559983030E-1  
 4.047261815453864E9    -1.998246902599931E-2  -1.476144525460076E-1  -9.321059209041569E-1  -2.181049223244191E-1  -9.390564659347496E-1  -2.023624667525292E-1   2.350694342749194E-4  -1.297614257863503E-1  
 4.048012003000750E9    -1.790700247511268E-2  -1.452736215274860E-1  -9.333910379237176E-1  -2.158543404936791E-1  -9.393038527431503E-1  -1.998545591533184E-1   4.508240821305665E-3  -1.307771740210152E-1  
 4.048762190547637E9    -1.865277098491788E-2  -1.479329178564926E-1  -9.326588046671797E-1  -2.164422535896301E-1  -9.371101031185345E-1  -2.002908445894718E-1  -2.137319324538112E-3  -1.290286684384619E-1  
 4.049512378094523E9    -2.097548494115472E-2  -1.460593820231955E-1  -9.327995047816874E-1  -2.138591599464416E-1  -9.361960563475660E-1  -1.981718041002750E-1   3.547114136163145E-3  -1.318747389468349E-1  
 4.050262565641410E9    -2.005671389400959E-2  -1.467816973410759E-1  -9.334850436532907E-1  -2.130409030616284E-1  -9.367457503048975E-1  -1.981430970132351E-1   2.294898717082106E-3  -1.285042762919067E-1  
 4.051012753188297E9    -1.861426079645753E-2  -1.467086092340841E-1  -9.345696824906873E-1  -2.125186060369015E-1  -9.377647400525448E-1  -1.975104723870754E-1   1.989632536678982E-3  -1.283648665678899E-1  
 4.051762940735184E9    -1.537030600942672E-2  -1.427677254619796E-1  -9.363470594753915E-1  -2.101688887178898E-1  -9.371112282776570E-1  -1.959196132421494E-1   3.107569591375068E-3  -1.258103145061336E-1  
 4.052513128282071E9    -1.825190547853709E-2  -1.438057151547253E-1  -9.362544462284472E-1  -2.110115195810795E-1  -9.354322355105462E-1  -1.966908168792725E-1  -1.946049837206374E-3  -1.284997383829832E-1  
 4.053263315828957E9    -1.352793149650097E-2  -1.449579548264201E-1  -9.362435183564666E-1  -2.085615979135036E-1  -9.360338655913265E-1  -1.942851053178311E-1   3.843405887018889E-3  -1.330997913707548E-1  
 4.054013503375844E9    -1.467098079621792E-2  -1.439552108234492E-1  -9.375638718309138E-1  -2.078650750219822E-1  -9.349971256676593E-1  -1.950648871064186E-1  -3.584045601310208E-3  -1.306706830536631E-1  
 4.054763690922730E9    -1.513588106259704E-2  -1.462855662013778E-1  -9.374639171393802E-1  -2.062998127937317E-1  -9.359156727673201E-1  -1.934488001465798E-1   2.458954148460180E-3  -1.288421124419854E-1  
 4.055513878469617E9    -1.327243107371033E-2  -1.432103625538639E-1  -9.386965526954807E-1  -2.063871964812279E-1  -9.362068049715565E-1  -1.922101323306560E-1   3.944170931208648E-4  -1.289115671482428E-1  
 4.056264066016504E9    -1.247349396348000E-2  -1.413393605404314E-1  -9.404519312119350E-1  -2.033528947830201E-1  -9.356349022387165E-1  -1.922054389119148E-1   3.380523218074814E-3  -1.319194029868887E-1  
 4.057014253563391E9    -9.438082529231909E-3  -1.418136312887912E-1  -9.415650341241677E-1  -2.015451106429101E-1  -9.367843203462644E-1  -1.900301757454873E-1   4.003717732848600E-3  -1.294227625372876E-1  
 4.057764441110278E9    -8.342839851975439E-3  -1.399744404083423E-1  -9.416168654896001E-1  -1.993669085204601E-1  -9.377258915379931E-1  -1.904308564960957E-1  -4.222840952570551E-4  -1.291375875296761E-1  
 4.058514628657164E9    -1.006138590164483E-2  -1.407147023319356E-1  -9.430377076649480E-1  -1.991794231534004E-1  -9.372658157431528E-1  -1.890348997712136E-1   3.426811422687024E-3  -1.275581233697281E-1  
 4.059264816204051E9    -9.819687251001597E-3  -1.392946475995249E-1  -9.442723654050284E-1  -1.976894521713257E-1  -9.386369300161246E-1  -1.883887666463852E-1   4.249490051297471E-3  -1.275566658541877E-1  
 4.060015003750938E9    -8.120919698849319E-3  -1.387119009111697E-1  -9.438890354832974E-1  -1.959539511799813E-1  -9.387773140287850E-1  -1.881047649681568E-1   2.817608544137329E-3  -1.295952705891500E-1  
 4.060765191297824E9    -8.154762978665530E-3  -1.368428769105446E-1  -9.453274758833724E-1  -1.931840239465237E-1  -9.398494706241494E-1  -1.867179045081139E-1   4.244181083504373E-4  -1.294497152356159E-1  
 4.061515378844711E9    -9.701551403850317E-3  -1.377556406490728E-1  -9.457634885448425E-1  -1.935910455882549E-1  -9.405921494737468E-1  -1.880547176301480E-1   3.032297081954312E-3  -1.313671162977084E-1  
 4.062265566391598E9    -7.080327533185484E-3  -1.357262884534508E-1  -9.474140110402922E-1  -1.906751984357834E-1  -9.413028925164471E-1  -1.869793295860291E-1   1.457874978950713E-3  -1.308474308769475E-1  
 4.063015753938485E9    -7.751745255663992E-3  -1.336454898581279E-1  -9.493743526280345E-1  -1.877891951799393E-1  -9.423194605888720E-1  -1.852256266772747E-1   4.397818117868155E-3  -1.284044081334959E-1  
 4.063765941485371E9    -1.049454639665783E-2  -1.333758089454054E-1  -9.495737205629903E-1  -1.856428670883179E-1  -9.437431163204111E-1  -1.827406954765320E-1   8.998716901987790E-3  -1.272830592996792E-1  
 4.064516129032258E9    -1.026114036329091E-2  -1.313596012429572E-1  -9.503636421837879E-1  -1.844471766054631E-1  -9.445944452869682E-1  -1.825317884981633E-1   6.082658888772130E-3  -1.305168677957783E-1  
 4.065266316579145E9    -9.558016750961542E-3  -1.308277511549222E-1  -9.515796365425616E-1  -1.827298371493817E-1  -9.457690673870943E-1  -1.810615400969982E-1   6.601218907162549E-3  -1.284708010071386E-1  
 4.066016504126031E9    -6.382835600525140E-3  -1.316907859761454E-1  -9.515543772409320E-1  -1.799949972331524E-1  -9.468810941931012E-1  -1.799013090133667E-1   6.264707637019457E-3  -1.305646189881588E-1  
 4.066766691672918E9    -1.222690484486520E-2  -1.311675520673798E-1  -9.531769308644031E-1  -1.798166242241860E-1  -9.484771742677564E-1  -1.798080544173717E-1   8.167187945218760E-5  -1.297305375930597E-1  
 4.067516879219805E9    -1.110887935385108E-2  -1.298239710147118E-1  -9.536606226475202E-1  -1.757184404134751E-1  -9.501206322625638E-1  -1.781934861838818E-1   2.328546086209827E-3  -1.291496028566328E-1  
 4.068267066766692E9    -1.011446683667600E-2  -1.262800385794343E-1  -9.543823214147184E-1  -1.740692326426507E-1  -9.504756785193422E-1  -1.771009999513626E-1   3.087859196821228E-3  -1.309675787982916E-1  
 4.069017254313579E9    -1.134467287920416E-2  -1.248479337746736E-1  -9.555157359438539E-1  -1.715834851562977E-1  -9.526975336967998E-1  -1.749096100032330E-1   8.476554174558260E-4  -1.305913228087936E-1  
 4.069767441860465E9    -1.283197974786163E-2  -1.263194129318019E-1  -9.560104380816031E-1  -1.694142885506154E-1  -9.541403360907171E-1  -1.733005674183369E-1   2.384042197663802E-3  -1.262444836922080E-1  
