#  HZ   S   RI   R     50.0 
! Rohde & Schwarz ZVL13 2Ports - Version 3.31 - 1303.6509k13 SN: 101088
! Date: 2023-03-06 15:08:48
! Data & Calibration Information:
! Trc4:S11(TOSM) Trc2:S21(TOSM) Trc3:S12(TOSM) Trc5:S22(TOSM)
! 
! 
! 
 4.000000000000000E9     3.981519481234718E-3  -1.339777893653643E-1  -9.058821112496203E-1  -3.164196435195207E-1  -9.114667677037398E-1  -2.954415080425144E-1   1.880881609953940E-2  -1.274986271509230E-1  
 4.000750187546887E9     3.789932708686683E-3  -1.324417382125474E-1  -9.047811317349254E-1  -3.177553262639046E-1  -9.113800792809066E-1  -2.977038271704317E-1   2.199594026260078E-2  -1.329489560457150E-1  
 4.001500375093773E9     4.035715565390419E-3  -1.290982190290106E-1  -9.060386964226510E-1  -3.160858639737964E-1  -9.106133469880577E-1  -2.975167317417264E-1   2.143587686415762E-2  -1.357789347075682E-1  
 4.002250562640660E9     2.114824568553595E-3  -1.305370357791541E-1  -9.063788348505391E-1  -3.150725052329899E-1  -9.098406726994414E-1  -2.969254058125616E-1   2.199744193298743E-2  -1.355887475349444E-1  
 4.003000750187547E9     4.420384249445051E-3  -1.289387847971053E-1  -9.086341217347619E-1  -3.143688653931022E-1  -9.099887464294875E-1  -2.953979625982047E-1   2.043924168173224E-2  -1.304626821028442E-1  
 4.003750937734434E9     4.215447364770080E-4  -1.277881887253329E-1  -9.101799048377542E-1  -3.144030351555348E-1  -9.085129766971134E-1  -2.960402000680567E-1   1.922585149755702E-2  -1.313191574395300E-1  
 4.004501125281320E9     2.097446836974705E-3  -1.257772541664580E-1  -9.119413678716384E-1  -3.125136683839560E-1  -9.107186422802001E-1  -2.953928910732270E-1   2.157963926713914E-2  -1.288124214671156E-1  
 4.005251312828207E9     3.301750912623248E-3  -1.254890786963462E-1  -9.132126293266760E-1  -3.117969861376285E-1  -9.107181361191613E-1  -2.955433052363992E-1   1.790947444623336E-2  -1.302468755419485E-1  
 4.006001500375094E9     1.521167058083957E-3  -1.245329680303612E-1  -9.142266871037921E-1  -3.100776041853428E-1  -9.099207180706875E-1  -2.935300438860059E-1   2.279698973974213E-2  -1.299256218219183E-1  
 4.006751687921980E9     2.566472029158613E-3  -1.242443872483855E-1  -9.150109523406984E-1  -3.080785186955334E-1  -9.096328206071254E-1  -2.933591655936838E-1   2.357146769052372E-2  -1.346533590745037E-1  
 4.007501875468867E9    -5.598965281467128E-4  -1.234688641971036E-1  -9.177135986901608E-1  -3.065840523436665E-1  -9.122902761063600E-1  -2.929741038107873E-1   1.949730986842886E-2  -1.263013961609205E-1  
 4.008252063015754E9     5.697443046770787E-4  -1.234466471013912E-1  -9.178432949457238E-1  -3.046017109164596E-1  -9.118269564196783E-1  -2.928022486039997E-1   2.298441088868305E-2  -1.331987836837111E-1  
 4.009002250562641E9    -2.458380930990679E-3  -1.247739744641622E-1  -9.183441769209153E-1  -3.039572739201785E-1  -9.113181017251105E-1  -2.922047315996885E-1   2.846014375790954E-2  -1.366453992061694E-1  
 4.009752438109528E9    -3.192431654938265E-3  -1.250323425468310E-1  -9.205606515685105E-1  -3.028288760104775E-1  -9.132340171977739E-1  -2.924196323585511E-1   2.044335529364645E-2  -1.321122016495717E-1  
 4.010502625656414E9    -1.448739168992907E-3  -1.236583177481663E-1  -9.231318491770773E-1  -3.001967101955414E-1  -9.133448079662871E-1  -2.916668259832263E-1   1.855086918499321E-2  -1.354670453023295E-1  
 4.011252813203301E9    -3.109205464575208E-3  -1.238528224970683E-1  -9.250035564623816E-1  -2.985616315671802E-1  -9.146752502667850E-1  -2.912173592582346E-1   1.690200996073895E-2  -1.294069243684882E-1  
 4.012003000750187E9    -5.009328405563719E-3  -1.245073865794832E-1  -9.241809943025447E-1  -2.972341552487017E-1  -9.146166137124510E-1  -2.908274862322212E-1   2.537518283901737E-2  -1.358963789705686E-1  
 4.012753188297074E9    -5.165487729567105E-3  -1.233594110924718E-1  -9.267473575413123E-1  -2.957653595340252E-1  -9.175882235660674E-1  -2.908400662776828E-1   1.575320379136130E-2  -1.367321620800938E-1  
 4.013503375843961E9    -4.856092788027600E-3  -1.227870042900878E-1  -9.277415856005123E-1  -2.937642121326924E-1  -9.173674530186111E-1  -2.894483648973704E-1   1.793367907658220E-2  -1.382582754191306E-1  
 4.014253563390848E9    -5.873797648763285E-3  -1.238749937005648E-1  -9.301235025845959E-1  -2.918829912319780E-1  -9.188751366781957E-1  -2.894264726138114E-1   1.379831238579937E-2  -1.345710270714136E-1  
 4.015003750937735E9    -7.533805719232188E-3  -1.244597112726723E-1  -9.289813076963991E-1  -2.927677275028824E-1  -9.209170360741728E-1  -2.888695940223336E-1   1.566276686674916E-2  -1.331276511871000E-1  
 4.015753938484621E9    -1.024221205719747E-2  -1.228667315981850E-1  -9.331480354907307E-1  -2.859633641698957E-1  -9.217221920403222E-1  -2.895707307681442E-1   1.071460717403330E-2  -1.314443756760104E-1  
 4.016504126031508E9    -1.136724968928844E-2  -1.243035549537495E-1  -9.342519133662508E-1  -2.833874875062704E-1  -9.226751364255529E-1  -2.889641724926234E-1   1.340266015563160E-2  -1.351631805805624E-1  
 4.017254313578394E9    -1.249552370180376E-2  -1.246631355182396E-1  -9.336356940415586E-1  -2.827723478093743E-1  -9.249362605219916E-1  -2.854053024029732E-1   1.534801661822014E-2  -1.332919103446341E-1  
 4.018004501125281E9    -1.386309279202484E-2  -1.225500406779186E-1  -9.354147806645651E-1  -2.817889025777579E-1  -9.255825055593056E-1  -2.864892010140420E-1   1.232124622165226E-2  -1.331217863087015E-1  
 4.018754688672168E9    -1.399289802219719E-2  -1.252865812904163E-1  -9.360022648795972E-1  -2.817320165172219E-1  -9.278165657607943E-1  -2.834244704085588E-1   1.015993643092923E-2  -1.375141005975669E-1  
 4.019504876219055E9    -1.805684157716110E-2  -1.231429827436553E-1  -9.387566397520167E-1  -2.767535366910696E-1  -9.303737232778591E-1  -2.797651897311211E-1   1.202606324286200E-2  -1.387283776916036E-1  
 4.020255063765942E9    -1.496763117122464E-2  -1.231067639291425E-1  -9.386067197319806E-1  -2.716061976552009E-1  -9.324252339020378E-1  -2.785598683622480E-1   6.596422988825945E-3  -1.348093032198095E-1  
 4.021005251312828E9    -1.715855552174151E-2  -1.243266117560564E-1  -9.400643621088882E-1  -2.710735521960259E-1  -9.326726627151579E-1  -2.797817602032424E-1   4.985293660024181E-3  -1.412144619654390E-1  
 4.021755438859715E9    -2.060806631784886E-2  -1.266323391744934E-1  -9.403598212618302E-1  -2.685507971665264E-1  -9.336679925757245E-1  -2.768010364207625E-1   7.982056573382579E-3  -1.347270614330145E-1  
 4.022505626406601E9    -1.839228319255635E-2  -1.269782549308072E-1  -9.403347228392889E-1  -2.658926463648677E-1  -9.358395644120017E-1  -2.748640569058061E-1   1.028939575830475E-2  -1.353733651400929E-1  
 4.023255813953488E9    -2.134693373922259E-2  -1.219500823438392E-1  -9.408045656339260E-1  -2.613518527767063E-1  -9.381813361704480E-1  -2.723282706063986E-1   6.329501014295967E-3  -1.348228940043786E-1  
 4.024006001500375E9    -2.135380299236625E-2  -1.248540327581234E-1  -9.408075702114820E-1  -2.605561096477509E-1  -9.395528360219596E-1  -2.702302141276002E-1   3.470453540307936E-3  -1.318709302387320E-1  
 4.024756189047262E9    -2.012386992555111E-2  -1.253722699565263E-1  -9.410211299553972E-1  -2.583544471684099E-1  -9.406804275881051E-1  -2.674207157155871E-1   6.602689019851388E-3  -1.304780245298891E-1  
 4.025506376594149E9    -2.194273174542935E-2  -1.274313768036429E-1  -9.409254827056653E-1  -2.546348683646321E-1  -9.424136275628023E-1  -2.650556965699792E-1   2.213206223887392E-4  -1.310796590545688E-1  
 4.026256564141035E9    -2.398939031489194E-2  -1.244839794558443E-1  -9.410356802010588E-1  -2.527025802475214E-1  -9.428039495650717E-1  -2.631980909812451E-1   7.099099261020312E-3  -1.310927335805533E-1  
 4.027006751687922E9    -2.302417764570565E-2  -1.256895246800269E-1  -9.411493425834967E-1  -2.506544841122628E-1  -9.449548195397571E-1  -2.606867548546196E-1   3.203204132230021E-3  -1.340406743266867E-1  
 4.027756939234809E9    -2.327717766795308E-2  -1.274279502898618E-1  -9.402651265342896E-1  -2.503413311897219E-1  -9.452873055553441E-1  -2.600478123149276E-1   2.946831796222833E-3  -1.318977745285047E-1  
 4.028507126781695E9    -2.661117936860771E-2  -1.274976726966859E-1  -9.405409755759622E-1  -2.481076487845183E-1  -9.458009756811902E-1  -2.573516280817986E-1   5.291559072046077E-3  -1.340394346544592E-1  
 4.029257314328582E9    -2.484684301875532E-2  -1.289762037072147E-1  -9.403924481075122E-1  -2.446684135727585E-1  -9.467330854043790E-1  -2.525518881353736E-1   4.457370562911967E-3  -1.319582518385724E-1  
 4.030007501875469E9    -2.386578809518368E-2  -1.297488878822600E-1  -9.413090642548837E-1  -2.407414541952313E-1  -9.482434591020140E-1  -2.496266078206897E-1   2.583802399671404E-3  -1.351877612930269E-1  
 4.030757689422356E9    -2.492051668116823E-2  -1.299282850818510E-1  -9.386790006436521E-1  -2.410949212037027E-1  -9.493603003205861E-1  -2.462816486646236E-1  -1.532108479684102E-3  -1.318712493173171E-1  
 4.031507876969242E9    -2.281825361598283E-2  -1.299989427296199E-1  -9.391468148216852E-1  -2.386490939085186E-1  -9.484872521120122E-1  -2.439776883333922E-1   6.617514861379752E-3  -1.305797797586605E-1  
 4.032258064516129E9    -2.463496445426718E-2  -1.304204244893250E-1  -9.380841307520813E-1  -2.339588216294349E-1  -9.503084023012998E-1  -2.374842209488154E-1   2.475267274731595E-4  -1.314642560937245E-1  
 4.033008252063016E9    -2.427924070987851E-2  -1.330686786096361E-1  -9.371781734468699E-1  -2.350656545691193E-1  -9.493394443764157E-1  -2.381687718692422E-1   1.268376017419869E-3  -1.341041181941287E-1  
 4.033758439609902E9    -2.427639130925760E-2  -1.352620111785501E-1  -9.376970995086205E-1  -2.332372744502127E-1  -9.485220133388753E-1  -2.373721373957396E-1   7.243851397471735E-4  -1.313650997407340E-1  
 4.034508627156789E9    -2.335789778092877E-2  -1.360571787762013E-1  -9.366791843781110E-1  -2.306139237156511E-1  -9.484605025990296E-1  -2.340453624710441E-1  -1.136816291084979E-3  -1.335307417553580E-1  
 4.035258814703676E9    -2.497884394761175E-2  -1.380186586714274E-1  -9.365299711466133E-1  -2.314462655253709E-1  -9.491718263381532E-1  -2.312073552680016E-1   3.517270201772917E-3  -1.318320157955144E-1  
 4.036009002250563E9    -2.203705625034869E-2  -1.387797931799628E-1  -9.357430902265289E-1  -2.319872142928839E-1  -9.493192501551387E-1  -2.297694461260736E-1   5.606658488626126E-3  -1.342707827170053E-1  
 4.036759189797450E9    -2.371342455558479E-2  -1.373676237718146E-1  -9.363339081127993E-1  -2.265579012985528E-1  -9.479887613974724E-1  -2.282996736674011E-1   3.092556931732688E-3  -1.309124098923303E-1  
 4.037509377344336E9    -2.321513202575967E-2  -1.385736259063879E-1  -9.343590768971610E-1  -2.265716979879141E-1  -9.479609345898755E-1  -2.242134948322178E-1   1.630685846291890E-3  -1.318575145663612E-1  
 4.038259564891223E9    -2.218461860122160E-2  -1.384364694010619E-1  -9.342236868214353E-1  -2.250446588976682E-1  -9.482458822729516E-1  -2.221433635035157E-1   1.185369955158967E-3  -1.369346812876812E-1  
 4.039009752438109E9    -2.253918059077114E-2  -1.417513883738618E-1  -9.334258361888776E-1  -2.243536988763512E-1  -9.480266791270022E-1  -2.201183971776068E-1   4.198396534402855E-3  -1.325313717854422E-1  
 4.039759939984996E9    -2.053311964469031E-2  -1.430736688583029E-1  -9.333957793421247E-1  -2.240691920505464E-1  -9.472744044405927E-1  -2.170178233407438E-1   3.811633365619928E-3  -1.344264946260868E-1  
 4.040510127531883E9    -2.212835464019329E-2  -1.423870676469247E-1  -9.329346652295159E-1  -2.224476045100391E-1  -9.464035201759385E-1  -2.141590847298503E-1  -3.650625109617251E-4  -1.382745491428633E-1  
 4.041260315078770E9    -2.042058638816700E-2  -1.450151967963685E-1  -9.324290705923047E-1  -2.207990258130431E-1  -9.450068007128147E-1  -2.118366174186766E-1  -2.736781158628874E-3  -1.346272152554716E-1  
 4.042010502625657E9    -2.205476595886053E-2  -1.443550660395775E-1  -9.318632486117822E-1  -2.193870191416145E-1  -9.455406616662320E-1  -2.102384108944238E-1  -3.215814991940351E-4  -1.300715902151301E-1  
 4.042760690172543E9    -2.208809326315299E-2  -1.437665196727229E-1  -9.322954017998892E-1  -2.192468082080782E-1  -9.447286984048994E-1  -2.102484232853354E-1  -2.288925670851022E-3  -1.354883691517467E-1  
 4.043510877719430E9    -2.259292242720723E-2  -1.433696148045352E-1  -9.328289234854418E-1  -2.186729860721529E-1  -9.428967696754294E-1  -2.077124547533691E-1   4.304859956729344E-4  -1.335803443692952E-1  
 4.044261065266316E9    -2.115540055254474E-2  -1.465409613159459E-1  -9.318362074927049E-1  -2.173974719282985E-1  -9.422672281027741E-1  -2.055156271839142E-1  -1.159268814000352E-3  -1.300668937860472E-1  
 4.045011252813203E9    -2.201844762230292E-2  -1.451089128635857E-1  -9.312560563732864E-1  -2.166849470715225E-1  -9.412222948316580E-1  -2.033351514567435E-1  -1.792443272798555E-3  -1.297078362983291E-1  
 4.045761440360090E9    -2.100740008853376E-2  -1.452602914150223E-1  -9.328205945419824E-1  -2.172539043332637E-1  -9.413933350593003E-1  -2.019639431740344E-1   1.400629653205106E-3  -1.277376992903785E-1  
 4.046511627906977E9    -2.085767738491297E-2  -1.461337066601314E-1  -9.311683240299165E-1  -2.156584338307381E-1  -9.404094250427740E-1  -2.016731994561851E-1  -2.677125682267361E-3  -1.322867904974078E-1  
 4.047261815453864E9    -2.060015266517178E-2  -1.471010470665808E-1  -9.324010109640673E-1  -2.158864717853070E-1  -9.395241207053724E-1  -1.999263024649024E-1  -2.295471699104019E-4  -1.290432540827265E-1  
 4.048012003000750E9    -1.822190740488470E-2  -1.451492416141810E-1  -9.340009960142404E-1  -2.133688596127928E-1  -9.395872560528867E-1  -1.975444942842425E-1   4.679702976479894E-3  -1.300325566706108E-1  
 4.048762190547637E9    -1.965725965861231E-2  -1.471682767794801E-1  -9.329983967453210E-1  -2.136556002248824E-1  -9.371537579502289E-1  -1.980298379437626E-1  -3.549268056579167E-3  -1.292906373502435E-1  
 4.049512378094523E9    -2.095777342751622E-2  -1.459621257021919E-1  -9.330442818805103E-1  -2.114323175941408E-1  -9.369387024383447E-1  -1.957809193964303E-1   3.118514741994441E-3  -1.317714528238308E-1  
 4.050262565641410E9    -2.049996033646167E-2  -1.467000062862872E-1  -9.340792168874583E-1  -2.102363485313952E-1  -9.372834323754740E-1  -1.956400744141639E-1   1.914120884969671E-3  -1.287999240961378E-1  
 4.051012753188297E9    -1.957596824932843E-2  -1.470407054510817E-1  -9.350822155738278E-1  -2.095791740436853E-1  -9.379984016343129E-1  -1.948646244610846E-1   1.836142295331665E-3  -1.283256188060281E-1  
 4.051762940735184E9    -1.555588082525879E-2  -1.431105457734330E-1  -9.369744801950385E-1  -2.084521746744216E-1  -9.375562418051162E-1  -1.936124580706656E-1   3.054569331395324E-3  -1.254022441480950E-1  
 4.052513128282071E9    -1.825529186243191E-2  -1.434938336616740E-1  -9.366646030805909E-1  -2.089003429228068E-1  -9.356846384912467E-1  -1.945598335564137E-1  -2.320422939780401E-3  -1.287174873021156E-1  
 4.053263315828957E9    -1.352620945272968E-2  -1.450034296722630E-1  -9.368054810225033E-1  -2.061175204166770E-1  -9.366016559478086E-1  -1.927070409762860E-1   3.855629438410106E-3  -1.326890530047416E-1  
 4.054013503375844E9    -1.498140814960003E-2  -1.442203951533971E-1  -9.380814032905239E-1  -2.056300324028730E-1  -9.353403596495642E-1  -1.929184691174329E-1  -3.654296859281604E-3  -1.302286098936956E-1  
 4.054763690922730E9    -1.565356171555817E-2  -1.461046296926676E-1  -9.378198435691482E-1  -2.037897242499888E-1  -9.362583732429735E-1  -1.911284370173514E-1   2.005216018674546E-3  -1.294787072817663E-1  
 4.055513878469617E9    -1.363456708298065E-2  -1.431385857997097E-1  -9.391266700186066E-1  -2.036706780190766E-1  -9.364627729216389E-1  -1.900118363863230E-1   2.399440238907119E-4  -1.291043032888165E-1  
 4.056264066016504E9    -1.264089246455580E-2  -1.410194673889166E-1  -9.409842106153523E-1  -2.010002554602921E-1  -9.362241063035296E-1  -1.900572514617444E-1   3.304294497699012E-3  -1.305665053692145E-1  
 4.057014253563391E9    -9.760985789420081E-3  -1.421126448230264E-1  -9.419050423823324E-1  -1.991430764110387E-1  -9.370426769733905E-1  -1.872203373156488E-1   4.132011406370440E-3  -1.300955149303802E-1  
 4.057764441110278E9    -8.672725364831279E-3  -1.397647939351064E-1  -9.420804490980738E-1  -1.970934021477401E-1  -9.378696064818624E-1  -1.883009210391343E-1  -7.323038283754431E-4  -1.291351257950317E-1  
 4.058514628657164E9    -1.033980188479647E-2  -1.409087295802770E-1  -9.432049064282969E-1  -1.973702647820116E-1  -9.376940131883378E-1  -1.863948993231357E-1   3.026141864180100E-3  -1.280986753272396E-1  
 4.059264816204051E9    -1.018400108811446E-2  -1.390218334620989E-1  -9.448228173280105E-1  -1.952647001427412E-1  -9.390696695477649E-1  -1.861001232497395E-1   2.990551192256390E-3  -1.268550369343174E-1  
 4.060015003750938E9    -7.929191892952660E-3  -1.383499210099604E-1  -9.442684603923175E-1  -1.935720755811036E-1  -9.389672327293618E-1  -1.849403866942227E-1   2.919163962357271E-3  -1.297033563810512E-1  
 4.060765191297824E9    -8.863039102014157E-3  -1.372066584880691E-1  -9.458962790076064E-1  -1.906643752437831E-1  -9.401157336937942E-1  -1.848585617804528E-1  -3.013526764795825E-4  -1.298169898329240E-1  
 4.061515378844711E9    -9.619152285959574E-3  -1.379611026737053E-1  -9.459491063969108E-1  -1.917795248927177E-1  -9.406695156450763E-1  -1.856269977565110E-1   2.626020092336694E-3  -1.314791762975753E-1  
 4.062265566391598E9    -7.066705359728077E-3  -1.356828036270821E-1  -9.482519916530595E-1  -1.884174187386036E-1  -9.415744682564060E-1  -1.844333202101290E-1   1.133281660951325E-3  -1.301061378231575E-1  
 4.063015753938485E9    -8.559940940802919E-3  -1.341022632693197E-1  -9.495366965206911E-1  -1.854615810696781E-1  -9.425783490169644E-1  -1.829936674660445E-1   4.022217723315117E-3  -1.296947518438637E-1  
 4.063765941485371E9    -1.108313587810844E-2  -1.334065060492928E-1  -9.500446012325199E-1  -1.839345227135718E-1  -9.444712413615960E-1  -1.801761825901270E-1   8.004864171920346E-3  -1.273349361005581E-1  
 4.064516129032258E9    -1.050116781933233E-2  -1.313905194062189E-1  -9.506543187504982E-1  -1.821909694099427E-1  -9.453399739211107E-1  -1.800237586796284E-1   5.419821129015182E-3  -1.302166877633937E-1  
 4.065266316579145E9    -9.887221154635773E-3  -1.313243926390293E-1  -9.520316271143234E-1  -1.804395660853386E-1  -9.460484264187924E-1  -1.786408234891296E-1   5.923892743857578E-3  -1.286045504045437E-1  
 4.066016504126031E9    -6.900961560714060E-3  -1.311778345686845E-1  -9.519541605518216E-1  -1.773609599527718E-1  -9.472764780789985E-1  -1.773589583559334E-1   5.974794591397514E-3  -1.312502550148417E-1  
 4.066766691672918E9    -1.213787021283992E-2  -1.306497382918332E-1  -9.537271075779138E-1  -1.773292007341981E-1  -9.488040461301605E-1  -1.772860587774217E-1  -3.665408336713154E-4  -1.300245751145258E-1  
 4.067516879219805E9    -1.165056036645546E-2  -1.296100938799590E-1  -9.538824656531584E-1  -1.733610447140038E-1  -9.506634584117061E-1  -1.760823950751126E-1   1.967516141093802E-3  -1.287203709361809E-1  
 4.068267066766692E9    -1.064488414111547E-2  -1.267113908559471E-1  -9.546671730813008E-1  -1.716797299909592E-1  -9.508106728016159E-1  -1.748961819134652E-1   2.912321720582768E-3  -1.315396961189529E-1  
 4.069017254313579E9    -1.134995059443638E-2  -1.245871797458097E-1  -9.555833559757764E-1  -1.690484269805253E-1  -9.528627710647331E-1  -1.718328517928720E-1   1.039667369377803E-3  -1.304401574878712E-1  
 4.069767441860465E9    -1.303649011945352E-2  -1.259980929949143E-1  -9.561821211671532E-1  -1.671292012871803E-1  -9.545768759281521E-1  -1.708469948855043E-1   1.333668124717660E-3  -1.265792315287267E-1  
