#  HZ   S   RI   R     50.0 
! Rohde & Schwarz ZVL13 2Ports - Version 3.31 - 1303.6509k13 SN: 101088
! Date: 2023-03-06 14:59:32
! Data & Calibration Information:
! Trc4:S11(TOSM) Trc2:S21(TOSM) Trc3:S12(TOSM) Trc5:S22(TOSM)
! 
! 
! 
 4.000000000000000E9     2.904644854366780E-3  -1.433477120923262E-1  -9.046140037015072E-1  -3.128800314962865E-1  -9.096472131483375E-1  -2.902245853841305E-1   1.531283164862544E-2  -1.372986662245438E-1  
 4.000750187546887E9     2.543262484716252E-3  -1.422776301456434E-1  -9.041365972644150E-1  -3.135705604553223E-1  -9.097883525756125E-1  -2.923607030510903E-1   1.868625287897885E-2  -1.428958615541817E-1  
 4.001500375093773E9     2.787212960771285E-3  -1.390322158868027E-1  -9.051237933197442E-1  -3.116752788424492E-1  -9.091873588037452E-1  -2.919122328162194E-1   1.832773331925273E-2  -1.459438798975590E-1  
 4.002250562640660E9     6.761620461038548E-4  -1.405730891267504E-1  -9.052324687426606E-1  -3.111890759766102E-1  -9.082555057562873E-1  -2.918733844757080E-1   1.817210010252894E-2  -1.457796586827236E-1  
 4.003000750187547E9     2.439519163934166E-3  -1.388237948271330E-1  -9.078113363585261E-1  -3.101560179591179E-1  -9.083077820765124E-1  -2.902262168526650E-1   1.719300724752247E-2  -1.405052400613077E-1  
 4.003750937734434E9    -1.386246547495830E-3  -1.377492313058295E-1  -9.094215381642563E-1  -3.099294497966768E-1  -9.069886552943537E-1  -2.909749132692815E-1   1.578409736510366E-2  -1.431337197628761E-1  
 4.004501125281320E9     3.423219717369649E-4  -1.362661845600105E-1  -9.116379884880891E-1  -3.076569193005562E-1  -9.087862642540834E-1  -2.900709407627583E-1   1.799777820706368E-2  -1.394790459228849E-1  
 4.005251312828207E9     1.049910953646759E-3  -1.361120410163340E-1  -9.125312357018185E-1  -3.076360051333905E-1  -9.089529037607296E-1  -2.906054490506649E-1   1.475518110487610E-2  -1.414629142613831E-1  
 4.006001500375094E9    -4.302931295824238E-4  -1.345923020793265E-1  -9.135548457661898E-1  -3.055552870035172E-1  -9.082942455727587E-1  -2.885015439987183E-1   1.962243034131825E-2  -1.403751348526414E-1  
 4.006751687921980E9     6.142230162477063E-4  -1.341185759746442E-1  -9.145780556943974E-1  -3.036657748222351E-1  -9.082611739963862E-1  -2.882474742829800E-1   2.036657724343241E-2  -1.448175266173610E-1  
 4.007501875468867E9    -2.871465635485948E-3  -1.331267607909799E-1  -9.170934942583875E-1  -3.017262141704560E-1  -9.108402301818120E-1  -2.879284997284413E-1   1.679112759791315E-2  -1.368442804537531E-1  
 4.008252063015754E9    -1.848027659056243E-3  -1.329590719005900E-1  -9.173933831633235E-1  -3.001302893459797E-1  -9.105800123394737E-1  -2.875020492076874E-1   2.091287430375815E-2  -1.445867017214491E-1  
 4.009002250562641E9    -4.713588273152710E-3  -1.347225512665017E-1  -9.183046081220834E-1  -2.996194669902325E-1  -9.104403736324576E-1  -2.874519504010677E-1   2.539907833561301E-2  -1.470966515906733E-1  
 4.009752438109528E9    -5.208634228445590E-3  -1.346721855821646E-1  -9.205609087034274E-1  -2.983703249096871E-1  -9.122582152890977E-1  -2.877972843050957E-1   1.877185181528330E-2  -1.429166190611015E-1  
 4.010502625656414E9    -4.453741409815849E-3  -1.335077970087616E-1  -9.230517887813197E-1  -2.949835272431374E-1  -9.127453054026291E-1  -2.865665679574013E-1   1.746020255424083E-2  -1.470407135336560E-1  
 4.011252813203301E9    -5.804099047090860E-3  -1.338280374885350E-1  -9.249946078044253E-1  -2.938975501358509E-1  -9.139161207105788E-1  -2.860156021416188E-1   1.435868302546442E-2  -1.408149429292359E-1  
 4.012003000750187E9    -8.162991238757968E-3  -1.342384121243197E-1  -9.240962837992013E-1  -2.925393943488597E-1  -9.141490281880174E-1  -2.861030295491219E-1   2.312437877617777E-2  -1.467027694563179E-1  
 4.012753188297074E9    -7.764859813265502E-3  -1.330042122267064E-1  -9.269685155576176E-1  -2.899644806981087E-1  -9.174171945246652E-1  -2.855638835728169E-1   1.432212853524834E-2  -1.478305832594146E-1  
 4.013503375843961E9    -7.923941225279122E-3  -1.327902483261589E-1  -9.280044392330389E-1  -2.879412396550179E-1  -9.172351792346738E-1  -2.840532578527928E-1   1.632493312936276E-2  -1.501289361321935E-1  
 4.014253563390848E9    -9.887353351339700E-3  -1.334433250435186E-1  -9.305349966380544E-1  -2.863166746795178E-1  -9.187323859478713E-1  -2.838490509986878E-1   1.133682128693908E-2  -1.461759381384407E-1  
 4.015003750937735E9    -1.124729168321938E-2  -1.342361914708351E-1  -9.289106241813117E-1  -2.872676638364792E-1  -9.207338556216652E-1  -2.837103398740292E-1   1.360734476614744E-2  -1.453774560755928E-1  
 4.015753938484621E9    -1.355545486044139E-2  -1.323256228115669E-1  -9.334104207246079E-1  -2.804332738816738E-1  -9.219882134026192E-1  -2.834277408123017E-1   8.534502869471907E-3  -1.429271854486515E-1  
 4.016504126031508E9    -1.516583432629705E-2  -1.338074189713814E-1  -9.344270170368475E-1  -2.775537105202675E-1  -9.225652445970148E-1  -2.830878044664860E-1   1.165623934566975E-2  -1.464174539588570E-1  
 4.017254313578394E9    -1.662296623457223E-2  -1.343721656697523E-1  -9.337690390097762E-1  -2.762784023880959E-1  -9.254282800678141E-1  -2.790977905094623E-1   1.250582723133266E-2  -1.449341961210436E-1  
 4.018004501125281E9    -1.818950907886029E-2  -1.320223275443494E-1  -9.354806832553625E-1  -2.755596764385700E-1  -9.257498281251975E-1  -2.800779508054256E-1   1.011788569856435E-2  -1.436962909009606E-1  
 4.018754688672168E9    -1.843069015443325E-2  -1.343615336448304E-1  -9.360289465725875E-1  -2.745510229468346E-1  -9.279029995594307E-1  -2.774182441532611E-1   7.773938990198077E-3  -1.478459413343348E-1  
 4.019504876219055E9    -2.224687574803830E-2  -1.320098184843598E-1  -9.382862246883255E-1  -2.707632642686367E-1  -9.302784310284361E-1  -2.735595089495182E-1   1.092404779791832E-2  -1.486380804088324E-1  
 4.020255063765942E9    -1.928060070052743E-2  -1.318905970129851E-1  -9.384058389113175E-1  -2.653618780374527E-1  -9.324623956890595E-1  -2.730934318304062E-1   5.344894165638835E-3  -1.460563983804407E-1  
 4.021005251312828E9    -2.233566066250206E-2  -1.334302312813201E-1  -9.400504399528800E-1  -2.643533313870430E-1  -9.335160942650418E-1  -2.735133837461472E-1   3.721969898266252E-3  -1.522621289984816E-1  
 4.021755438859715E9    -2.508476012386382E-2  -1.352626749529818E-1  -9.406597397105089E-1  -2.614607842266560E-1  -9.340782269245054E-1  -2.702095918953419E-1   6.812317178584635E-3  -1.455003684157475E-1  
 4.022505626406601E9    -2.319438443891704E-2  -1.359516860664196E-1  -9.406547023275405E-1  -2.589709419608117E-1  -9.362776692299855E-1  -2.678450183570386E-1   9.435692427679899E-3  -1.460285979363350E-1  
 4.023255813953488E9    -2.558539799228311E-2  -1.310200645964645E-1  -9.407157458271521E-1  -2.542968967258931E-1  -9.383519507850741E-1  -2.653777552545071E-1   5.839121565455571E-3  -1.453356388296853E-1  
 4.024006001500375E9    -2.579486647062004E-2  -1.338342107813286E-1  -9.405822343551911E-1  -2.533518090248108E-1  -9.399930489301964E-1  -2.631330144107342E-1   2.261151922633872E-3  -1.424629354627345E-1  
 4.024756189047262E9    -2.459797706082464E-2  -1.348183756700330E-1  -9.408375225060943E-1  -2.504085901081562E-1  -9.406994029080327E-1  -2.600396695733070E-1   5.062143801478669E-3  -1.410637128693681E-1  
 4.025506376594149E9    -2.733723660185933E-2  -1.369818263997244E-1  -9.405496772719159E-1  -2.468897210508585E-1  -9.425078441825157E-1  -2.572515451610089E-1  -1.288047440597439E-3  -1.419574842983526E-1  
 4.026256564141035E9    -2.892372664064169E-2  -1.340105584140380E-1  -9.406242261263215E-1  -2.447164447307587E-1  -9.425803367142946E-1  -2.560534034669399E-1   5.655012968694790E-3  -1.419317856405741E-1  
 4.027006751687922E9    -2.858210859261453E-2  -1.349928388724467E-1  -9.405797732499490E-1  -2.428141474425793E-1  -9.446899260677790E-1  -2.526994855105877E-1   1.565890628815396E-3  -1.451121370933995E-1  
 4.027756939234809E9    -2.897673676349222E-2  -1.366538581589984E-1  -9.393117195220259E-1  -2.427320886105299E-1  -9.450826280114527E-1  -2.521440083980560E-1   1.546614204346042E-3  -1.425858098958018E-1  
 4.028507126781695E9    -3.184137169085443E-2  -1.367653962981019E-1  -9.394113328597373E-1  -2.404625514298678E-1  -9.453409588938985E-1  -2.492804956138134E-1   4.031393592478708E-3  -1.436237015562478E-1  
 4.029257314328582E9    -3.065877763368190E-2  -1.383835832330811E-1  -9.390855677828196E-1  -2.369984419196844E-1  -9.460223753677776E-1  -2.447917017489673E-1   2.622472494622344E-3  -1.429151510413879E-1  
 4.030007501875469E9    -2.931296166777611E-2  -1.385898392979345E-1  -9.400289119113983E-1  -2.326727220118046E-1  -9.477891033684223E-1  -2.412774580717087E-1   9.881283484282904E-4  -1.453339915919337E-1  
 4.030757689422356E9    -3.022478020563722E-2  -1.389806700040349E-1  -9.373457163757248E-1  -2.330412238985300E-1  -9.489764824286636E-1  -2.380419625043869E-1  -4.016505914274602E-3  -1.424164425954541E-1  
 4.031507876969242E9    -2.828692389838398E-2  -1.396959764137326E-1  -9.378375499203800E-1  -2.304663890153170E-1  -9.476005353928636E-1  -2.360969939678908E-1   5.389496395830066E-3  -1.405720199235624E-1  
 4.032258064516129E9    -3.026945026591420E-2  -1.398168435175086E-1  -9.365870398825814E-1  -2.266472897231580E-1  -9.492116080187008E-1  -2.293544875830412E-1  -7.318779262423050E-4  -1.409901308002783E-1  
 4.033008252063016E9    -2.938343021459878E-2  -1.421455723577904E-1  -9.361134318568509E-1  -2.269592989385128E-1  -9.483946096473019E-1  -2.294260807037354E-1  -4.125407687388360E-4  -1.430991391534525E-1  
 4.033758439609902E9    -2.978927151486278E-2  -1.449180863424194E-1  -9.365453752149033E-1  -2.250141710191966E-1  -9.474317144742680E-1  -2.288262077569962E-1  -2.633882424051990E-4  -1.408748610447674E-1  
 4.034508627156789E9    -2.841798294708133E-2  -1.459206640653224E-1  -9.353571172897862E-1  -2.223007007390261E-1  -9.473110703009722E-1  -2.250583556294441E-1  -1.991571800288512E-3  -1.426126507525475E-1  
 4.035258814703676E9    -3.082972652092577E-2  -1.477693566365643E-1  -9.348130360044020E-1  -2.236794207692146E-1  -9.477603533532253E-1  -2.230984247028828E-1   2.081775197526440E-3  -1.421529445941767E-1  
 4.036009002250563E9    -2.755246321111918E-2  -1.490054255929074E-1  -9.342714410530366E-1  -2.228139301836491E-1  -9.477736059247197E-1  -2.211595077365637E-1   3.051959243020975E-3  -1.448073775896882E-1  
 4.036759189797450E9    -2.922941233776510E-2  -1.478691161981536E-1  -9.343972604057899E-1  -2.179002038687468E-1  -9.465434085792090E-1  -2.187346392571926E-1   1.286457740043261E-4  -1.405656154396107E-1  
 4.037509377344336E9    -2.910052431561053E-2  -1.484645580074307E-1  -9.323379091391368E-1  -2.180765148103238E-1  -9.460494659265408E-1  -2.149275728017092E-1  -8.253630070994406E-4  -1.413920612082908E-1  
 4.038259564891223E9    -2.835275837406516E-2  -1.486516248602124E-1  -9.321720607736508E-1  -2.167491580098868E-1  -9.463118722341460E-1  -2.128472875803710E-1  -2.121288908965653E-3  -1.463455900681552E-1  
 4.039009752438109E9    -2.814129966124893E-2  -1.519572447939184E-1  -9.309765970362796E-1  -2.161490323692561E-1  -9.455911601450512E-1  -2.116841448843480E-1   2.155687103164382E-3  -1.425186127151273E-1  
 4.039759939984996E9    -2.673299737088383E-2  -1.527628695457671E-1  -9.312779259172908E-1  -2.161941055804491E-1  -9.449662541878644E-1  -2.078259394317866E-1   4.304517425189261E-4  -1.438686983433828E-1  
 4.040510127531883E9    -2.820895233750343E-2  -1.525503113946459E-1  -9.306049390042093E-1  -2.144889971762896E-1  -9.439268433761562E-1  -2.051753676533699E-1  -4.746439622249455E-3  -1.472170132166778E-1  
 4.041260315078770E9    -2.648001137189568E-2  -1.548367730013502E-1  -9.297479252144619E-1  -2.134761272668839E-1  -9.420842866776366E-1  -2.029473137259483E-1  -6.717300943564625E-3  -1.431901559994244E-1  
 4.042010502625657E9    -2.776719164289535E-2  -1.547433943214697E-1  -9.295525166057045E-1  -2.118297371268273E-1  -9.427483590676599E-1  -2.019245332926512E-1  -4.839640709338710E-3  -1.393775990744502E-1  
 4.042760690172543E9    -2.791215871647001E-2  -1.537789973044508E-1  -9.303169821705031E-1  -2.112083618491888E-1  -9.423177894875676E-1  -2.011995897144079E-1  -6.352412821259350E-3  -1.454568139807935E-1  
 4.043510877719430E9    -2.839244371838868E-2  -1.542078540876521E-1  -9.305003653833950E-1  -2.104797069430351E-1  -9.408143574158040E-1  -1.984192761629820E-1  -3.385469394503161E-3  -1.441800854424534E-1  
 4.044261065266316E9    -2.668830253556371E-2  -1.570600884059362E-1  -9.296294376543823E-1  -2.097422295957804E-1  -9.397507581340807E-1  -1.970292508453131E-1  -4.669347775401548E-3  -1.396501742135926E-1  
 4.045011252813203E9    -2.737926608510316E-2  -1.557286025913530E-1  -9.291550962747835E-1  -2.092734971344471E-1  -9.388915286839707E-1  -1.957652998715640E-1  -5.405354093294591E-3  -1.386553489046012E-1  
 4.045761440360090E9    -2.650516580976546E-2  -1.562059235717103E-1  -9.306899321432486E-1  -2.091736559271813E-1  -9.391183421945358E-1  -1.933073466122151E-1  -3.089724864461459E-3  -1.380155922531783E-1  
 4.046511627906977E9    -2.588702329620720E-2  -1.574710763708350E-1  -9.292826990176506E-1  -2.073388977497817E-1  -9.381759042422444E-1  -1.927444412857294E-1  -7.726083160843701E-3  -1.418704663432084E-1  
 4.047261815453864E9    -2.592605784162880E-2  -1.591173228652602E-1  -9.303394439342060E-1  -2.079550891667605E-1  -9.371951186169900E-1  -1.909498438388110E-1  -5.592067903140560E-3  -1.398367561036379E-1  
 4.048012003000750E9    -2.367294045910239E-2  -1.568318134425135E-1  -9.316728286516929E-1  -2.057025421410799E-1  -9.369501915857978E-1  -1.888104213178158E-1   2.417837456341658E-4  -1.404214794383188E-1  
 4.048762190547637E9    -2.501806435175241E-2  -1.592534872729655E-1  -9.310775359357141E-1  -2.055758123695851E-1  -9.346272372140252E-1  -1.889649141430855E-1  -8.506961083505304E-3  -1.390140506110143E-1  
 4.049512378094523E9    -2.679431089013816E-2  -1.582454622461076E-1  -9.311300283168031E-1  -2.039288378357888E-1  -9.340622223209785E-1  -1.868306625038385E-1  -2.461834664340132E-3  -1.415562967200781E-1  
 4.050262565641410E9    -2.589395327121020E-2  -1.590423606873987E-1  -9.312567493037836E-1  -2.031147825568915E-1  -9.343463334879162E-1  -1.862761863172054E-1  -3.832671536365525E-3  -1.394781363603977E-1  
 4.051012753188297E9    -2.506752469763160E-2  -1.586659305582372E-1  -9.326520512402552E-1  -2.022301974743605E-1  -9.352828719835796E-1  -1.855959987789393E-1  -4.205261481925845E-3  -1.396565545404720E-1  
 4.051762940735184E9    -2.127964171767235E-2  -1.548279964911169E-1  -9.349550903556751E-1  -2.005354513972998E-1  -9.343417349579167E-1  -1.847864897996187E-1  -3.785374584840612E-3  -1.362461190862986E-1  
 4.052513128282071E9    -2.428397025540471E-2  -1.558535004421060E-1  -9.346740657766293E-1  -2.007284124791623E-1  -9.326032661663722E-1  -1.855028957575560E-1  -9.209554583299907E-3  -1.391976363418907E-1  
 4.053263315828957E9    -1.962309302389622E-2  -1.567899848888826E-1  -9.347995012087915E-1  -1.983468283414841E-1  -9.333082922835115E-1  -1.835546167045832E-1  -3.382617426337675E-3  -1.442115374070966E-1  
 4.054013503375844E9    -2.007553781382740E-2  -1.563233302084042E-1  -9.361933060692271E-1  -1.979857007712126E-1  -9.324333115659305E-1  -1.847274477034807E-1  -1.033383454009891E-2  -1.415351243422008E-1  
 4.054763690922730E9    -2.047970034368337E-2  -1.586005507151835E-1  -9.363641445313307E-1  -1.962823624312878E-1  -9.335136689198247E-1  -1.825860417932273E-1  -4.439600689802320E-3  -1.407996729688446E-1  
 4.055513878469617E9    -1.879776267148554E-2  -1.552889138299886E-1  -9.379522282863329E-1  -1.961478859782219E-1  -9.341532212220889E-1  -1.819695674180985E-1  -6.125484911724925E-3  -1.404233518135110E-1  
 4.056264066016504E9    -1.755683612078428E-2  -1.539901909408741E-1  -9.395947799816834E-1  -1.930411161482335E-1  -9.340105501439003E-1  -1.819041434973479E-1  -3.325413286220283E-3  -1.425894345694395E-1  
 4.057014253563391E9    -1.479425024148077E-2  -1.551180557085623E-1  -9.407391124983550E-1  -1.905429852604866E-1  -9.351218376663115E-1  -1.790595223903656E-1  -2.633581587288063E-3  -1.418115324790751E-1  
 4.057764441110278E9    -1.337115263473243E-2  -1.533549590226175E-1  -9.410783093913886E-1  -1.887764925211668E-1  -9.362214174754161E-1  -1.795599618703127E-1  -8.138425795361400E-3  -1.416084106885113E-1  
 4.058514628657164E9    -1.530517111998052E-2  -1.544533706599842E-1  -9.420275648824438E-1  -1.884526212960482E-1  -9.361530900445245E-1  -1.776727764010430E-1  -4.582276853965597E-3  -1.409442665605695E-1  
 4.059264816204051E9    -1.556724191084504E-2  -1.529035605158509E-1  -9.432399283751100E-1  -1.868761383593083E-1  -9.374919806116746E-1  -1.772114276885987E-1  -4.250491857528686E-3  -1.404819662136557E-1  
 4.060015003750938E9    -1.364849161636085E-2  -1.524143505995924E-1  -9.428074760451275E-1  -1.846699025630952E-1  -9.374005550949111E-1  -1.765448828041554E-1  -5.186677825869992E-3  -1.432807930275273E-1  
 4.060765191297824E9    -1.346230838168413E-2  -1.514323563375111E-1  -9.446805985604665E-1  -1.820007861554623E-1  -9.390001173722626E-1  -1.757889221012593E-1  -8.116064187604936E-3  -1.420758402068481E-1  
 4.061515378844711E9    -1.557069080974907E-2  -1.521845538145689E-1  -9.450525256419970E-1  -1.818838329762220E-1  -9.395942271506959E-1  -1.758766647726298E-1  -5.734508795896546E-3  -1.449055107243676E-1  
 4.062265566391598E9    -1.366374952066690E-2  -1.496537750692994E-1  -9.468286381186993E-1  -1.790809741467238E-1  -9.403202527631445E-1  -1.741107060462237E-1  -7.354459183290602E-3  -1.436051122463580E-1  
 4.063015753938485E9    -1.480268353410065E-2  -1.483584911849388E-1  -9.478883768588842E-1  -1.765070240944624E-1  -9.408470406451802E-1  -1.725208872258663E-1  -4.506633122451604E-3  -1.428699813960137E-1  
 4.063765941485371E9    -1.762176634743810E-2  -1.472016347282052E-1  -9.486350711219972E-1  -1.742930431813002E-1  -9.422999592772164E-1  -1.703344815373421E-1  -1.315101713580589E-3  -1.413738443951520E-1  
 4.064516129032258E9    -1.700303839705885E-2  -1.446734425560693E-1  -9.490895280508565E-1  -1.729092819392681E-1  -9.429383216732250E-1  -1.696598261147738E-1  -3.140585041139276E-3  -1.449286467711859E-1  
 4.065266316579145E9    -1.637959046103060E-2  -1.449764529669155E-1  -9.509409751647364E-1  -1.708497228771448E-1  -9.441981562212802E-1  -1.684424322247506E-1  -2.826918430393561E-3  -1.420099911423471E-1  
 4.066016504126031E9    -1.294242316298187E-2  -1.452531776238241E-1  -9.509014978737704E-1  -1.678866876959800E-1  -9.453870532237364E-1  -1.673733808398247E-1  -3.466845861286857E-3  -1.451151917742486E-1  
 4.066766691672918E9    -1.874519799463451E-2  -1.445490811271741E-1  -9.526632709713846E-1  -1.671099582165480E-1  -9.472273255584509E-1  -1.671813461035490E-1  -8.385414212476463E-3  -1.439055994666574E-1  
 4.067516879219805E9    -1.728725271858276E-2  -1.429284561393724E-1  -9.528137143064568E-1  -1.635821292102337E-1  -9.490460591551307E-1  -1.656408880800009E-1  -6.699647948611528E-3  -1.436407917721888E-1  
 4.068267066766692E9    -1.650197352375835E-2  -1.405161507221191E-1  -9.540630219421636E-1  -1.608862684965134E-1  -9.496469407044373E-1  -1.646065314263105E-1  -5.641309060389177E-3  -1.460056291402944E-1  
 4.069017254313579E9    -1.771232298389077E-2  -1.390555315813400E-1  -9.552152508272028E-1  -1.578081771433354E-1  -9.523382545134134E-1  -1.618365730196238E-1  -7.577478058170528E-3  -1.451751716003177E-1  
 4.069767441860465E9    -1.936040384694934E-2  -1.403823863224490E-1  -9.555493774784499E-1  -1.553463887572289E-1  -9.538261109968002E-1  -1.601759556829930E-1  -6.441115607507528E-3  -1.416730289629038E-1  
