#  HZ   S   RI   R     50.0 
! Rohde & Schwarz ZVL13 2Ports - Version 3.31 - 1303.6509k13 SN: 101088
! Date: 2023-03-06 15:11:06
! Data & Calibration Information:
! Trc4:S11(TOSM) Trc2:S21(TOSM) Trc3:S12(TOSM) Trc5:S22(TOSM)
! 
! 
! 
 4.000000000000000E9     5.016578929498793E-3  -1.335675551178900E-1  -9.041270032761184E-1  -3.227339574694634E-1  -9.102124052788414E-1  -3.013943356275559E-1   2.049186732620001E-2  -1.273758360371966E-1  
 4.000750187546887E9     4.763091925997287E-3  -1.321476780340243E-1  -9.031187047797248E-1  -3.235269063711167E-1  -9.099235520194060E-1  -3.040516880154610E-1   2.312231831252575E-2  -1.320106514730056E-1  
 4.001500375093773E9     4.955941573716701E-3  -1.288803750293409E-1  -9.042919778969480E-1  -3.220338428020477E-1  -9.090881653664322E-1  -3.031977364420891E-1   2.316191261634231E-2  -1.355724977895000E-1  
 4.002250562640660E9     2.559027946554124E-3  -1.304760975125494E-1  -9.046481987838856E-1  -3.212877589464188E-1  -9.083270946903000E-1  -3.026513156294823E-1   2.245726119726897E-2  -1.350750581674358E-1  
 4.003000750187547E9     5.271831476129594E-3  -1.288602372157078E-1  -9.069663208709451E-1  -3.201925015449525E-1  -9.084924827067409E-1  -3.012519255280495E-1   2.175164883956313E-2  -1.291655233604059E-1  
 4.003750937734434E9     1.215675012499560E-3  -1.276359212827465E-1  -9.086023907976188E-1  -3.201914384961128E-1  -9.070446177194343E-1  -3.022171342372894E-1   2.096463553607465E-2  -1.316512914479467E-1  
 4.004501125281320E9     3.099699208978564E-3  -1.255640883781233E-1  -9.106803733646157E-1  -3.183922314643860E-1  -9.089143048510908E-1  -3.013372871279716E-1   2.239422725513578E-2  -1.288137701449627E-1  
 4.005251312828207E9     3.655944145284593E-3  -1.256484545112428E-1  -9.115739527949188E-1  -3.179368060827256E-1  -9.091522340075494E-1  -3.013858258724214E-1   1.920449670404196E-2  -1.299840628698586E-1  
 4.006001500375094E9     2.391500419471412E-3  -1.242126398988036E-1  -9.125841668759490E-1  -3.163571524620056E-1  -9.084542671421801E-1  -2.997415104508400E-1   2.362934708595276E-2  -1.291909928823128E-1  
 4.006751687921980E9     3.312240645755082E-3  -1.238062825828487E-1  -9.131875696064594E-1  -3.142109563946724E-1  -9.084552383500513E-1  -2.990807685256005E-1   2.505278661847115E-2  -1.345081860374206E-1  
 4.007501875468867E9     3.676606122962767E-4  -1.232521242654517E-1  -9.159165742065112E-1  -3.122949612140655E-1  -9.110293520840407E-1  -2.989919185638428E-1   2.082336457446218E-2  -1.254221219221808E-1  
 4.008252063015754E9     1.081633765279548E-3  -1.230374555227837E-1  -9.161155034677708E-1  -3.108703765273095E-1  -9.104426478445242E-1  -2.985702627897263E-1   2.432549767196179E-2  -1.328195449809866E-1  
 4.009002250562641E9    -1.769489595899359E-3  -1.249021696039577E-1  -9.170021634881663E-1  -3.098091515898706E-1  -9.098768982621319E-1  -2.985604131221771E-1   2.873322198167444E-2  -1.360653881674971E-1  
 4.009752438109528E9    -1.411946401349269E-3  -1.248711113581786E-1  -9.189520254057146E-1  -3.092097032070160E-1  -9.117066051075973E-1  -2.986201697587967E-1   2.225712383165956E-2  -1.308599627992304E-1  
 4.010502625656414E9    -6.721006744191981E-4  -1.233655343022663E-1  -9.212150519535528E-1  -3.063211259245873E-1  -9.117863768691790E-1  -2.978670561313629E-1   2.011132532730699E-2  -1.352097983289344E-1  
 4.011252813203301E9    -2.582238536560908E-3  -1.235879248024161E-1  -9.235691883249811E-1  -3.044293135404587E-1  -9.131006504672226E-1  -2.970945408940315E-1   1.761102148331702E-2  -1.281392272498794E-1  
 4.012003000750187E9    -4.595918646082283E-3  -1.243707803977036E-1  -9.225105534036584E-1  -3.035990476608276E-1  -9.131663120731796E-1  -2.972250327467919E-1   2.649050774052739E-2  -1.346604539191794E-1  
 4.012753188297074E9    -3.818816004786641E-3  -1.228234433059116E-1  -9.252488630359567E-1  -3.020714756846427E-1  -9.162678686128616E-1  -2.967904064059257E-1   1.713435188867152E-2  -1.364484467655980E-1  
 4.013503375843961E9    -4.261898496188224E-3  -1.221560501585741E-1  -9.262426593060076E-1  -2.998754525184632E-1  -9.158344366857505E-1  -2.955292287468911E-1   1.954671835526824E-2  -1.377188450424796E-1  
 4.014253563390848E9    -5.304603567346933E-3  -1.240785479220968E-1  -9.286973273968701E-1  -2.981754726171494E-1  -9.170778679358728E-1  -2.957411259412766E-1   1.455406270921231E-2  -1.348942734118138E-1  
 4.015003750937735E9    -6.823652191087604E-3  -1.242437604960017E-1  -9.276055191943821E-1  -2.987397462129594E-1  -9.191456178166283E-1  -2.946865591406823E-1   1.692722331732512E-2  -1.337054768481517E-1  
 4.015753938484621E9    -9.368857024237514E-3  -1.225205170534035E-1  -9.316244074642267E-1  -2.927479743957520E-1  -9.202956264697523E-1  -2.956130003929138E-1   1.060292627662421E-2  -1.309167029315994E-1  
 4.016504126031508E9    -1.008842580020428E-2  -1.238350407097175E-1  -9.326259747182406E-1  -2.902435758709908E-1  -9.212671065834781E-1  -2.952485775947571E-1   1.502805184572935E-2  -1.345705758573244E-1  
 4.017254313578394E9    -1.139061400666833E-2  -1.242935954537031E-1  -9.324287952214684E-1  -2.894267898797989E-1  -9.237695965888377E-1  -2.915060809254647E-1   1.586183167994023E-2  -1.334049233657608E-1  
 4.018004501125281E9    -1.262450833804906E-2  -1.224553819413887E-1  -9.340243383178666E-1  -2.880210459232331E-1  -9.241525513748979E-1  -2.923373404145241E-1   1.289205409586430E-2  -1.319903930340821E-1  
 4.018754688672168E9    -1.283289559185505E-2  -1.246365352290758E-1  -9.347064867465569E-1  -2.885277092456818E-1  -9.265145521118197E-1  -2.890231275558472E-1   1.078281015157700E-2  -1.376920777107209E-1  
 4.019504876219055E9    -1.691673381254077E-2  -1.230697121184003E-1  -9.371383022615938E-1  -2.839429998397827E-1  -9.287098055970418E-1  -2.865786254405976E-1   1.254400099627674E-2  -1.387331708101784E-1  
 4.020255063765942E9    -1.406954524107278E-2  -1.226904146271113E-1  -9.371272452108019E-1  -2.779512438178063E-1  -9.309809683492925E-1  -2.855292141437530E-1   6.759201865643263E-3  -1.341710423023410E-1  
 4.021005251312828E9    -1.654292520135641E-2  -1.245577182637589E-1  -9.385736072916743E-1  -2.772473987936974E-1  -9.312543729957533E-1  -2.863868275284767E-1   6.291949292644860E-3  -1.409150308837030E-1  
 4.021755438859715E9    -1.956372171640396E-2  -1.263244925656603E-1  -9.391072942075369E-1  -2.750796058773994E-1  -9.321165125378262E-1  -2.829095757007599E-1   8.253775895573199E-3  -1.343248132539594E-1  
 4.022505626406601E9    -1.738279590383172E-2  -1.270642713039023E-1  -9.391928430752107E-1  -2.724997338652612E-1  -9.342774460225932E-1  -2.812219831347465E-1   1.122206630185247E-2  -1.346246319573615E-1  
 4.023255813953488E9    -1.994313806295395E-2  -1.221324311590060E-1  -9.391950326990740E-1  -2.683302122354508E-1  -9.367705350190760E-1  -2.785482180118561E-1   8.012130507268013E-3  -1.334424055588495E-1  
 4.024006001500375E9    -2.015964616090060E-2  -1.248137117962557E-1  -9.395324478863896E-1  -2.671089330315590E-1  -9.381611299820254E-1  -2.767529058456421E-1   3.887594693806023E-3  -1.317796174237515E-1  
 4.024756189047262E9    -1.898767981678248E-2  -1.255560156478541E-1  -9.396280303530560E-1  -2.644351452589035E-1  -9.395466185188970E-1  -2.731419804692269E-1   7.752357549034061E-3  -1.294430932925521E-1  
 4.025506376594149E9    -2.150212289765478E-2  -1.271723032593025E-1  -9.398636364473669E-1  -2.609277036786080E-1  -9.411086246601534E-1  -2.714049446582794E-1   1.148175744747277E-3  -1.309348060760226E-1  
 4.026256564141035E9    -2.310221351683140E-2  -1.247376038164933E-1  -9.396891231596164E-1  -2.593502959609031E-1  -9.413109884831858E-1  -2.707631319761276E-1   7.763837659731507E-3  -1.313632287368776E-1  
 4.027006751687922E9    -2.235442737117410E-2  -1.259659254286561E-1  -9.404219439496033E-1  -2.567308092117310E-1  -9.439290758687903E-1  -2.679559502005578E-1   2.943513646023348E-3  -1.351043875646917E-1  
 4.027756939234809E9    -2.266439743340016E-2  -1.276842976478479E-1  -9.390772440115994E-1  -2.565669086575508E-1  -9.438250318801444E-1  -2.666145285964012E-1   4.083432916086168E-3  -1.323144565309240E-1  
 4.028507126781695E9    -2.547429982572794E-2  -1.276737414946667E-1  -9.391067603404488E-1  -2.544057354331017E-1  -9.444158782514281E-1  -2.639236766099929E-1   6.426493595354259E-3  -1.333898456850634E-1  
 4.029257314328582E9    -2.393398478627205E-2  -1.291194272415323E-1  -9.390076044563195E-1  -2.517661842703819E-1  -9.454628261157183E-1  -2.595952841639519E-1   5.047006045933812E-3  -1.328114904229411E-1  
 4.030007501875469E9    -2.237249618396163E-2  -1.297116864580970E-1  -9.404408537428718E-1  -2.465674801170826E-1  -9.470430493573816E-1  -2.558812093734741E-1   2.832039918866940E-3  -1.350397217291707E-1  
 4.030757689422356E9    -2.393755985423923E-2  -1.296133494037330E-1  -9.376529034794234E-1  -2.477453671395779E-1  -9.485798154367258E-1  -2.521996159851551E-1  -9.971349689294584E-4  -1.318211221602341E-1  
 4.031507876969242E9    -2.169684227555990E-2  -1.303066006502908E-1  -9.379962429668749E-1  -2.452134314179421E-1  -9.471480619009249E-1  -2.509093064069748E-1   7.044829414226115E-3  -1.305716840887218E-1  
 4.032258064516129E9    -2.344087623059750E-2  -1.307848462779999E-1  -9.369499359211185E-1  -2.407650245726109E-1  -9.490556005696743E-1  -2.445504912734032E-1   1.604872087937111E-3  -1.314599071828834E-1  
 4.033008252063016E9    -2.309144521132111E-2  -1.324934556286436E-1  -9.364559485318416E-1  -2.404314431548119E-1  -9.481908315435914E-1  -2.446508276462555E-1   2.292330474774644E-3  -1.340041607542506E-1  
 4.033758439609902E9    -2.282327247783542E-2  -1.351436009738353E-1  -9.368143643469199E-1  -2.395767889916897E-1  -9.472790082744291E-1  -2.432705411314965E-1   2.046249865088612E-3  -1.305382927995889E-1  
 4.034508627156789E9    -2.244830632582307E-2  -1.356876354591289E-1  -9.355952419906112E-1  -2.377698919177056E-1  -9.471403042480941E-1  -2.411444015800953E-1  -5.569715347519377E-4  -1.338213156109633E-1  
 4.035258814703676E9    -2.431138528510929E-2  -1.378238500081686E-1  -9.355385470880795E-1  -2.385908842086792E-1  -9.477706599495968E-1  -2.389079536497593E-1   5.570871010422708E-3  -1.318130039542679E-1  
 4.036009002250563E9    -2.059091178700328E-2  -1.388004054940968E-1  -9.347410016970198E-1  -2.381436257064342E-1  -9.480460046659317E-1  -2.364141274988652E-1   6.292723664082588E-3  -1.343751800467765E-1  
 4.036759189797450E9    -2.222015054896474E-2  -1.377894228176140E-1  -9.353125207840981E-1  -2.327720548212529E-1  -9.472849768675793E-1  -2.337996403872967E-1   3.914635647088289E-3  -1.303348375849246E-1  
 4.037509377344336E9    -2.233984302729368E-2  -1.381015578398191E-1  -9.336038818382882E-1  -2.331682232022286E-1  -9.471338110207741E-1  -2.309015284478664E-1   2.215128918760456E-3  -1.322314015039598E-1  
 4.038259564891223E9    -2.105117065832019E-2  -1.381816322937342E-1  -9.333687878278294E-1  -2.315165147185326E-1  -9.475613443118677E-1  -2.281096342206002E-1   1.621203844060802E-3  -1.370279902095449E-1  
 4.039009752438109E9    -2.084350153803826E-2  -1.416800448986949E-1  -9.325530473695853E-1  -2.303838410973549E-1  -9.471032049375820E-1  -2.268929181993007E-1   5.473103015683592E-3  -1.325118928084343E-1  
 4.039759939984996E9    -1.931075833737850E-2  -1.422356082872423E-1  -9.326621265695325E-1  -2.301062946021557E-1  -9.464299646017939E-1  -2.238997694849968E-1   5.250488133169711E-3  -1.342957851436442E-1  
 4.040510127531883E9    -2.125792387872934E-2  -1.422126822767425E-1  -9.319068342058747E-1  -2.288772554695607E-1  -9.453388334111070E-1  -2.204349726438523E-1  -6.660106537310638E-5  -1.375770391421022E-1  
 4.041260315078770E9    -1.948164271190762E-2  -1.444258730662366E-1  -9.314695807159612E-1  -2.274371173977852E-1  -9.435955916275610E-1  -2.184310509264469E-1  -1.238650198210962E-3  -1.326353867153008E-1  
 4.042010502625657E9    -2.108827657997608E-2  -1.445762633010516E-1  -9.309913485379011E-1  -2.257806964218617E-1  -9.444985621611326E-1  -2.168911980092526E-1   3.587665875511447E-4  -1.299522118116490E-1  
 4.042760690172543E9    -2.101971980184317E-2  -1.436368189306667E-1  -9.317140598412531E-1  -2.247860026359559E-1  -9.440554073171196E-1  -2.161814740300179E-1  -1.596631524009809E-3  -1.358735848979040E-1  
 4.043510877719430E9    -2.161097055301070E-2  -1.432946592225107E-1  -9.321731270813188E-1  -2.239589677751064E-1  -9.426753900929568E-1  -2.134465032815933E-1   2.305999932577833E-3  -1.338807206212639E-1  
 4.044261065266316E9    -1.994903942570090E-2  -1.464849975201787E-1  -9.309074037327063E-1  -2.237702794373035E-1  -9.414954645170623E-1  -2.122592438757420E-1   4.421130038826959E-4  -1.304001837954803E-1  
 4.045011252813203E9    -2.052101299166680E-2  -1.449642588585533E-1  -9.304118263209823E-1  -2.236695159971714E-1  -9.405619036110973E-1  -2.112608256936074E-1   2.985801191971404E-4  -1.285309406099376E-1  
 4.045761440360090E9    -2.011233337223529E-2  -1.447244870976709E-1  -9.318039183217169E-1  -2.236531277000904E-1  -9.404200377556659E-1  -2.082730387151242E-1   1.992006015643710E-3  -1.282914406919248E-1  
 4.046511627906977E9    -2.014776941388846E-2  -1.461081458424886E-1  -9.304423599270307E-1  -2.213766959309578E-1  -9.399181032428093E-1  -2.077934126555920E-1  -1.493202886485960E-3  -1.318298341530831E-1  
 4.047261815453864E9    -1.921628322452307E-2  -1.470736572458515E-1  -9.315955922986107E-1  -2.219680060446263E-1  -9.386665589484117E-1  -2.062509636580945E-1   1.046964082343038E-4  -1.293701521000544E-1  
 4.048012003000750E9    -1.732912061735988E-2  -1.449322126638571E-1  -9.329748234958968E-1  -2.198347793519497E-1  -9.386045149541131E-1  -2.037107346951961E-1   5.084110887255520E-3  -1.298165412948822E-1  
 4.048762190547637E9    -1.841626582667232E-2  -1.468606773945475E-1  -9.321218932780097E-1  -2.197417271137238E-1  -9.366773431093967E-1  -2.033832472562790E-1  -2.106454389286228E-3  -1.293617236949771E-1  
 4.049512378094523E9    -2.043519400060177E-2  -1.455613558095225E-1  -9.323345777926363E-1  -2.177097444236279E-1  -9.359018130212600E-1  -2.020694397389889E-1   3.839761604904197E-3  -1.313609370858477E-1  
 4.050262565641410E9    -1.898965630680323E-2  -1.466086310051118E-1  -9.329523781280564E-1  -2.173264075815678E-1  -9.362392549346689E-1  -2.022102355957031E-1   2.892628429690376E-3  -1.279094121575071E-1  
 4.051012753188297E9    -1.801558606326580E-2  -1.467618996477526E-1  -9.339438594278430E-1  -2.164058668911457E-1  -9.372653092570096E-1  -2.013699036836624E-1   2.837548627285287E-3  -1.280962657461811E-1  
 4.051762940735184E9    -1.444977265782655E-2  -1.430277796084987E-1  -9.362324568481376E-1  -2.143566854298115E-1  -9.367610701971232E-1  -2.000696446001530E-1   4.305653746705503E-3  -1.249184935130861E-1  
 4.052513128282071E9    -1.715685531497002E-2  -1.438681874639595E-1  -9.356419683389996E-1  -2.147819113731385E-1  -9.349496455896053E-1  -2.006196175515652E-1  -1.437415157161013E-3  -1.281891111959500E-1  
 4.053263315828957E9    -1.252349700778723E-2  -1.444625719572160E-1  -9.355643722488179E-1  -2.121838656067849E-1  -9.358551728988858E-1  -1.984938097000123E-1   4.737356253899633E-3  -1.323642193591325E-1  
 4.054013503375844E9    -1.388991500250995E-2  -1.439298271937519E-1  -9.370095785459097E-1  -2.114231590926648E-1  -9.345195048053633E-1  -1.991047541797161E-1  -2.575466002454051E-3  -1.302529420891688E-1  
 4.054763690922730E9    -1.464626893401146E-2  -1.461871541425832E-1  -9.368986243951348E-1  -2.103292895853519E-1  -9.354565842512418E-1  -1.971302565932274E-1   3.211054978892207E-3  -1.291318546825569E-1  
 4.055513878469617E9    -1.277298099361360E-2  -1.429479969874784E-1  -9.383815168906868E-1  -2.100533664226532E-1  -9.358603664075453E-1  -1.961249302327633E-1   1.749789824243635E-3  -1.283103551826819E-1  
 4.056264066016504E9    -1.173566013574600E-2  -1.411356798174466E-1  -9.401184784033092E-1  -2.070632083714008E-1  -9.352965477671291E-1  -1.962108230590821E-1   3.688925654860214E-3  -1.309365963169770E-1  
 4.057014253563391E9    -9.271621769294145E-3  -1.419334639433785E-1  -9.408207433195283E-1  -2.056278507411480E-1  -9.361924486108274E-1  -1.940387809276581E-1   4.986091137398035E-3  -1.299053390445487E-1  
 4.057764441110278E9    -7.536023342981936E-3  -1.396980491627241E-1  -9.410366426533717E-1  -2.034004293382168E-1  -9.366787353843095E-1  -1.946963992714882E-1   1.066135443979874E-3  -1.289971343728098E-1  
 4.058514628657164E9    -9.362333184108139E-3  -1.409094360149592E-1  -9.424559279026962E-1  -2.030166280269623E-1  -9.368244045787140E-1  -1.923044823110104E-1   3.582075154408813E-3  -1.275266261392055E-1  
 4.059264816204051E9    -9.043788826093078E-3  -1.391045026289059E-1  -9.438160171426082E-1  -2.021924497187138E-1  -9.381363270431953E-1  -1.921291701495648E-1   3.760463059879840E-3  -1.267472501510061E-1  
 4.060015003750938E9    -6.893195933662356E-3  -1.381510012917898E-1  -9.430922600474838E-1  -2.003787244856358E-1  -9.379647945654579E-1  -1.921839776635170E-1   3.833331908099353E-3  -1.300044327929853E-1  
 4.060765191297824E9    -7.343423939310015E-3  -1.372290022572687E-1  -9.448779504656006E-1  -1.975463379919529E-1  -9.391319253096337E-1  -1.915938007831574E-1   8.763801265922666E-4  -1.290084928984343E-1  
 4.061515378844711E9    -8.911135951057076E-3  -1.379189073086475E-1  -9.449994855834177E-1  -1.976775513589383E-1  -9.399562069941113E-1  -1.919320675730706E-1   4.009632527595385E-3  -1.316224639460565E-1  
 4.062265566391598E9    -6.482063294388355E-3  -1.357247414098882E-1  -9.471979135457034E-1  -1.946718011796474E-1  -9.408109654987016E-1  -1.906738491356373E-1   2.298781485296786E-3  -1.292586064633076E-1  
 4.063015753938485E9    -7.195683368481696E-3  -1.334563972171967E-1  -9.486231612393183E-1  -1.920717681944371E-1  -9.417760877419870E-1  -1.891779898107052E-1   4.463518387638032E-3  -1.288911022995507E-1  
 4.063765941485371E9    -1.013790806755423E-2  -1.334021696742101E-1  -9.493644939391025E-1  -1.898756730556488E-1  -9.435625813183188E-1  -1.864866606891155E-1   8.956645098514857E-3  -1.271444620953277E-1  
 4.064516129032258E9    -9.130813870579006E-3  -1.311624989936723E-1  -9.498348015175728E-1  -1.884357561171055E-1  -9.441745349120904E-1  -1.859166356921196E-1   6.321626855060459E-3  -1.308999268778119E-1  
 4.065266316579145E9    -8.852590424939990E-3  -1.312811608194588E-1  -9.512347911647443E-1  -1.865680867433548E-1  -9.451378825600413E-1  -1.851718848943710E-1   7.336644111201168E-3  -1.283822600362404E-1  
 4.066016504126031E9    -5.339902006089688E-3  -1.312781161805180E-1  -9.510487153218680E-1  -1.840594892203809E-1  -9.465419721118089E-1  -1.839156702160836E-1   6.326493816450239E-3  -1.302063366457823E-1  
 4.066766691672918E9    -1.139045225456357E-2  -1.309566966393850E-1  -9.529972776838213E-1  -1.832097791135312E-1  -9.478875251753097E-1  -1.837633788585663E-1   5.704926534235710E-4  -1.294608346884349E-1  
 4.067516879219805E9    -1.058174581266940E-2  -1.294616823910376E-1  -9.534323702502763E-1  -1.798162338137627E-1  -9.496811568268569E-1  -1.821448493003845E-1   2.251700950437226E-3  -1.283637702385522E-1  
 4.068267066766692E9    -8.995036417618394E-3  -1.262661228595429E-1  -9.537664846707985E-1  -1.786938557028771E-1  -9.501035362819382E-1  -1.813329659402370E-1   5.131513671949506E-3  -1.311759423139978E-1  
 4.069017254313579E9    -1.081373122520745E-2  -1.248178954685001E-1  -9.549915994430385E-1  -1.756880614161492E-1  -9.522638588081805E-1  -1.788407878577709E-1   1.935461849789135E-3  -1.301835791109261E-1  
 4.069767441860465E9    -1.225221727043390E-2  -1.260457995218096E-1  -9.556500747898047E-1  -1.736062335968018E-1  -9.538574305459002E-1  -1.772927638888359E-1   2.893640336988028E-3  -1.258591041253737E-1  
