#  HZ   S   RI   R     50.0 
! Rohde & Schwarz ZVL13 2Ports - Version 3.31 - 1303.6509k13 SN: 101088
! Date: 2023-03-06 15:00:51
! Data & Calibration Information:
! Trc4:S11(TOSM) Trc2:S21(TOSM) Trc3:S12(TOSM) Trc5:S22(TOSM)
! 
! 
! 
 4.000000000000000E9     3.551857879804448E-3  -1.371882002960677E-1  -9.059216459589210E-1  -3.143107840776444E-1  -9.112849168108707E-1  -2.918130157619714E-1   1.656945170834661E-2  -1.311880368523793E-1  
 4.000750187546887E9     3.691835110483226E-3  -1.361287029700624E-1  -9.052784584156505E-1  -3.151030971765518E-1  -9.115752787804503E-1  -2.943529819667340E-1   2.107195904329419E-2  -1.364878208256391E-1  
 4.001500375093773E9     4.113118748716079E-3  -1.328397876904862E-1  -9.063617977310775E-1  -3.138633374065162E-1  -9.106984511478757E-1  -2.941489177137613E-1   2.008582928180695E-2  -1.392646778850769E-1  
 4.002250562640660E9     2.238327748829034E-3  -1.344806968598910E-1  -9.068797268386390E-1  -3.122462364912033E-1  -9.099881991637773E-1  -2.933299819409848E-1   1.999516249597073E-2  -1.392151620330669E-1  
 4.003000750187547E9     4.000457891472616E-3  -1.325330085073629E-1  -9.090706305760307E-1  -3.115442948430778E-1  -9.097002225271843E-1  -2.925704119473695E-1   1.851742346175016E-2  -1.341749907702673E-1  
 4.003750937734434E9     1.496008551810519E-4  -1.312705358187674E-1  -9.103906440676874E-1  -3.117960790723562E-1  -9.085289360515043E-1  -2.930532411277295E-1   1.785907573616133E-2  -1.359838655658992E-1  
 4.004501125281320E9     1.952743911615108E-3  -1.293192574253526E-1  -9.126558310634957E-1  -3.096453269541264E-1  -9.103772282260993E-1  -2.926069366872310E-1   2.049694876596332E-2  -1.326170121756491E-1  
 4.005251312828207E9     2.565523113112431E-3  -1.289579916459316E-1  -9.135635729165614E-1  -3.088504173904658E-1  -9.106516704961672E-1  -2.926425279736519E-1   1.741009603943676E-2  -1.346973579844323E-1  
 4.006001500375094E9     1.637566424781107E-3  -1.278774470154352E-1  -9.149058731592180E-1  -3.072106255352498E-1  -9.099606514561358E-1  -2.906103973031045E-1   2.133764086291195E-2  -1.333338993578668E-1  
 4.006751687921980E9     2.544765597465448E-3  -1.276384121677709E-1  -9.155504146963129E-1  -3.055239141136408E-1  -9.100230220494745E-1  -2.897852041721344E-1   2.290194111075252E-2  -1.384314973342706E-1  
 4.007501875468867E9    -1.138041390798753E-3  -1.264736046223612E-1  -9.180979079224826E-1  -3.037339924722910E-1  -9.126841235112310E-1  -2.898522085726261E-1   1.859722534921020E-2  -1.303337742099742E-1  
 4.008252063015754E9    -2.990279226047051E-4  -1.268973586299961E-1  -9.183417498062910E-1  -3.020052206873894E-1  -9.122647921085210E-1  -2.896251247435809E-1   2.211104512084276E-2  -1.372732148732219E-1  
 4.009002250562641E9    -3.410367342142855E-3  -1.278847629747006E-1  -9.189607279890371E-1  -3.014214930534363E-1  -9.117055083526156E-1  -2.897141620725394E-1   2.666875348463655E-2  -1.407383915975530E-1  
 4.009752438109528E9    -3.520283891796134E-3  -1.279836425278252E-1  -9.212301018854919E-1  -3.003792266875506E-1  -9.133646247295999E-1  -2.895909927576781E-1   1.996027204971761E-2  -1.362122358115940E-1  
 4.010502625656414E9    -2.349418300169054E-3  -1.266832165529747E-1  -9.235195811884778E-1  -2.974825968652964E-1  -9.136041724007438E-1  -2.885521157324315E-1   1.846036561653018E-2  -1.404499172733954E-1  
 4.011252813203301E9    -4.332680728100242E-3  -1.271587173396477E-1  -9.255139165938148E-1  -2.954795204579830E-1  -9.149571653218038E-1  -2.880022192120552E-1   1.700849977508187E-2  -1.334558067844418E-1  
 4.012003000750187E9    -6.135268788225949E-3  -1.277297785624931E-1  -9.245432243905477E-1  -2.948745633304120E-1  -9.147720635418876E-1  -2.880498236119747E-1   2.518272179178894E-2  -1.402898797028888E-1  
 4.012753188297074E9    -5.920095338067042E-3  -1.261050066959088E-1  -9.272475075876033E-1  -2.929995374888182E-1  -9.180033898194028E-1  -2.877123657017947E-1   1.625834591230378E-2  -1.411155443748774E-1  
 4.013503375843961E9    -6.689084844384344E-3  -1.257648731550964E-1  -9.285134083868762E-1  -2.906416942447424E-1  -9.180274366806774E-1  -2.866738161742687E-1   1.740007649976760E-2  -1.422889056268998E-1  
 4.014253563390848E9    -7.605029742326589E-3  -1.265732825409241E-1  -9.310165442259362E-1  -2.888457688361407E-1  -9.195270829347867E-1  -2.863615705102682E-1   1.343595171533525E-2  -1.385902639564765E-1  
 4.015003750937735E9    -8.912392064835876E-3  -1.273596513053095E-1  -9.296401120521456E-1  -2.899459915995599E-1  -9.213698958684734E-1  -2.859550245016814E-1   1.577303235968575E-2  -1.376145289745889E-1  
 4.015753938484621E9    -1.171573762688786E-2  -1.254434020521508E-1  -9.338847517620907E-1  -2.833038855135441E-1  -9.227467010643908E-1  -2.865240991532803E-1   1.099178549237549E-2  -1.350691927659746E-1  
 4.016504126031508E9    -1.245463679218665E-2  -1.267567923815222E-1  -9.351208423437314E-1  -2.802211794286966E-1  -9.232644230402013E-1  -2.856695869684220E-1   1.416801786813885E-2  -1.398106802533752E-1  
 4.017254313578394E9    -1.418150673396885E-2  -1.272414879022139E-1  -9.345187159139246E-1  -2.796690147459507E-1  -9.258694839507233E-1  -2.826113952338696E-1   1.509342615259811E-2  -1.377513377463248E-1  
 4.018004501125281E9    -1.590848160199821E-2  -1.252625720075595E-1  -9.363978528708850E-1  -2.784682119369507E-1  -9.264598873921226E-1  -2.831797023147345E-1   1.189942328631878E-2  -1.371325934572941E-1  
 4.018754688672168E9    -1.604628620836884E-2  -1.272133040289140E-1  -9.367107746439466E-1  -2.781842249572277E-1  -9.288187780853222E-1  -2.799839491486550E-1   1.024305531112478E-2  -1.404298007064931E-1  
 4.019504876219055E9    -1.921239299587905E-2  -1.253379703236496E-1  -9.392959514892527E-1  -2.739468065708876E-1  -9.308188456267655E-1  -2.767108286142350E-1   1.281087546646595E-2  -1.424985445259140E-1  
 4.020255063765942E9    -1.686151855643839E-2  -1.254754147062505E-1  -9.389233305587132E-1  -2.692149885982275E-1  -9.328405883668277E-1  -2.765949645012617E-1   7.399487759685144E-3  -1.391733547942338E-1  
 4.021005251312828E9    -1.924193936400116E-2  -1.269810109149250E-1  -9.408851050314040E-1  -2.676001841157675E-1  -9.333915560253504E-1  -2.770702819526196E-1   5.910435604187660E-3  -1.456213288940588E-1  
 4.021755438859715E9    -2.287302429452539E-2  -1.286336397817452E-1  -9.409447909406810E-1  -2.651913769155743E-1  -9.345487904538283E-1  -2.733557095944881E-1   8.125193385221066E-3  -1.384105596983425E-1  
 4.022505626406601E9    -2.053124031163752E-2  -1.288165243894550E-1  -9.410151988499103E-1  -2.628973357498646E-1  -9.363559355238043E-1  -2.712309447705746E-1   1.126281440183521E-2  -1.387988479757161E-1  
 4.023255813953488E9    -2.293317600749434E-2  -1.239391091453089E-1  -9.411817708593290E-1  -2.579317671626806E-1  -9.387098516103115E-1  -2.690455933481455E-1   7.501391616975889E-3  -1.368498957341591E-1  
 4.024006001500375E9    -2.324065401367843E-2  -1.267891116919372E-1  -9.412685734227065E-1  -2.569274533778430E-1  -9.402328878906243E-1  -2.666624809354543E-1   4.486464698356577E-3  -1.349852347332242E-1  
 4.024756189047262E9    -2.238948927801103E-2  -1.275511517374814E-1  -9.413235016362314E-1  -2.548830836653709E-1  -9.415195238815823E-1  -2.639445412129164E-1   7.245396102312954E-3  -1.334106894704751E-1  
 4.025506376594149E9    -2.412315374650062E-2  -1.293480203934141E-1  -9.414890922342698E-1  -2.509089496016502E-1  -9.428889812484278E-1  -2.612537908852101E-1   1.296068786963588E-3  -1.339508499840131E-1  
 4.026256564141035E9    -2.654163535721601E-2  -1.265580871608853E-1  -9.414311109006912E-1  -2.493301239714027E-1  -9.433770680325014E-1  -2.598970875948667E-1   8.146774262655527E-3  -1.343982948094231E-1  
 4.027006751687922E9    -2.539374639336020E-2  -1.277288040009678E-1  -9.416872125609099E-1  -2.468035935938358E-1  -9.452892098957093E-1  -2.576341602861881E-1   3.883146507130005E-3  -1.369059594995853E-1  
 4.027756939234809E9    -2.569382876325399E-2  -1.295064869891037E-1  -9.406272634270312E-1  -2.468029752448201E-1  -9.454420071616820E-1  -2.563525395214558E-1   4.125307561794763E-3  -1.350936784903344E-1  
 4.028507126781695E9    -2.908143587671221E-2  -1.296332571029969E-1  -9.406296226962253E-1  -2.445941172271967E-1  -9.461915394713973E-1  -2.536789715558291E-1   6.827578049292789E-3  -1.355237893770527E-1  
 4.029257314328582E9    -2.732773596290499E-2  -1.313928374341452E-1  -9.406349680518141E-1  -2.412336688026787E-1  -9.473280139696181E-1  -2.489681192710996E-1   5.461508726980538E-3  -1.359191564352137E-1  
 4.030007501875469E9    -2.633438639249653E-2  -1.310843085188427E-1  -9.414509077421241E-1  -2.374199830934406E-1  -9.487802574927904E-1  -2.458789019286633E-1   2.523374628054444E-3  -1.383609579757377E-1  
 4.030757689422356E9    -2.705813979022205E-2  -1.316748568394855E-1  -9.389742099465623E-1  -2.376388599500061E-1  -9.496345660732679E-1  -2.427206241652370E-1  -1.837023028563635E-4  -1.346124478316434E-1  
 4.031507876969242E9    -2.503185651600361E-2  -1.321801305299128E-1  -9.392909487747161E-1  -2.349732687696815E-1  -9.487255257973323E-1  -2.406006595656276E-1   7.920675190445037E-3  -1.329781333305541E-1  
 4.032258064516129E9    -2.694942065011710E-2  -1.326228765265199E-1  -9.380633788875002E-1  -2.304401869311930E-1  -9.501385511425895E-1  -2.343394209221006E-1   1.448019431849389E-3  -1.336614509109466E-1  
 4.033008252063016E9    -2.660530490279198E-2  -1.349227551729232E-1  -9.375545873096876E-1  -2.310874175637961E-1  -9.493527462527683E-1  -2.341832392424345E-1   1.921943844488124E-3  -1.363283051475316E-1  
 4.033758439609902E9    -2.696437895707786E-2  -1.372518957764101E-1  -9.382583863589875E-1  -2.290430256873370E-1  -9.485294383176381E-1  -2.337027981728315E-1   2.134414139186266E-3  -1.327854373689822E-1  
 4.034508627156789E9    -2.585089085176588E-2  -1.375985722827474E-1  -9.368073269770374E-1  -2.271472997635604E-1  -9.481735924561786E-1  -2.309236802205444E-1   2.100449081597618E-4  -1.348801451203227E-1  
 4.035258814703676E9    -2.774667735490949E-2  -1.394101582911476E-1  -9.365602037581592E-1  -2.281025489538908E-1  -9.486379655314180E-1  -2.282751890972257E-1   4.772155532380567E-3  -1.330814632459377E-1  
 4.036009002250563E9    -2.437275997214020E-2  -1.410779653589974E-1  -9.359055283954190E-1  -2.276194134533406E-1  -9.493937288941206E-1  -2.258651399314404E-1   5.488287554064300E-3  -1.356570229163757E-1  
 4.036759189797450E9    -2.601201256923378E-2  -1.393340026786383E-1  -9.364570290822041E-1  -2.232109725549818E-1  -9.477575746592100E-1  -2.247209624320269E-1   3.917519096774049E-3  -1.319050136411883E-1  
 4.037509377344336E9    -2.563316622879357E-2  -1.409522483243295E-1  -9.342918381731113E-1  -2.236614043205977E-1  -9.479545117965034E-1  -2.212102509409190E-1   2.512296716345008E-3  -1.337047139867367E-1  
 4.038259564891223E9    -2.488173784893006E-2  -1.407018751398076E-1  -9.342786500899246E-1  -2.215462367177010E-1  -9.485256075195758E-1  -2.177567123249173E-1   9.381779333838494E-4  -1.386982543326110E-1  
 4.039009752438109E9    -2.470338786710054E-2  -1.436912273044438E-1  -9.332876357668440E-1  -2.210784361541271E-1  -9.476184444417292E-1  -2.169964313924313E-1   4.915355279855432E-3  -1.332701182132857E-1  
 4.039759939984996E9    -2.292390377931297E-2  -1.448165612513890E-1  -9.336291763299751E-1  -2.203718017652631E-1  -9.472636833116384E-1  -2.132516992345453E-1   3.136562460754067E-3  -1.357587909736222E-1  
 4.040510127531883E9    -2.461610537916422E-2  -1.440158494628017E-1  -9.328474510958422E-1  -2.193608874142171E-1  -9.461478838713738E-1  -2.101275084510446E-1  -1.346690598994610E-3  -1.394128917477035E-1  
 4.041260315078770E9    -2.260802932102233E-2  -1.470541050687254E-1  -9.320188402994706E-1  -2.180171374157071E-1  -9.444670526891048E-1  -2.085422632366419E-1  -2.814879475443741E-3  -1.355500938019183E-1  
 4.042010502625657E9    -2.433489107042552E-2  -1.467145198627942E-1  -9.316642057357941E-1  -2.161736275836826E-1  -9.447698035731378E-1  -2.075109322696925E-1  -5.152641391920043E-4  -1.321243710841831E-1  
 4.042760690172543E9    -2.435473541989923E-2  -1.460077989681365E-1  -9.324911087737752E-1  -2.154044023022056E-1  -9.446725531757603E-1  -2.058831756412984E-1  -2.515405933835428E-3  -1.368871859676680E-1  
 4.043510877719430E9    -2.461921573411674E-2  -1.459743464526331E-1  -9.329257378525658E-1  -2.148898038834333E-1  -9.428684799476883E-1  -2.040679634556175E-1   3.553998971539840E-4  -1.354790650736110E-1  
 4.044261065266316E9    -2.334566253051162E-2  -1.490855558841044E-1  -9.318021251973199E-1  -2.135419533982873E-1  -9.419356170715829E-1  -2.017498965963721E-1  -2.249688654491912E-3  -1.317832323823273E-1  
 4.045011252813203E9    -2.379928857833148E-2  -1.477521495074275E-1  -9.311731401882365E-1  -2.133509641304612E-1  -9.409281005711923E-1  -2.004037669032812E-1  -2.543575444974704E-3  -1.308590807953177E-1  
 4.045761440360090E9    -2.328615693747998E-2  -1.475504582171146E-1  -9.328659603453297E-1  -2.133019863829017E-1  -9.408360368433663E-1  -1.982585246473551E-1   5.058878675801681E-4  -1.292443540699907E-1  
 4.046511627906977E9    -2.248808522894979E-2  -1.490021443542488E-1  -9.311224951293183E-1  -2.126857503756881E-1  -9.401685915633254E-1  -1.981461921826005E-1  -4.560243277368137E-3  -1.329983938615071E-1  
 4.047261815453864E9    -2.197569972835481E-2  -1.501458350601994E-1  -9.325388647195222E-1  -2.125962117940188E-1  -9.392401603324687E-1  -1.963122142970562E-1  -1.332141003380821E-3  -1.309802128413245E-1  
 4.048012003000750E9    -1.995803100708872E-2  -1.476876032797404E-1  -9.339168635444735E-1  -2.103299451321364E-1  -9.392218966946700E-1  -1.942525520712137E-1   3.029358425620013E-3  -1.314854377941580E-1  
 4.048762190547637E9    -2.124786817841232E-2  -1.504160159054032E-1  -9.329114967570648E-1  -2.102443132102490E-1  -9.368627734537529E-1  -1.943024581521750E-1  -5.112583040609024E-3  -1.306159604844284E-1  
 4.049512378094523E9    -2.265414496790618E-2  -1.487129435940761E-1  -9.330403068188459E-1  -2.083905173823237E-1  -9.364724085894248E-1  -1.924722087651491E-1   1.244704550065217E-3  -1.331168369570618E-1  
 4.050262565641410E9    -2.191225478798151E-2  -1.496224477429277E-1  -9.337611652311108E-1  -2.073022401243449E-1  -9.367983199936277E-1  -1.920570414513350E-1  -5.324227098748454E-4  -1.306470363442120E-1  
 4.051012753188297E9    -2.066199153270572E-2  -1.497997359316806E-1  -9.350905089606406E-1  -2.067431784525514E-1  -9.379389903887071E-1  -1.915407695919275E-1  -2.812371857709877E-4  -1.300012742363153E-1  
 4.051762940735184E9    -1.682245795149356E-2  -1.460652096110286E-1  -9.370609493958725E-1  -2.042916383937002E-1  -9.371639443195498E-1  -1.903095789998770E-1   3.681951408878377E-4  -1.271814869657908E-1  
 4.052513128282071E9    -1.973376380652190E-2  -1.469270625518485E-1  -9.367343166755707E-1  -2.058010899409652E-1  -9.354669991406708E-1  -1.912197154372931E-1  -4.190593948226888E-3  -1.307974189840523E-1  
 4.053263315828957E9    -1.462194808237255E-2  -1.479699408526196E-1  -9.368250190298222E-1  -2.032676723971964E-1  -9.363916821733733E-1  -1.887581429377199E-1   1.138940789256594E-3  -1.357595458818464E-1  
 4.054013503375844E9    -1.651549262600020E-2  -1.471914599428188E-1  -9.380110099901240E-1  -2.026314002797008E-1  -9.349643981280718E-1  -1.896908545568586E-1  -6.487270827265457E-3  -1.323927129123765E-1  
 4.054763690922730E9    -1.695505129322410E-2  -1.494994558521169E-1  -9.380605078959666E-1  -2.004871598780156E-1  -9.358792819297906E-1  -1.877967379719019E-1  -1.936074395896869E-4  -1.314436017736292E-1  
 4.055513878469617E9    -1.487979484330863E-2  -1.462488074081289E-1  -9.392581250697164E-1  -2.007656340330840E-1  -9.364289098060402E-1  -1.866180912584067E-1  -2.090228141505941E-3  -1.311549477901547E-1  
 4.056264066016504E9    -1.361356891756877E-2  -1.443149003459598E-1  -9.411570442411124E-1  -1.981417732939125E-1  -9.359844303009165E-1  -1.867722328558564E-1   1.292244409531123E-4  -1.333950840629540E-1  
 4.057014253563391E9    -1.129160919114948E-2  -1.458218892526189E-1  -9.419443462252004E-1  -1.962443606615067E-1  -9.367607409592735E-1  -1.841782256335021E-1   1.094979728403632E-3  -1.323842038737554E-1  
 4.057764441110278E9    -9.422394832037391E-3  -1.436872806230778E-1  -9.422401624324815E-1  -1.939443345770240E-1  -9.377564593446339E-1  -1.847716917902231E-1  -3.831913186307066E-3  -1.321233709461827E-1  
 4.058514628657164E9    -1.124823459275067E-2  -1.443673509594663E-1  -9.433228569992722E-1  -1.941116553917527E-1  -9.375507873476923E-1  -1.828114185243845E-1   1.075672136983484E-4  -1.306834087916333E-1  
 4.059264816204051E9    -1.091007677530870E-2  -1.423185810476457E-1  -9.447797626054136E-1  -1.923151997894049E-1  -9.389070182540855E-1  -1.826394233152270E-1   2.283760563994293E-4  -1.299889314641398E-1  
 4.060015003750938E9    -8.738442723872140E-3  -1.420960525089720E-1  -9.446571614297924E-1  -1.903237303510309E-1  -9.387882872503163E-1  -1.820860044941307E-1  -5.113834437404876E-4  -1.327660909349882E-1  
 4.060765191297824E9    -9.268092681933196E-3  -1.406703161714049E-1  -9.460384726539073E-1  -1.877392129167914E-1  -9.401705438420829E-1  -1.816545616149903E-1  -2.641098414023873E-3  -1.323629351070971E-1  
 4.061515378844711E9    -1.068938226019964E-2  -1.418424311512194E-1  -9.461430867012006E-1  -1.880167902633548E-1  -9.406669754195296E-1  -1.821972892507911E-1  -2.425781467087291E-4  -1.353345991706304E-1  
 4.062265566391598E9    -8.089155322313309E-3  -1.394376201751584E-1  -9.485010883979544E-1  -1.849786915302277E-1  -9.415121334772464E-1  -1.808993012130261E-1  -2.312777217919938E-3  -1.332105440725848E-1  
 4.063015753938485E9    -8.895432292018083E-3  -1.376659532146485E-1  -9.496791955600726E-1  -1.825139317274094E-1  -9.427274095844666E-1  -1.791893192216754E-1   1.441027755745745E-3  -1.327699384230815E-1  
 4.063765941485371E9    -1.166858667880297E-2  -1.375208711179488E-1  -9.501666142271069E-1  -1.804984761431814E-1  -9.442700895626086E-1  -1.772098950803280E-1   4.340350035182199E-3  -1.301298533150192E-1  
 4.064516129032258E9    -1.109441925343126E-2  -1.351680510755620E-1  -9.507894412253779E-1  -1.784209031566978E-1  -9.449605021824661E-1  -1.766228996053339E-1   2.982132280577207E-3  -1.340636643325174E-1  
 4.065266316579145E9    -1.069184066029266E-2  -1.351591743411733E-1  -9.521257048232665E-1  -1.770841063112021E-1  -9.461749148992231E-1  -1.751300202235580E-1   3.596513904735912E-3  -1.325962437380100E-1  
 4.066016504126031E9    -7.336923967720941E-3  -1.351917334514842E-1  -9.520461446439905E-1  -1.747592440769077E-1  -9.469658442442130E-1  -1.740859572365880E-1   2.496529868815560E-3  -1.356614193615067E-1  
 4.066766691672918E9    -1.325122288800776E-2  -1.348939888969222E-1  -9.540539079131215E-1  -1.738497970327735E-1  -9.489824006359766E-1  -1.739605179309845E-1  -2.972841704008169E-3  -1.337976101868016E-1  
 4.067516879219805E9    -1.237666215421632E-2  -1.336437458916686E-1  -9.542383896755486E-1  -1.701959712386131E-1  -9.505524609752427E-1  -1.725304040327669E-1  -1.116123041746141E-3  -1.326172860208999E-1  
 4.068267066766692E9    -1.109684113375843E-2  -1.299025025217133E-1  -9.549836291313347E-1  -1.679861326575280E-1  -9.510610600260839E-1  -1.709890650853515E-1   2.978660502914864E-4  -1.351201561195322E-1  
 4.069017254313579E9    -1.255534074613825E-2  -1.284205476564641E-1  -9.557854884846910E-1  -1.652614438489080E-1  -9.532309520500940E-1  -1.687101329892874E-1  -1.971901783137583E-3  -1.345650443301247E-1  
 4.069767441860465E9    -1.434431451065466E-2  -1.298408336091398E-1  -9.567669803029267E-1  -1.632521341487765E-1  -9.547275769225768E-1  -1.673088449791074E-1  -7.132474692264623E-4  -1.306071508237817E-1  
