#  HZ   S   RI   R     50.0 
! Rohde & Schwarz ZVL13 2Ports - Version 3.31 - 1303.6509k13 SN: 101088
! Date: 2023-03-06 15:07:31
! Data & Calibration Information:
! Trc4:S11(TOSM) Trc2:S21(TOSM) Trc3:S12(TOSM) Trc5:S22(TOSM)
! 
! 
! 
 4.000000000000000E9     3.805221735965461E-3  -1.338915724488987E-1  -9.069745587236457E-1  -3.139190623164178E-1  -9.123381204906329E-1  -2.926948568224908E-1   1.809219770133496E-2  -1.276029007138372E-1  
 4.000750187546887E9     3.811591106932611E-3  -1.331264293950790E-1  -9.064400947615248E-1  -3.145973244309426E-1  -9.123125487704320E-1  -2.948353531956673E-1   2.150960315018893E-2  -1.327199658116277E-1  
 4.001500375093773E9     3.785945239942521E-3  -1.294081138059673E-1  -9.069814416259909E-1  -3.131394806504250E-1  -9.118053597760361E-1  -2.939611405134201E-1   2.181269543245435E-2  -1.365574082848945E-1  
 4.002250562640660E9     1.714178230031394E-3  -1.308536969284350E-1  -9.072616038452457E-1  -3.123761907219887E-1  -9.109605422035987E-1  -2.940576562285424E-1   2.195605849847198E-2  -1.358714412913861E-1  
 4.003000750187547E9     3.731761993840337E-3  -1.289154231412449E-1  -9.099550459347690E-1  -3.110778868198394E-1  -9.112051365193113E-1  -2.926935446262360E-1   2.050959890708328E-2  -1.297322771320308E-1  
 4.003750937734434E9     3.122671564051416E-4  -1.278637633613606E-1  -9.111629718692015E-1  -3.115347158908843E-1  -9.096713031585627E-1  -2.928587111830712E-1   1.921177474781871E-2  -1.324265023721348E-1  
 4.004501125281320E9     1.534504658775404E-3  -1.261417935924877E-1  -9.134393710078415E-1  -3.091755419969560E-1  -9.115281343264938E-1  -2.927126342058182E-1   2.031232560053468E-2  -1.291200263194344E-1  
 4.005251312828207E9     2.613221319625154E-3  -1.262143841231968E-1  -9.145084767468823E-1  -3.090054345130920E-1  -9.116775774102980E-1  -2.926666092872620E-1   1.741684641689062E-2  -1.310709398383799E-1  
 4.006001500375094E9     8.115317422652880E-4  -1.247948236613452E-1  -9.153191773981854E-1  -3.068134111166001E-1  -9.110129113983299E-1  -2.909927761554719E-1   2.229792648926378E-2  -1.296591254854674E-1  
 4.006751687921980E9     2.490451437188313E-3  -1.245277172942158E-1  -9.164084917854896E-1  -3.050940719246865E-1  -9.110651640810401E-1  -2.908126404881478E-1   2.300119422376156E-2  -1.341250777982210E-1  
 4.007501875468867E9    -9.884205285925420E-4  -1.236886502773088E-1  -9.188531371937776E-1  -3.033780702948571E-1  -9.136000697687644E-1  -2.899206367135048E-1   1.931089140474796E-2  -1.261867675545814E-1  
 4.008252063015754E9    -3.382272421367816E-4  -1.233949670398105E-1  -9.187304555779137E-1  -3.013342693448067E-1  -9.132239538031830E-1  -2.897541379928589E-1   2.275651797652245E-2  -1.340469030036177E-1  
 4.009002250562641E9    -2.868721297709272E-3  -1.250340430343345E-1  -9.197555521548764E-1  -3.011427009105683E-1  -9.125282150663940E-1  -2.894930008053780E-1   2.683039225637913E-2  -1.357811385575069E-1  
 4.009752438109528E9    -3.457142831757665E-3  -1.251672160384267E-1  -9.216548495258674E-1  -3.001684650778770E-1  -9.141118635834420E-1  -2.895166131854057E-1   2.085717007517815E-2  -1.320046678855907E-1  
 4.010502625656414E9    -2.029423757921905E-3  -1.234862256260515E-1  -9.240199025062809E-1  -2.972249490022659E-1  -9.146222723189954E-1  -2.882945698499679E-1   1.875900337472558E-2  -1.361155569076414E-1  
 4.011252813203301E9    -3.651815231423825E-3  -1.236634718189702E-1  -9.261680966135738E-1  -2.952981415390968E-1  -9.156979319995361E-1  -2.883053189516068E-1   1.645253208465874E-2  -1.297331096633551E-1  
 4.012003000750187E9    -5.753174843266607E-3  -1.247925306760215E-1  -9.254057095542886E-1  -2.938257867097855E-1  -9.159875765040728E-1  -2.874338102340699E-1   2.481543850153685E-2  -1.360259098103603E-1  
 4.012753188297074E9    -5.229724510572851E-3  -1.234564318023370E-1  -9.279041963368995E-1  -2.929068845510483E-1  -9.185103328247181E-1  -2.882479175925255E-1   1.588839022442699E-2  -1.377002856706477E-1  
 4.013503375843961E9    -5.388662251643837E-3  -1.231065941460099E-1  -9.293842966099563E-1  -2.904453036189080E-1  -9.184122629311452E-1  -2.870836344361306E-1   1.710674839094281E-2  -1.381236404523167E-1  
 4.014253563390848E9    -6.899946318008007E-3  -1.235456137355322E-1  -9.314951348964917E-1  -2.889072552323342E-1  -9.201891982550901E-1  -2.864830347895622E-1   1.300637835636735E-2  -1.347807142015285E-1  
 4.015003750937735E9    -7.987199136987328E-3  -1.245283125581455E-1  -9.304421064169979E-1  -2.895288848876954E-1  -9.219535565675392E-1  -2.857499545812606E-1   1.528366555459798E-2  -1.334063779048066E-1  
 4.015753938484621E9    -1.038774869404733E-2  -1.228079709149764E-1  -9.342127770834161E-1  -2.838691860437393E-1  -9.229663173429723E-1  -2.867097103595734E-1   1.050680099986494E-2  -1.318967619405879E-1  
 4.016504126031508E9    -1.120288704521954E-2  -1.243012941866091E-1  -9.351934352748710E-1  -2.806143325567246E-1  -9.233693928158809E-1  -2.865168297290802E-1   1.320292590186000E-2  -1.358255716851935E-1  
 4.017254313578394E9    -1.290957687422633E-2  -1.246443406604125E-1  -9.347361657679600E-1  -2.800533097982407E-1  -9.263057570161881E-1  -2.823928090929985E-1   1.452516894787550E-2  -1.343817549785268E-1  
 4.018004501125281E9    -1.407928999513388E-2  -1.226788503582057E-1  -9.363883443135880E-1  -2.789605355262758E-1  -9.267104452268989E-1  -2.830870550870896E-1   1.285819513723254E-2  -1.330270652102980E-1  
 4.018754688672168E9    -1.424102876335383E-2  -1.251079628832564E-1  -9.372214045437367E-1  -2.781303682923317E-1  -9.290877524045800E-1  -2.798868533968926E-1   9.511045068502427E-3  -1.371900774148909E-1  
 4.019504876219055E9    -1.804484197869898E-2  -1.229474546737141E-1  -9.396635280571525E-1  -2.736196756362915E-1  -9.314718079605306E-1  -2.764066898822785E-1   1.186920730397105E-2  -1.389694063604469E-1  
 4.020255063765942E9    -1.555267599411309E-2  -1.228720128017682E-1  -9.393203516579907E-1  -2.691477346420289E-1  -9.334683855600560E-1  -2.757705312967300E-1   6.048258452210575E-3  -1.352691561659755E-1  
 4.021005251312828E9    -1.800876198336483E-2  -1.249028724627902E-1  -9.409207495355821E-1  -2.677862578630447E-1  -9.341546104799811E-1  -2.768584218621255E-1   4.701476271729917E-3  -1.413672094210463E-1  
 4.021755438859715E9    -2.086129030212761E-2  -1.261038986281043E-1  -9.413568457837674E-1  -2.654154863953591E-1  -9.348019846276390E-1  -2.736021426320076E-1   7.817333773709833E-3  -1.347776167803031E-1  
 4.022505626406601E9    -1.915372053161264E-2  -1.268616352152142E-1  -9.416184480333737E-1  -2.625966122746468E-1  -9.370239081872078E-1  -2.716475144028664E-1   9.523105551488699E-3  -1.351028316847235E-1  
 4.023255813953488E9    -2.162824181839824E-2  -1.218389894572744E-1  -9.420502024487071E-1  -2.583822733163834E-1  -9.388837765610016E-1  -2.693065753579140E-1   6.067331964150071E-3  -1.341931381523304E-1  
 4.024006001500375E9    -2.159796392545104E-2  -1.246729547278829E-1  -9.419258207974430E-1  -2.573817980289460E-1  -9.408182079519681E-1  -2.671673643589020E-1   2.946848855353893E-3  -1.319853499970755E-1  
 4.024756189047262E9    -2.039262199774385E-2  -1.254451277647495E-1  -9.420537040686856E-1  -2.547587877511979E-1  -9.416911800807110E-1  -2.638049125671387E-1   6.249748114496471E-3  -1.301061139179061E-1  
 4.025506376594149E9    -2.238163579255343E-2  -1.274530365048303E-1  -9.423051523562980E-1  -2.511016258597374E-1  -9.434518019532970E-1  -2.617985880374908E-1  -6.342406719340933E-5  -1.314692805608169E-1  
 4.026256564141035E9    -2.440840842202306E-2  -1.246316041938729E-1  -9.418981229196262E-1  -2.497311213612557E-1  -9.436017894663822E-1  -2.609399855136871E-1   6.624375144019724E-3  -1.323231614206268E-1  
 4.027006751687922E9    -2.354498723521829E-2  -1.260390471375318E-1  -9.423982552687084E-1  -2.470307241380215E-1  -9.459147708049804E-1  -2.579784682393074E-1   1.326600483444054E-3  -1.346050030841867E-1  
 4.027756939234809E9    -2.368580648675561E-2  -1.273525475458138E-1  -9.411682921956901E-1  -2.474018605053425E-1  -9.461050268394611E-1  -2.562911227345467E-1   2.647017730632797E-3  -1.321807674939247E-1  
 4.028507126781695E9    -2.744672901928425E-2  -1.275683503258583E-1  -9.412722674494951E-1  -2.452998284995556E-1  -9.466892973271199E-1  -2.542810067534447E-1   5.000572823919356E-3  -1.333368339566650E-1  
 4.029257314328582E9    -2.562035704031587E-2  -1.291187868612355E-1  -9.411221185303929E-1  -2.418538656830788E-1  -9.480432058923421E-1  -2.491028235852718E-1   3.824803195893765E-3  -1.327643418746100E-1  
 4.030007501875469E9    -2.409588837996125E-2  -1.296107761080625E-1  -9.422727345743416E-1  -2.373760449886322E-1  -9.492233467561583E-1  -2.463296543061733E-1   1.707069649128243E-3  -1.356564251102095E-1  
 4.030757689422356E9    -2.503266436979175E-2  -1.293792127610732E-1  -9.395028065883921E-1  -2.379796184599400E-1  -9.505495755119029E-1  -2.428243175148964E-1  -1.964311029296368E-3  -1.327923414053528E-1  
 4.031507876969242E9    -2.297984484583139E-2  -1.303466887893776E-1  -9.398166448240080E-1  -2.356048026680947E-1  -9.491790420418562E-1  -2.414924313127995E-1   6.021568179130555E-3  -1.307992480498462E-1  
 4.032258064516129E9    -2.530217973515392E-2  -1.307326910570268E-1  -9.386546685070805E-1  -2.318959644436836E-1  -9.508435024507690E-1  -2.348020175099373E-1  -3.886631751083768E-4  -1.311613561837427E-1  
 4.033008252063016E9    -2.445606153458357E-2  -1.325398901356527E-1  -9.382541811321076E-1  -2.321113055944443E-1  -9.500540569825193E-1  -2.352097998559475E-1   1.110311363590882E-3  -1.334685551962687E-1  
 4.033758439609902E9    -2.471504105255008E-2  -1.353395234374175E-1  -9.385898454935190E-1  -2.299747455120087E-1  -9.490145660801912E-1  -2.343421098589897E-1   1.057704727645614E-3  -1.307642720168221E-1  
 4.034508627156789E9    -2.391563905403018E-2  -1.356992354146461E-1  -9.374083102721600E-1  -2.278831565380097E-1  -9.492978753904758E-1  -2.307469424605370E-1  -1.157636757488945E-3  -1.332932365396365E-1  
 4.035258814703676E9    -2.531589673832059E-2  -1.375749194559146E-1  -9.373960574248089E-1  -2.290788333117962E-1  -9.497920891845434E-1  -2.281560273468495E-1   3.889158725505696E-3  -1.316512777673805E-1  
 4.036009002250563E9    -2.247522296383977E-2  -1.384987975589370E-1  -9.368517374635640E-1  -2.283687052130700E-1  -9.501997447132047E-1  -2.265651017427445E-1   5.233637006022036E-3  -1.348294192523963E-1  
 4.036759189797450E9    -2.443206807598472E-2  -1.371129856000393E-1  -9.371622855546478E-1  -2.234450073540211E-1  -9.490861894875595E-1  -2.244945622980595E-1   2.751764199929312E-3  -1.312453787764772E-1  
 4.037509377344336E9    -2.394307876005769E-2  -1.385879925981096E-1  -9.350747859169527E-1  -2.235978241264820E-1  -9.490207252530404E-1  -2.211568124592304E-1   1.382591296860483E-3  -1.323453368750340E-1  
 4.038259564891223E9    -2.297056706622243E-2  -1.383386284820163E-1  -9.350167027172119E-1  -2.221105265617371E-1  -9.493195079957963E-1  -2.187672013044358E-1   7.559487055550562E-4  -1.377710541422353E-1  
 4.039009752438109E9    -2.315259596332908E-2  -1.414296068180214E-1  -9.343029690545851E-1  -2.208877678215504E-1  -9.487091714662066E-1  -2.171363455057145E-1   4.574681934900583E-3  -1.326455621616241E-1  
 4.039759939984996E9    -2.135908799245953E-2  -1.426585766130910E-1  -9.344642916712729E-1  -2.208059248328209E-1  -9.482312022903772E-1  -2.137162475287914E-1   3.345623417990282E-3  -1.342938577520323E-1  
 4.040510127531883E9    -2.311509210616351E-2  -1.419231150737866E-1  -9.339681602533476E-1  -2.189939247071743E-1  -9.474496984921649E-1  -2.103404961526394E-1  -1.464263986181323E-3  -1.381729206105350E-1  
 4.041260315078770E9    -2.112792043015361E-2  -1.444848992593174E-1  -9.329959426811003E-1  -2.184909236431122E-1  -9.454040269970190E-1  -2.090788094699383E-1  -2.771166590100620E-3  -1.343501067328307E-1  
 4.042010502625657E9    -2.233112657442690E-2  -1.441639765711772E-1  -9.325424563510651E-1  -2.170441308617592E-1  -9.460648826386895E-1  -2.081334982812405E-1  -1.496811030374374E-3  -1.303912574189756E-1  
 4.042760690172543E9    -2.293550198897720E-2  -1.439007641202611E-1  -9.334271210939654E-1  -2.159828275442124E-1  -9.459026102296999E-1  -2.066005648672581E-1  -2.464972319139634E-3  -1.363613380511836E-1  
 4.043510877719430E9    -2.343545444309712E-2  -1.434578704706923E-1  -9.338889754184697E-1  -2.153889372944832E-1  -9.440522395242781E-1  -2.042582403123379E-1   6.520326806639787E-4  -1.338796317717964E-1  
 4.044261065266316E9    -2.184983266517520E-2  -1.466653605932620E-1  -9.327139735889058E-1  -2.145450583100319E-1  -9.428913923874549E-1  -2.024495618045330E-1  -1.619944443227723E-3  -1.300914222799936E-1  
 4.045011252813203E9    -2.238936413079500E-2  -1.445839951498452E-1  -9.319010451739829E-1  -2.138976491987706E-1  -9.419018279236326E-1  -2.010848958790302E-1  -1.655932500398194E-3  -1.294651515656161E-1  
 4.045761440360090E9    -2.167694179341197E-2  -1.454423813737983E-1  -9.337410780430567E-1  -2.138740450143814E-1  -9.421719655886867E-1  -1.987489631772041E-1   4.785861112759449E-4  -1.282700570508734E-1  
 4.046511627906977E9    -2.152407538145781E-2  -1.459778713882338E-1  -9.321722825727880E-1  -2.122751627862453E-1  -9.415266380856873E-1  -1.983431273698807E-1  -3.221098036156036E-3  -1.320897283819292E-1  
 4.047261815453864E9    -2.123203154653311E-2  -1.474588640840614E-1  -9.335610373626813E-1  -2.127055609226227E-1  -9.403462157502464E-1  -1.970147024095059E-1   1.257282974256668E-4  -1.296480183021372E-1  
 4.048012003000750E9    -1.886418154463172E-2  -1.447994167389239E-1  -9.349803507853074E-1  -2.106557586789132E-1  -9.399911282949234E-1  -1.946103431284428E-1   4.040010327007622E-3  -1.292669719509492E-1  
 4.048762190547637E9    -2.015119176357985E-2  -1.471952593070371E-1  -9.337964067842764E-1  -2.105498486757279E-1  -9.381344013772294E-1  -1.946513147652149E-1  -2.946428863797337E-3  -1.298932641952755E-1  
 4.049512378094523E9    -2.170410677790642E-2  -1.456650872421528E-1  -9.340239131503562E-1  -2.084710092842579E-1  -9.375399390909140E-1  -1.926492235064507E-1   2.437370605475735E-3  -1.311890277897815E-1  
 4.050262565641410E9    -2.111649628728629E-2  -1.466525160415758E-1  -9.344332757069160E-1  -2.076227974891663E-1  -9.377819901421762E-1  -1.924744766950607E-1   1.710221933026333E-3  -1.290824877041555E-1  
 4.051012753188297E9    -2.021019212901593E-2  -1.462913677921240E-1  -9.357363964705393E-1  -2.067154407501221E-1  -9.389043258390953E-1  -1.918099661171437E-1   1.522572387766559E-3  -1.281698830769631E-1  
 4.051762940735184E9    -1.611585997045040E-2  -1.427931554215124E-1  -9.377732694433344E-1  -2.049297992885113E-1  -9.381439443640921E-1  -1.905799555778504E-1   2.411305329296738E-3  -1.257406662330269E-1  
 4.052513128282071E9    -1.896089749410749E-2  -1.438454389925301E-1  -9.377291681818541E-1  -2.053629183769226E-1  -9.364795832938067E-1  -1.915184904634953E-1  -2.839360036887229E-3  -1.287282038959286E-1  
 4.053263315828957E9    -1.394864262081683E-2  -1.448065670120059E-1  -9.374022109320803E-1  -2.034983804821968E-1  -9.373685445065695E-1  -1.890817964076996E-1   2.885134886601008E-3  -1.331950652138544E-1  
 4.054013503375844E9    -1.576482773758471E-2  -1.442145692434383E-1  -9.389169000566133E-1  -2.019590185582638E-1  -9.359458046514111E-1  -1.898192249238491E-1  -4.529111855663359E-3  -1.306768299878523E-1  
 4.054763690922730E9    -1.595826287753880E-2  -1.463759179182178E-1  -9.385656001633989E-1  -2.010467822849751E-1  -9.370349041378994E-1  -1.881850303709507E-1   2.297386184654897E-3  -1.294772642430223E-1  
 4.055513878469617E9    -1.431055600754917E-2  -1.431428602400390E-1  -9.399766127440008E-1  -2.007503668963909E-1  -9.373839724168835E-1  -1.870544253289700E-1  -3.141389747906942E-4  -1.287222040936742E-1  
 4.056264066016504E9    -1.379168147221208E-2  -1.409607087644098E-1  -9.417966420571787E-1  -1.975864300131798E-1  -9.368314252535022E-1  -1.866574743390084E-1   2.393592598964460E-3  -1.309122154556176E-1  
 4.057014253563391E9    -1.062950615771115E-2  -1.417555113707252E-1  -9.425000341869880E-1  -1.963044406473637E-1  -9.375614702484473E-1  -1.845127949118614E-1   3.581442247377708E-3  -1.296059418172944E-1  
 4.057764441110278E9    -8.875189302489163E-3  -1.397725882474156E-1  -9.428430918214299E-1  -1.942265659570695E-1  -9.387191446612859E-1  -1.854778984189034E-1  -4.762755076808389E-4  -1.291809109653321E-1  
 4.058514628657164E9    -1.133493370376527E-2  -1.406089420902227E-1  -9.441541487060720E-1  -1.938346265256405E-1  -9.384036732591315E-1  -1.830822776257992E-1   1.965344590280438E-3  -1.279850971810728E-1  
 4.059264816204051E9    -1.040622987784446E-2  -1.392088652443678E-1  -9.456252811680104E-1  -1.923533558845520E-1  -9.394948681031609E-1  -1.831961849331856E-1   2.536845847243968E-3  -1.271754980214118E-1  
 4.060015003750938E9    -8.120718803256750E-3  -1.384917672424597E-1  -9.451888959164431E-1  -1.907290600240231E-1  -9.396928296738416E-1  -1.825766806304455E-1   2.348784260393587E-3  -1.290801414183620E-1  
 4.060765191297824E9    -9.035922773182391E-3  -1.373794168485767E-1  -9.466700824589086E-1  -1.873882769048214E-1  -9.407409955682482E-1  -1.822379021346569E-1  -3.319596191795427E-4  -1.291108839374513E-1  
 4.061515378844711E9    -1.069806572049856E-2  -1.380105276737097E-1  -9.469924034637953E-1  -1.879992227256298E-1  -9.415291831074515E-1  -1.823596325516701E-1   2.032413792912849E-3  -1.313869960298246E-1  
 4.062265566391598E9    -7.968255444429813E-3  -1.356673909746768E-1  -9.487499339818234E-1  -1.857243256270885E-1  -9.420572647650860E-1  -1.809727109968663E-1   5.964772244624328E-4  -1.298000891041235E-1  
 4.063015753938485E9    -8.540552062913777E-3  -1.340172642515573E-1  -9.501666469851007E-1  -1.824287007749081E-1  -9.434012433857897E-1  -1.794564187526703E-1   3.501444057328627E-3  -1.290048478354914E-1  
 4.063765941485371E9    -1.182023217901588E-2  -1.333255569206326E-1  -9.508788716414709E-1  -1.795219847559929E-1  -9.453235841330605E-1  -1.773213820159435E-1   7.181480480358005E-3  -1.262811403966583E-1  
 4.064516129032258E9    -1.044234708882869E-2  -1.310224526824682E-1  -9.513029253267002E-1  -1.786404000222683E-1  -9.457147053784052E-1  -1.770740759372711E-1   5.539380055852234E-3  -1.311192369811856E-1  
 4.065266316579145E9    -1.025989477522671E-2  -1.317353861841983E-1  -9.528524207872312E-1  -1.771197779476643E-1  -9.467064965349910E-1  -1.753359499573708E-1   5.298114323522896E-3  -1.289757986226525E-1  
 4.066016504126031E9    -6.952399043366315E-3  -1.314456728894105E-1  -9.527638906965870E-1  -1.743772427737713E-1  -9.480114512180262E-1  -1.741428633034229E-1   4.507300778059289E-3  -1.306453459703863E-1  
 4.066766691672918E9    -1.287973266094923E-2  -1.306792853816912E-1  -9.541682213624251E-1  -1.746304847300053E-1  -9.492400737166231E-1  -1.739403426647186E-1  -2.837090949105914E-4  -1.304127567908141E-1  
 4.067516879219805E9    -1.206923423334956E-2  -1.297321196631375E-1  -9.545267634407604E-1  -1.708048489689827E-1  -9.511806244616730E-1  -1.726239141821861E-1   2.006819781381637E-3  -1.292467451037542E-1  
 4.068267066766692E9    -1.069999352097512E-2  -1.273482126647462E-1  -9.555725823787229E-1  -1.679701086878777E-1  -9.516782073965826E-1  -1.714172455668450E-1   2.258466485945973E-3  -1.310535485537775E-1  
 4.069017254313579E9    -1.192929213866591E-2  -1.252713971284161E-1  -9.564941584556618E-1  -1.662097921967506E-1  -9.536934852938848E-1  -1.689458900690079E-1   1.086486459826120E-4  -1.304406470734273E-1  
 4.069767441860465E9    -1.348935912363231E-2  -1.259399470513676E-1  -9.572444492776379E-1  -1.640243951976300E-1  -9.551718348019950E-1  -1.683430728316308E-1   9.446966954783422E-4  -1.269773110515684E-1  
